# GHz S RI R 50

1.000000000000000e-03  1.0335286486882374e-03  3.2425534128022648e-04 -9.9894375725640083e-01  4.3821788876505837e-03 -9.9894375725639151e-01  4.3821788876553802e-03  1.0378292328963655e-03  3.2282476718466588e-04
4.368717948717949e-01  1.8169715764143934e-01  2.4323992578486289e-01  3.0434724814689407e-01  8.9261520412085582e-01  3.0434724814689679e-01  8.9261520412086393e-01 -8.6014719759355610e-03 -3.0661387566081194e-01
8.727435897435898e-01  1.8466749837949273e-01 -3.0842901672953910e-01  7.7024808246983789e-01 -4.9435122550722554e-01  7.7024808246983500e-01 -4.9435122550722349e-01 -3.6515570194708125e-01  3.3269824326178039e-02
1.308615384615385e+00  4.8230458074770099e-01  4.9589828833963467e-01 -6.6236806055301589e-01 -2.0702617008173724e-01 -6.6236806055298270e-01 -2.0702617008175297e-01 -6.7219758176961630e-01  1.5813245394206832e-01
1.744487179487180e+00  7.3372474228675133e-01 -5.4527643329078623e-01 -8.4169205880292267e-02  3.6665098575893301e-01 -8.4169205880275072e-02  3.6665098575887606e-01  4.2022546338371952e-01  7.9114736271977115e-01
2.180358974358974e+00  1.1954145248463129e-01 -9.5450483609348369e-01  2.2816367811092045e-01 -2.6191044143629515e-02  2.2816367811090979e-01 -2.6191044143628165e-02 -3.4516715309506435e-01 -8.6018705756670955e-01
2.616230769230769e+00 -5.2958535670061879e-01 -8.3002860909104159e-01  9.2396224540813657e-03 -9.0336892283621309e-02  9.2396224540818288e-03 -9.0336892283624043e-02 -6.6227852176959490e-01  7.0838067261199622e-01
3.052102564102564e+00 -9.0795029560389995e-01 -3.8400683446016404e-01 -5.1462702328384180e-02 -3.9038084111680554e-02 -5.1462702328385915e-02 -3.9038084111680915e-02  5.9423071792830440e-01  7.5802635597013712e-01
3.487974358974359e+00 -9.7624728701011088e-01  1.3348489430351584e-01 -3.7676793319341657e-02  5.1611554889134340e-02 -3.7676793319339888e-02  5.1611554889131168e-02 -1.7880277326959437e-01 -9.0447743206632036e-01
3.923846153846154e+00 -8.0375147735186703e-01  5.7094326164359344e-01  3.1200103548643884e-02  2.8933751817370023e-02  3.1200103548628701e-02  2.8933751817361707e-02 -4.8352038172926415e-01  8.1233415297069678e-01
4.359717948717949e+00 -4.9335217291887534e-01  8.5372083513130104e-01 -1.3614013687974345e-02 -2.2749120191994859e-02 -1.3614013687939098e-02 -2.2749120191993513e-02 -8.8556125949923459e-01  2.4208304264459179e-01
4.795589743589744e+00 -1.3204709783295640e-01  9.7788300434528974e-01 -3.9676254671482071e-03 -1.3160090805723846e-03 -3.9676254672154415e-03 -1.3160090805254666e-03 -9.5468864755812052e-02  9.7712838765394672e-01
5.231461538461539e+00  2.1754295955143876e-01  9.6219416264315571e-01 -2.3260217033973622e-03  1.8352202656395805e-04 -2.3260217036116851e-03  1.8352202663020505e-04  3.5208339696655022e-01  9.2166006704564252e-01
5.667333333333334e+00  5.2270897136601047e-01  8.3465650598209373e-01 -1.2664064855046531e-03  1.2403313765931539e-03 -1.2664064854422416e-03  1.2403313765492392e-03  6.3201142929142518e-01  7.5904477724457065e-01
6.103205128205129e+00  7.7481960678882689e-01  6.0233732450434130e-01 -4.4553743013970638e-04  1.6512897802649098e-03 -4.4553743013994263e-04  1.6512897802651255e-03  8.1234774454092984e-01  5.6313005234930824e-01
6.539076923076924e+00  9.4463595756111218e-01  9.2889878561739386e-02  1.2063220079485885e-03  3.2816832961093823e-03  1.2063220079199012e-03  3.2816832961062316e-03  9.2191009655937761e-01  3.5733759855402658e-01
6.974948717948719e+00  7.8887181247649840e-01  4.2807761333052163e-01  1.8236002821787902e-04 -5.7281517545780414e-03  1.8236002822427872e-04 -5.7281517545842917e-03  9.7650951719760637e-01  1.5352512610543159e-01
7.410820512820513e+00  7.6210382088384176e-01  5.9525597238774541e-01 -2.2253816607787632e-04  7.3441514869574071e-04 -2.2253816607796520e-04  7.3441514868968956e-04  9.8734015392630892e-01 -4.1494253919432678e-02
7.846692307692308e+00  9.6291742903145372e-01  2.0101364103060568e-01  1.2619722748090086e-05 -6.1460731478842867e-05  1.2619722747747280e-05 -6.1460731478584299e-05  9.6222559765628302e-01 -2.2412178177588768e-01
8.282564102564102e+00  9.8419012545922624e-01 -5.1365572319541954e-02 -1.8041802803120237e-04 -1.8954402273980319e-04 -1.8041802803407206e-04 -1.8954402274466581e-04  9.0669613059952681e-01 -3.9177601063904377e-01
8.718435897435898e+00  9.5166016746777826e-01 -2.5748177751579809e-01 -3.6391770671885721e-04 -2.9234335249407538e-05 -3.6391770671892189e-04 -2.9234335249422480e-05  8.2499241037981053e-01 -5.4225599460033069e-01
9.154307692307691e+00  8.8542674272160682e-01 -4.3315235118889028e-01 -3.5739911842443714e-04  2.9965911102811696e-04 -3.5739911843159298e-04  2.9965911101952612e-04  7.2084492416901491e-01 -6.7365418698217394e-01
9.590179487179487e+00  7.9362804451943136e-01 -5.8295561171628540e-01 -2.0757728894264093e-05  5.3629064688286284e-04 -2.0757728907899874e-05  5.3629064688000283e-04  5.9758883377545424e-01 -7.8450456413566272e-01
1.002605128205128e+01  6.8476990006729010e-01 -7.0793066728351683e-01  4.1148619186682193e-04  3.8831609094654130e-04  4.1148619186632732e-04  3.8831609094648205e-04  4.5710139704953057e-01 -8.7342276627014359e-01
1.046192307692308e+01  5.5747179716752848e-01 -8.1075215264020306e-01  6.1387056250718252e-04  8.3867286098462533e-06  6.1387056250521111e-04  8.3867286087586037e-06  3.0191228888004751e-01 -9.3793322126569922e-01
1.089779487179487e+01  4.0888007808699012e-01 -8.8539446757037410e-01  6.0552272691840269e-04 -9.2742786373654462e-04  6.0552272691704039e-04 -9.2742786373732307e-04  1.3435715347413185e-01 -9.7546731962288091e-01
1.133366666666667e+01  3.0097296884993013e-01 -9.1981761566657816e-01 -5.9518278441539406e-04  4.2101546444928790e-04 -5.9518278441607667e-04  4.2101546444864746e-04 -4.2600119490298079e-02 -9.8285228306406414e-01
1.176953846153846e+01  1.4353096760365150e-01 -9.7152118428713585e-01 -5.6856259379337364e-05 -1.8191164076161351e-04 -5.6856259375972983e-05 -1.8191164076214591e-04 -2.2484949680549832e-01 -9.5672617283065586e-01
1.220541025641026e+01 -1.4324391444217250e-02 -9.8310578926220538e-01 -5.6545229653177892e-05  7.1830790407983078e-05 -5.6545229708439432e-05  7.1830790371575759e-05 -4.0871782098313503e-01 -8.9309009239607151e-01
1.264128205128205e+01 -1.7608536607511152e-01 -9.6721063013844288e-01 -1.7714667587418269e-05  9.1491094796507675e-05 -1.7714667584747384e-05  9.1491094798578501e-05 -5.8614731313187418e-01 -7.8603347530208711e-01
1.307715384615385e+01 -3.4788294136301173e-01 -9.1442549682618079e-01  1.6125871554923356e-04  1.8799911746761024e-04  1.6125871555231784e-04  1.8799911746674109e-04 -7.4671755092269676e-01 -6.3239918202996381e-01
1.351302564102564e+01 -4.6484535116649606e-01 -8.6240717810645451e-01 -2.0612417273637720e-04 -2.1135320749622393e-04 -2.0612417273254939e-04 -2.1135320750063842e-04 -8.7587709923277357e-01 -4.2912734687744730e-01
1.394889743589744e+01 -6.2043657093169846e-01 -7.4952405201678851e-01 -3.8913268577800403e-04  7.2414529360546976e-05 -3.8913268578193166e-04  7.2414529356933913e-05 -9.5351510417917917e-01 -1.8010636994669169e-01
1.438476923076923e+01 -7.5883476537576389e-01 -6.1789142824239285e-01 -2.4956516947819243e-04  2.9138212861369421e-04 -2.4956516947885140e-04  2.9138212861375709e-04 -9.5897465914702129e-01  1.0455157792260340e-01
1.482064102564103e+01 -8.7155536874191986e-01 -4.3649225813387965e-01 -1.7261146215633547e-05  4.4232782072512990e-04 -1.7261146216178003e-05  4.4232782072420231e-04 -8.6616558372786123e-01  3.9677882430336248e-01
1.525651282051282e+01 -9.4396126019569171e-01 -2.1217740927481943e-01 -1.9798828527030840e-04  2.5342986473051384e-06 -1.9798828527054586e-04  2.5342986458846057e-06 -6.7676674120231262e-01  6.5536831038974142e-01
1.569238461538462e+01 -9.5420421220278662e-01  5.2729801536287910e-02  3.6405782326978518e-04  1.7330631105094579e-03  3.6405782327019755e-04  1.7330631105094891e-03 -3.9063185918487886e-01  8.4731160925711380e-01
1.612825641025641e+01 -8.7048349955209259e-01  3.4364733343497789e-01  3.0168570120876160e-03  5.0145318151719188e-06  3.0168570120878034e-03  5.0145318146516000e-06 -3.6299122481567053e-02  9.0626557360289073e-01
1.656412820512821e+01 -6.5793092195006275e-01  6.1806945654114931e-01  9.1025760836833253e-04 -3.3853129019181202e-03  9.1025760837098199e-04 -3.3853129019110694e-03  2.8450704638694002e-01  8.2962010496152494e-01
1.700000000000000e+01 -3.0149768519464304e-01  7.9218530085441152e-01 -1.8977011239984915e-03 -3.3422325297857150e-03 -1.8977011239992693e-03 -3.3422325297862952e-03  5.5395911266785924e-01  6.4311633593129369e-01
