# GHz S RI R 50

1.000000000000000e-03  1.0722707824315240e-03  5.6794714210839131e-04  9.9889851715188926e-01 -5.3995060678232601e-03  9.9889851715188382e-01 -5.3995060678152179e-03  1.0780336209976664e-03  5.6659903145787937e-04
6.926907630522089e-02  1.9950297852216804e-03  3.7392386195884406e-02  9.2862449200956254e-01 -3.6088360165206596e-01  9.2862449200955921e-01 -3.6088360165206468e-01  2.7286259997124557e-02  2.7265180920568826e-02
1.375381526104418e-01  9.3373802053074995e-03  8.3699244373584364e-02  7.3519510994105186e-01 -6.6565041368446187e-01  7.3519510994105675e-01 -6.6565041368446642e-01  8.5274062084233868e-02  1.3838387739639645e-02
2.058072289156627e-01  4.0619352762242815e-02  1.3931684985246678e-01  4.4430685162814226e-01 -8.7729155790056945e-01  4.4430685162814409e-01 -8.7729155790057300e-01  1.3711456705030858e-01 -5.4325763107537631e-02
2.740763052208836e-01  1.0884957726880802e-01  1.8473493740800506e-01  1.0028449863275879e-01 -9.6432373290460149e-01  1.0028449863275880e-01 -9.6432373290460205e-01  1.4309960605143038e-01 -1.6232451854934185e-01
3.423453815261044e-01  2.0790900349399388e-01  1.9152337803544134e-01 -2.4184413719506306e-01 -9.1967375016359276e-01 -2.4184413719506545e-01 -9.1967375016360220e-01  8.4252353211937345e-02 -2.7120463323227045e-01
4.106144578313253e-01  3.1068184227543949e-01  1.3974403449233405e-01 -5.3395380521866087e-01 -7.6258032659082708e-01 -5.3395380521861957e-01 -7.6258032659077013e-01 -2.7223578245623898e-02 -3.4023101036569253e-01
4.788835341365462e-01  3.8036535833330537e-01  3.0293338747355524e-02 -7.4740852505222566e-01 -5.2623751628550475e-01 -7.4740852505223987e-01 -5.2623751628551430e-01 -1.5755968609303764e-01 -3.4779609299188707e-01
5.471526104417671e-01  3.8479087850212018e-01 -1.1420422795026676e-01 -8.7142191467465147e-01 -2.4235927503062957e-01 -8.7142191467466446e-01 -2.4235927503063345e-01 -2.7006882299754159e-01 -2.9735697537774491e-01
6.154216867469879e-01  3.0613511127035503e-01 -2.5473471671949205e-01 -9.0208901303628586e-01  6.5268876525112526e-02 -9.0208901303628319e-01  6.5268876525114164e-02 -3.3897080205891172e-01 -2.1107983486462015e-01
6.836907630522088e-01  1.4834613142511782e-01 -3.4187849971255835e-01 -8.3256504876428139e-01  3.7573655240660880e-01 -8.3256504876428949e-01  3.7573655240661435e-01 -3.5561648081345432e-01 -1.2038423470195499e-01
7.519598393574298e-01 -5.2938031164911588e-02 -3.2608072055119364e-01 -6.5267581881602721e-01  6.5881874687899689e-01 -6.5267581881602488e-01  6.5881874687899455e-01 -3.3124088091654391e-01 -5.6452544454147421e-02
8.202289156626507e-01 -2.2425891138143431e-01 -1.8271294322927584e-01 -3.6341968687637671e-01  8.6559922661932509e-01 -3.6341968687638243e-01  8.6559922661929900e-01 -2.9631619018061617e-01 -3.7357647997862342e-02
8.884979919678715e-01 -2.7652788948833867e-01  5.1348122048375772e-02 -8.0892096521814280e-04  9.3946672769617234e-01 -8.0892096521729560e-04  9.3946672769612638e-01 -2.8793885895405885e-01 -5.3257158460235134e-02
9.567670682730924e-01 -1.6679738399322702e-01  2.7221575482836463e-01  3.6060827886490127e-01  8.5314453573438742e-01  3.6060827886482627e-01  8.5314453573435600e-01 -3.2262525430429789e-01 -6.7154180935849545e-02
1.025036144578313e+00  5.6571618674551336e-02  3.7029480754399319e-01  6.4633514273092629e-01  6.3313073334686798e-01  6.4633514273087400e-01  6.3313073334681458e-01 -3.7977236273972587e-01 -4.3703274512945957e-02
1.093305220883534e+00  2.8477212799581325e-01  3.0039322176198685e-01  8.2165264089683410e-01  3.3350410544365128e-01  8.2165264089683443e-01  3.3350410544365083e-01 -4.1937189594132829e-01  2.0998210084455494e-02
1.161574297188755e+00  4.0740123748096996e-01  9.0835307748966740e-02  8.8315906755255602e-01 -7.3039410898070936e-03  8.8315906755255125e-01 -7.3039410898052938e-03 -4.1265901218233991e-01  9.7848228197805739e-02
1.229843373493976e+00  3.3352309886110826e-01 -1.7147655001512743e-01  8.1597954248919147e-01 -3.7415572813503561e-01  8.1597954248922699e-01 -3.7415572813502823e-01 -3.6151497935165322e-01  1.3867632603995667e-01
1.298112449799197e+00  1.7468644487993259e-02 -3.1000588153579600e-01  5.5993121462163031e-01 -7.2330691290415450e-01  5.5993121462162632e-01 -7.2330691290415206e-01 -3.2134034864956856e-01  9.8487031246275544e-02
1.366381526104418e+00 -3.6911060793975797e-01 -7.0059717259821006e-02  8.7518427627114301e-02 -8.7824780528258417e-01  8.7518427627112177e-02 -8.7824780528258162e-01 -4.0595505352206490e-01  1.9307064215968658e-02
1.434650602409639e+00 -3.7419996918336729e-01  4.6142789135101780e-01 -3.5105940274104486e-01 -6.6731795854737919e-01 -3.5105940274103736e-01 -6.6731795854741494e-01 -6.0673888241021023e-01  8.9677747462897472e-02
1.502919678714860e+00  2.0516948929519694e-02  7.7441749676660110e-01 -4.8666347571674645e-01 -3.1457944223186640e-01 -4.8666347571675028e-01 -3.1457944223187856e-01 -7.0502925426194896e-01  3.4243826832965918e-01
1.571188755020080e+00  4.3407759045967659e-01  7.5868901243869313e-01 -4.2631691843624520e-01 -6.9677818729178179e-02 -4.2631691843622987e-01 -6.9677818729180871e-02 -6.2788304366860181e-01  6.1154463848778429e-01
1.639457831325301e+00  7.1383116303885941e-01  5.8647436811957276e-01 -3.2294592019214768e-01  5.6682975194932136e-02 -3.2294592019222651e-01  5.6682975195005224e-02 -4.4059562062058855e-01  8.0955803781342150e-01
1.707726907630522e+00  8.7311647180355278e-01  3.7305081528930012e-01 -2.3028048127404777e-01  1.1501245298594097e-01 -2.3028048127407622e-01  1.1501245298596122e-01 -1.9660044048690736e-01  9.2305680163848602e-01
1.775995983935743e+00  9.4957721770001779e-01  1.6317654698682899e-01 -1.5627049566754500e-01  1.3921196144449369e-01 -1.5627049566780929e-01  1.3921196144399697e-01  7.6629649470257563e-02  9.5146171866928297e-01
1.844265060240964e+00  9.7124167618443913e-01 -2.8992633137737197e-02 -9.7550624717298598e-02  1.4604710269067558e-01 -9.7550624717546955e-02  1.4604710269057170e-01  3.5978090754368802e-01  8.8930768271074934e-01
1.912534136546185e+00  9.5600698609821100e-01 -2.0016137258455291e-01 -4.9677435329555639e-02  1.4292338197764209e-01 -4.9677435329487589e-02  1.4292338197769655e-01  6.2855806090004984e-01  7.2632706301000505e-01
1.980803212851406e+00  9.1519557341385405e-01 -3.5062032082151140e-01 -9.5717949363050506e-03  1.3256084939915905e-01 -9.5717949363052952e-03  1.3256084939914523e-01  8.4472357406218124e-01  4.5487231392459743e-01
2.049072289156626e+00  8.5617732133798052e-01 -4.8172304981490582e-01  2.3861293219289474e-02  1.1553681443923267e-01  2.3861293219298522e-02  1.1553681443925830e-01  9.5301172915597987e-01  8.5266716871888734e-02
2.117341365461848e+00  7.8391774867324238e-01 -5.9501732559968890e-01  4.9660859972455104e-02  9.2197965624828390e-02  4.9660859972336428e-02  9.2197965624726069e-02  8.9364927558736496e-01 -3.3326140534052823e-01
2.185610441767068e+00  7.0186799873117578e-01 -6.9192728851347174e-01  6.5680326069287837e-02  6.4417743213814008e-02  6.5680326069274528e-02  6.4417743213803266e-02  6.3917544217877098e-01 -7.0483173700802360e-01
2.253879518072289e+00  6.1252932780183666e-01 -7.7362527926529012e-01  7.0712786636069544e-02  3.6219536828617546e-02  7.0712786636098215e-02  3.6219536828637766e-02  2.3493045579909885e-01 -9.2157338528018296e-01
2.322148594377510e+00  5.1785664200386983e-01 -8.4102936412492790e-01  6.6334437646942107e-02  1.2143202410856967e-02  6.6334437646952113e-02  1.2143202410858029e-02 -2.0921396502487083e-01 -9.2943875853334967e-01
2.390417670682731e+00  4.1950551395571933e-01 -8.9490165493491713e-01  5.6346413196607464e-02 -5.2218209638143880e-03  5.6346413196628128e-02 -5.2218209638113999e-03 -5.8340527282142540e-01 -7.5708579532157816e-01
2.458686746987952e+00  3.1892672545702688e-01 -9.3594918285053585e-01  4.4586542916747393e-02 -1.5923497871704332e-02  4.4586542916746699e-02 -1.5923497871704662e-02 -8.3081826421554972e-01 -4.7974456686751615e-01
2.526955823293173e+00  2.1739096594665616e-01 -9.6486772386519837e-01  3.3499460227639812e-02 -2.1524554280483360e-02  3.3499460227641852e-02 -2.1524554280484214e-02 -9.4776856649920616e-01 -1.6911181302398792e-01
2.595224899598394e+00  1.1600459849774689e-01 -9.8234761166160300e-01  2.4089748625975071e-02 -2.3817695570173131e-02  2.4089748625972480e-02 -2.3817695570169370e-02 -9.5690043912430189e-01  1.2857026162882382e-01
2.663493975903615e+00  1.5730990646691454e-02 -9.8906738509766456e-01  1.6476810290430050e-02 -2.4199984325075516e-02  1.6476810290429886e-02 -2.4199984325075100e-02 -8.8531565989587180e-01  3.9031548092614249e-01
2.731763052208835e+00 -8.2584145805983569e-02 -9.8568974049009839e-01  1.0398202338744274e-02 -2.3577782870117543e-02  1.0398202338744214e-02 -2.3577782870122625e-02 -7.5505969324261935e-01  6.0703811897971283e-01
2.800032128514057e+00 -1.7819030605413605e-01 -9.7286394916169339e-01  5.4900664560904294e-03 -2.2475949793404521e-02  5.4900664560928215e-03 -2.2475949793409410e-02 -5.8131319997470632e-01  7.7565687896309277e-01
2.868301204819277e+00 -2.7041646296889899e-01 -9.5123175525160220e-01  1.4024151883194349e-03 -2.1165024437511910e-02  1.4024151883176668e-03 -2.1165024437532806e-02 -3.7360183841802702e-01  8.9402821500220075e-01
2.936570281124498e+00 -3.5866155184322995e-01 -9.2143331539533146e-01 -2.1678800119637551e-03 -1.9748975512201401e-02 -2.1678800119547897e-03 -1.9748975512216698e-02 -1.3792258804157206e-01  9.5770160494018852e-01
3.004839357429719e+00 -4.4238923899740989e-01 -8.8411159051147237e-01 -5.4731912243908918e-03 -1.8208760236919103e-02 -5.4731912243844178e-03 -1.8208760236916789e-02  1.2044733543128783e-01  9.5740590375991297e-01
3.073108433734940e+00 -5.2112529941183305e-01 -8.3991490298499305e-01 -8.7079841694862568e-03 -1.6408812127761664e-02 -8.7079841694872873e-03 -1.6408812127761567e-02  3.9243882411835773e-01  8.7686235097995435e-01
3.141377510040161e+00 -5.9445657030700849e-01 -7.8949792387780704e-01 -1.1966978573311275e-02 -1.4078465490512058e-02 -1.1966978573293922e-02 -1.4078465490501303e-02  6.5683445381846950e-01  6.9222880820667654e-01
3.209646586345382e+00 -6.6203113572003514e-01 -7.3352138624971508e-01 -1.5124721751752971e-02 -1.0808907328285869e-02 -1.5124721751728897e-02 -1.0808907328250164e-02  8.6606551725473480e-01  3.7898139512284906e-01
3.277915662650603e+00 -7.2355993089911597e-01 -6.7265010402010106e-01 -1.7619404627165339e-02 -6.1979512176509139e-03 -1.7619404627160766e-02 -6.1979512176483648e-03  9.3254427860227895e-01 -6.0048822070865107e-02
3.346184738955824e+00 -7.7881886711169301e-01 -6.0754723119704002e-01 -1.8365363399935695e-02 -3.5947771274957911e-04 -1.8365363399934772e-02 -3.5947771275340803e-04  7.5127631244497839e-01 -5.3831953158632417e-01
3.414453815261044e+00 -8.2764580101894203e-01 -5.3886419950629905e-01 -1.6437570145960874e-02  5.4547619697942118e-03 -1.6437570145960197e-02  5.4547619697934953e-03  3.0668906326709128e-01 -8.6650504723500743e-01
3.482722891566265e+00 -8.6992828696366165e-01 -4.6723692493875557e-01 -1.2352338465577258e-02  9.4419512019422742e-03 -1.2352338465573624e-02  9.4419512019341869e-03 -2.3663617970648251e-01 -8.9098605907595374e-01
3.550991967871486e+00 -9.0559865558373598e-01 -3.9329648489710883e-01 -7.8409921417750428e-03  1.0971703076772315e-02 -7.8409921417356265e-03  1.0971703076786417e-02 -6.6357728460295773e-01 -6.5138105764268428e-01
3.619261044176707e+00 -9.3464763313539567e-01 -3.1767249822943427e-01 -4.1718909728920804e-03  1.0821684256894266e-02 -4.1718909728897238e-03  1.0821684256892856e-02 -8.8934678023609082e-01 -3.0081557079396176e-01
3.687530120481928e+00 -9.5713356918204828e-01 -2.4097647733957070e-01 -1.5696638363965505e-03  1.0002500341240009e-02 -1.5696638363958033e-03  1.0002500341240695e-02 -9.4521001474662847e-01  4.4790984187012751e-02
3.755799196787149e+00 -9.7317353623805691e-01 -1.6378367854375009e-01  2.6396745963585514e-04  9.1082188397597439e-03  2.6396745963548824e-04  9.1082188397526263e-03 -8.8891686467683984e-01  3.3881850421755233e-01
3.824068273092370e+00 -9.8292703003119875e-01 -8.6627682038769610e-02  1.6943770744825288e-03  8.3585782432860720e-03  1.6943770744806258e-03  8.3585782432785069e-03 -7.6180467311092948e-01  5.7368923854646348e-01
3.892337349397590e+00 -9.8658518874648660e-01 -1.0004581138097893e-02  3.0283142727272000e-03  7.7875532101651075e-03  3.0283142727151676e-03  7.7875532101538058e-03 -5.8246414435088767e-01  7.5393014621442878e-01
3.960606425702812e+00 -9.8436734220373046e-01  6.5622717338840175e-02  4.5709081992617757e-03  7.3382146299838221e-03  4.5709081992625295e-03  7.3382146299802390e-03 -3.4786964126991632e-01  8.8019407127806304e-01
4.028875502008033e+00 -9.7651904684910651e-01  1.3982354636732791e-01  6.7823085788592920e-03  6.7824518718889127e-03  6.7823085789300410e-03  6.7824518720484579e-03 -2.9069397776182310e-02  9.2803387262827353e-01
4.097144578313253e+00 -9.6330708128752363e-01  2.1219627915381936e-01  1.0471942187500095e-02  5.0556617799028918e-03  1.0471942187610096e-02  5.0556617797915511e-03  4.2499179724392272e-01  7.6747357699489360e-01
4.165413654618474e+00 -9.4503072859805792e-01  2.8234272503420016e-01  1.4351978054910093e-02 -2.3854812510434868e-03  1.4351978054928270e-02 -2.3854812510459736e-03  7.3863283526390056e-01 -5.9967677104826221e-02
4.233682730923695e+00 -9.2212367059076139e-01  3.4995816056877499e-01  5.7503933029713020e-03 -1.0709664147799598e-02  5.7503933029539427e-03 -1.0709664147793910e-02 -3.5755127557769933e-01 -6.5528279869769723e-01
4.301951807228916e+00 -8.9481977394866752e-01  4.1490619880703966e-01 -8.0501987735175898e-04 -6.7245606976184214e-03 -8.0501987735447761e-04 -6.7245606976210157e-03 -8.8423592184384703e-01  3.6981150290432439e-02
4.370220883534137e+00 -8.6339684764741931e-01  4.7684246143244541e-01 -1.6767633447411984e-03 -3.4313469714033181e-03 -1.6767633447253821e-03 -3.4313469714119809e-03 -8.0663360492931957e-01  4.7879907836716501e-01
4.438489959839358e+00 -8.2823250356679334e-01  5.3554327534413748e-01 -1.4181952158924083e-03 -1.7551840368719876e-03 -1.4181952158970525e-03 -1.7551840368772277e-03 -6.5530847220489263e-01  6.9984410097337735e-01
4.506759036144579e+00 -7.8967868535876384e-01  5.9084124911499403e-01 -9.9255896678006848e-04 -8.7595337724561968e-04 -9.9255896679108940e-04 -8.7595337726860368e-04 -5.1353371813209281e-01  8.2127386687275417e-01
4.575028112449800e+00 -7.4807858233029889e-01  6.4259811676721912e-01 -5.7228272911752484e-04 -4.1178092018548173e-04 -5.7228272913022388e-04 -4.1178092018780718e-04 -3.8878520367107244e-01  8.9309602249160081e-01
4.643297188755020e+00 -7.0377195989599806e-01  6.9070298751453441e-01 -1.9206266953920986e-04 -1.9972860411601506e-04 -1.9206266955162801e-04 -1.9972860412057660e-04 -2.7869314488858149e-01  9.3679726357609139e-01
4.711566265060241e+00 -6.5709703063147251e-01  7.3507264657317739e-01  1.3271974176713611e-04 -1.6517321995232061e-04  1.3271974177136254e-04 -1.6517321995177385e-04 -1.8033839704305099e-01  9.6280243831213208e-01
4.779835341365462e+00 -6.0839110497612559e-01  7.7565461876976205e-01  3.8224316137637054e-04 -2.6558446126631575e-04  3.8224316138643410e-04 -2.6558446126212926e-04 -9.1448769709064626e-02  9.7676187849980922e-01
4.848104417670683e+00 -5.5798713183584880e-01  8.1243336282575151e-01  5.3209394546885021e-04 -4.6261257052653085e-04  5.3209394547929195e-04 -4.6261257052250798e-04 -1.0365439242305043e-02  9.8203714985872814e-01
4.916373493975904e+00 -5.0620239138944434e-01  8.4543561283070057e-01  5.6369660124013421e-04 -7.0975424291785569e-04  5.6369660124896644e-04 -7.0975424291448328e-04  6.4134893595337347e-02  9.8078728066105081e-01
4.984642570281125e+00 -4.5332077560943196e-01  8.7472699506606022e-01  4.7699178193154394e-04 -9.5508451378711813e-04  4.7699178193972425e-04 -9.5508451378542331e-04  1.3298524298656586e-01  9.7448036062917642e-01
5.052911646586346e+00 -3.9957810926286874e-01  9.0039626782942073e-01  2.9419424720581643e-04 -1.1549787606831741e-03  2.9419424723010006e-04 -1.1549787606835093e-03  1.9691957075736322e-01  9.6415016073208848e-01
5.121180722891567e+00 -3.4515880141350169e-01  9.2253506486306414e-01  4.9979691206622175e-05 -1.2863479901815927e-03  4.9979691204786736e-05 -1.2863479901764057e-03  2.5652189900481687e-01  9.5054000550935935e-01
5.189449799196788e+00 -2.9019891756202781e-01  9.4122491638545103e-01 -2.2394901707691690e-04 -1.3473953536378245e-03 -2.2394901706772945e-04 -1.3473953536387012e-03  3.1225517945826187e-01  9.3419710970047531e-01
5.257718875502008e+00 -2.3478003826069799e-01  9.5653334930703082e-01 -5.0924197359237036e-04 -1.3488471015545153e-03 -5.0924197360892320e-04 -1.3488471015683698e-03  3.6448573837858234e-01  9.1553869873041605e-01
5.325987951807229e+00 -1.7889542499192965e-01  9.6850933148062091e-01 -8.0391637382988535e-04 -1.3036393025676175e-03 -8.0391637383646049e-04 -1.3036393025654602e-03  4.1350675823486938e-01  8.9489583221475411e-01
5.394257028112450e+00 -1.2235532383875970e-01  9.7716006064515459e-01 -1.1233489864313439e-03 -1.2193351633728192e-03 -1.1233489863894037e-03 -1.2193351634083524e-03  4.5955834533414142e-01  8.7254006511424576e-01
5.462526104417671e+00 -6.4518816789677691e-02  9.8236023272237838e-01 -1.5088658109878486e-03 -1.0907903288161283e-03 -1.5088658110006810e-03 -1.0907903288125420e-03  5.0284276585589660e-01  8.4869894722834827e-01
5.530795180722892e+00 -3.3434192918785806e-03  9.8343832583641477e-01 -2.0701906404029559e-03 -8.7734416099296240e-04 -2.0701906404101298e-03 -8.7734416099415275e-04  5.4353647540871985e-01  8.2356452240558042e-01
5.599064257028113e+00  6.9667552666876062e-02  9.7596438701990862e-01 -3.2237028992360226e-03 -3.3168769346271791e-04 -3.2237028992095807e-03 -3.3168769348005701e-04  5.8180789563425050e-01  7.9729084165971198e-01
5.667333333333334e+00  1.9731631934344168e-01  8.4068560966333461e-01 -6.7599991685215275e-03  6.5492386037577129e-03 -6.7599991685308829e-03  6.5492386037568056e-03  6.1785910235749397e-01  7.6972252699285559e-01
5.735602409638555e+00  4.7633515905608749e-02  9.6369488943534309e-01  2.6212379692451410e-03 -1.6264534530719611e-04  2.6212379691875325e-03 -1.6264534530801805e-04  6.5110539063957495e-01  7.4201116968104364e-01
5.803871485943776e+00  1.3751269187250278e-01  9.7143022370160759e-01  4.6559028495535732e-04 -6.3049210388377882e-04  4.6559028492818873e-04 -6.3049210392497580e-04  6.8279935097788980e-01  7.1322542786628429e-01
5.872140562248996e+00  1.9812475580546809e-01  9.6351846278068332e-01 -2.4717619502838005e-04 -4.9102887997326951e-04 -2.4717619493667216e-04 -4.9102888007343385e-04  7.1240699564411980e-01  6.8378110995469454e-01
5.940409638554217e+00  2.5102052178708945e-01  9.5199189635028891e-01 -6.0564553982590298e-04 -2.7151589637961344e-04 -6.0564553981048877e-04 -2.7151589636435292e-04  7.4006461511083066e-01  6.5379605475163682e-01
6.008678714859438e+00  3.0014908415699737e-01  9.3803757860536829e-01 -7.9842605474843417e-04 -1.7639415840666329e-05 -7.9842605473776323e-04 -1.7639415845867691e-05  7.6585661588697962e-01  6.2336188294026451e-01
6.076947791164659e+00  3.4670709872791838e-01  9.2199372429150117e-01 -8.7585387846499498e-04  2.5253419565202665e-04 -8.7585387846458569e-04  2.5253419564933571e-04  7.8985811653129179e-01  5.9256568505704488e-01
6.145216867469879e+00  3.9115379013631918e-01  9.0405010682417530e-01 -8.5527703818090418e-04  5.1914262496435294e-04 -8.5527703816959573e-04  5.1914262493082584e-04  8.1214428293189178e-01  5.6149025484457660e-01
6.213485943775101e+00  4.3369190777210892e-01  8.8436138446715473e-01 -7.4949598841741528e-04  7.5880205005608747e-04 -7.4949598844363541e-04  7.5880205001114436e-04  8.3279425725328438e-01  5.3021043190702133e-01
6.281755020080322e+00  4.7442526374525429e-01  8.6307053813501056e-01 -5.7680301521939364e-04  9.4950920440586167e-04 -5.7680301522125630e-04  9.4950920441046833e-04  8.5189050230572494e-01  4.9878788079194231e-01
