# GHz S RI R 50

1.000000000000000e-03  8.6187978787116769e-04 -2.3438137723689871e-03 -9.9907584483358691e-01  6.0632645909208960e-03 -9.9907584483359557e-01  6.0632645909324797e-03  8.6061350818957623e-04 -2.3429935031570202e-03
8.642211055276383e-02 -9.1039049707733327e-02 -1.7236975218482017e-01 -8.5095884699545365e-01  4.8043191401121826e-01 -8.5095884699545177e-01  4.8043191401121726e-01 -9.8441295344785198e-02 -1.6795126823774195e-01
1.718442211055277e-01 -2.7169391338572391e-01 -1.9735061332104825e-01 -5.1331148199737642e-01  7.8260583648231541e-01 -5.1331148199738175e-01  7.8260583648232340e-01 -2.8744609881477673e-01 -1.7237707761597645e-01
2.572663316582915e-01 -3.9673288240209736e-01 -8.3500410294140417e-02 -1.2357510859124940e-01  8.9748371512753056e-01 -1.2357510859124916e-01  8.9748371512752900e-01 -4.0335026084263786e-01 -2.9848353600581891e-02
3.426884422110553e-01 -3.9665455802152566e-01  7.9702191059233332e-02  2.6291187103334995e-01  8.6521407138397943e-01  2.6291187103334795e-01  8.6521407138397255e-01 -3.7451673965558296e-01  1.4978199514931800e-01
4.281105527638192e-01 -2.7177979325231838e-01  1.9202059667348209e-01  6.2961969470987500e-01  6.8553643729556668e-01  6.2961969470988333e-01  6.8553643729557556e-01 -2.1858096164843438e-01  2.4911860557730953e-01
5.135326633165830e-01 -9.2930141292242599e-02  1.6421802389034837e-01  9.1157797212312586e-01  3.2529704290698930e-01  9.1157797212312774e-01  3.2529704290699091e-01 -4.0476399054734651e-02  1.8297436664972841e-01
5.989547738693468e-01 -5.6073644292533907e-03 -7.5712154217598181e-03  9.6870198746452796e-01 -1.7318759782970355e-01  9.6870198746453617e-01 -1.7318759782970561e-01 -6.9521505110792655e-03 -6.4455053679850997e-03
6.843768844221106e-01 -9.6675568028851744e-02 -1.7481977975865670e-01  7.3639863655172266e-01 -6.1991233938493384e-01  7.3639863655172766e-01 -6.1991233938493895e-01 -1.6123870095067502e-01 -1.1836630522380845e-01
7.697989949748745e-01 -2.6782063306190695e-01 -1.9762332605053831e-01  3.3803548103230796e-01 -8.6055630168595965e-01  3.3803548103229897e-01 -8.6055630168595787e-01 -3.3070270045518840e-01 -3.2441160441113379e-02
8.552211055276383e-01 -3.7570904175866299e-01 -9.2220205913195852e-02 -8.9483534865397604e-02 -8.9791580060524301e-01 -8.9483534865472544e-02 -8.9791580060520881e-01 -3.4884544256697536e-01  1.6354437760212415e-01
9.406432160804020e-01 -3.5767623344466132e-01  4.3160949532401974e-02 -4.9808201958962905e-01 -7.6297894180099957e-01 -4.9808201958957371e-01 -7.6297894180134951e-01 -1.8760121075193686e-01  3.0392638554785467e-01
1.026065326633166e+00 -2.3437876837118043e-01  1.0011883523842492e-01 -8.3871757853496909e-01 -4.3041244159294306e-01 -8.3871757853497486e-01 -4.3041244159294495e-01  4.2020446139873303e-02  2.4518643177426105e-01
1.111487437185930e+00 -1.1743196907377336e-01  1.7240308891476628e-02 -9.6125088207278564e-01  9.4271973511153045e-02 -9.6125088207278464e-01  9.4271973511141624e-02  1.0335784494738201e-01  2.3306979063581527e-03
1.196909547738694e+00 -1.2260390821639691e-01 -1.1773459585554365e-01 -7.3052278264536519e-01  6.1682647293548565e-01 -7.3052278264535875e-01  6.1682647293547721e-01 -9.6987518787791896e-02 -1.2538643950387526e-01
1.282331658291457e+00 -1.8355627726507309e-01 -1.7675553006285236e-01 -2.3143063329247665e-01  9.0606804605559055e-01 -2.3143063329252916e-01  9.0606804605548252e-01 -2.3196629851690981e-01  6.6558032730452993e-02
1.367753768844221e+00 -1.6995531260959901e-01 -2.3904977210101733e-01  3.9592447335706488e-01  8.2949631899816967e-01  3.9592447335710990e-01  8.2949631899820009e-01  7.7507588771309949e-02  2.4963476419809411e-01
1.453175879396985e+00 -2.5650198598264945e-01 -4.7864642647383632e-01  7.6369833997140912e-01  2.2177123960338910e-01  7.6369833997139414e-01  2.2177123960336864e-01  4.1722546297523616e-01 -2.8927423246245609e-01
1.538597989949749e+00 -6.2481028771305969e-01 -5.3526728614995656e-01  4.5387345757940967e-01 -2.5019013078545899e-01  4.5387345757942410e-01 -2.5019013078547014e-01 -1.7537170804804200e-01 -7.7821703945298182e-01
1.624020100502513e+00 -8.6801056628341555e-01 -3.3635356941102340e-01  1.5396974628499210e-01 -2.6689283532495151e-01  1.5396974628499130e-01 -2.6689283532493679e-01 -7.4481976007961392e-01 -5.2739518066912028e-01
1.709442211055276e+00 -9.5746751510720463e-01 -1.2230773476316650e-01  2.7797875499272266e-02 -1.9276770994565631e-01  2.7797875499271901e-02 -1.9276770994565431e-01 -9.4415772419815891e-01 -1.0438249462470038e-01
1.794864321608040e+00 -9.7605807930836486e-01  5.6550506811167377e-02 -2.0814011703605254e-02 -1.3224748941355044e-01 -2.0814011703594197e-02 -1.3224748941354417e-01 -9.2156859757767706e-01  2.7948639741564685e-01
1.880286432160804e+00 -9.6158211420861905e-01  2.0409876706296817e-01 -4.0370288436830458e-02 -9.0723114991004397e-02 -4.0370288436830791e-02 -9.0723114991007200e-02 -7.6423351391001637e-01  5.9309153774917744e-01
1.965708542713568e+00 -9.2942304361541872e-01  3.2791185324053979e-01 -4.8871778297168759e-02 -6.1661685366044980e-02 -4.8871778297154479e-02 -6.1661685366039255e-02 -5.0269156324360065e-01  8.2655727988283101e-01
2.051130653266332e+00 -8.8661585031930956e-01  4.3345937641353427e-01 -5.2875974554943077e-02 -3.9423782757317755e-02 -5.2875974554935888e-02 -3.9423782757305653e-02 -1.4577990058039098e-01  9.5322623878471702e-01
2.136552763819096e+00 -8.3685129790379575e-01  5.2437718530633726e-01 -5.4188307911877190e-02 -2.0033667808276416e-02 -5.4188307911879112e-02 -2.0033667808180933e-02  2.8833610802221105e-01  9.1371970341936892e-01
2.221974874371859e+00 -7.8235212068837368e-01  6.0312088193314417e-01 -5.1770432362284319e-02 -1.2688134315518226e-03 -5.1770432362205465e-02 -1.2688134315129724e-03  7.1871885335502117e-01  6.2010285000382837e-01
2.307396984924623e+00 -7.2465519203234552e-01  6.7148135597537928e-01 -4.3090885202772801e-02  1.5872501356925351e-02 -4.3090885202787935e-02  1.5872501356934361e-02  9.3925529124665330e-01  4.4870793461061917e-02
2.392819095477387e+00 -6.6483395487777697e-01  7.3095722340002556e-01 -2.8329913439312373e-02  2.6640349024784817e-02 -2.8329913439231240e-02  2.6640349024832151e-02  7.2485679946110981e-01 -5.9346704590285904e-01
2.478241206030151e+00 -6.0346542373129297e-01  7.8276991421653486e-01 -1.3221406604548460e-02  2.8334871459800053e-02 -1.3221406604518000e-02  2.8334871459747651e-02  1.6838516162363851e-01 -9.2598374880968304e-01
2.563663316582915e+00 -5.4085820110847926e-01  8.2770539728009185e-01 -2.7456779358090871e-03  2.4454547797721632e-02 -2.7456779357687157e-03  2.4454547797704021e-02 -3.8599177465911250e-01 -8.6731843104580009e-01
2.649085427135678e+00 -4.7734047761001913e-01  8.6626510761261499e-01  3.0657917831520137e-03  1.9434908472932638e-02  3.0657917832089916e-03  1.9434908472884517e-02 -7.5029586931409287e-01 -5.9370508467531768e-01
2.734507537688442e+00 -4.1326998537434023e-01  8.9886983634610007e-01  6.1253796129274920e-03  1.5206008540212680e-02  6.1253796129326580e-03  1.5206008540235710e-02 -9.2577641483546358e-01 -2.6057664587536888e-01
2.819929648241206e+00 -3.4897097652648773e-01  9.2590986341180381e-01  8.0028420822981124e-03  1.2054543418614389e-02  8.0028420823537814e-03  1.2054543418637195e-02 -9.6143924741937437e-01  6.6521933906312558e-02
2.905351758793970e+00 -2.8471635399423689e-01  9.4773756680663668e-01  9.7275486818623452e-03  9.7037099949236847e-03  9.7275486818643418e-03  9.7037099949377637e-03 -8.8581170742551973e-01  3.7438579965873137e-01
2.990773869346734e+00 -2.2073431067440599e-01  9.6465875951031510e-01  1.2221043238172444e-02  7.5589577274826070e-03  1.2221043238270375e-02  7.5589577274648607e-03 -6.7794597728732897e-01  6.6722679286635844e-01
3.076195979899498e+00 -1.5722555368120472e-01  9.7691866061020283e-01  1.6824779697990507e-02  3.6182546660636274e-03  1.6824779697937997e-02  3.6182546660965533e-03 -1.9136907000643644e-01  8.9256076435018727e-01
3.161618090452261e+00 -9.4477470678035649e-02  9.8469476838866266e-01  1.9253901445065062e-02 -1.1219588521278794e-02  1.9253901445062577e-02 -1.1219588521310381e-02  7.3165232258732138e-01  2.6090971366789611e-01
3.247040201005025e+00 -3.2683479682350490e-02  9.8855210984199582e-01 -5.7938042959618252e-04 -1.4215726001493505e-02 -5.7938042958608827e-04 -1.4215726001452371e-02 -3.5865149536594265e-01 -7.6418191540380043e-01
3.332462311557789e+00  2.8353572315127865e-02  9.8835424597822630e-01 -3.0042007055388043e-03 -5.3453285408740564e-03 -3.0042007055665759e-03 -5.3453285408596885e-03 -9.2159986883345435e-01 -1.7643622440652648e-01
3.417884422110553e+00  8.8141087706137641e-02  9.8418996347534826e-01 -1.6006932927031367e-03 -2.3892718163978973e-03 -1.6006932927022069e-03 -2.3892718163957471e-03 -9.4129813298265330e-01  2.0918847583784619e-01
3.503306532663317e+00  1.4639208091265127e-01  9.7634458915204569e-01 -4.9330777858375727e-04 -1.5939052902865837e-03 -4.9330777858200433e-04 -1.5939052902779714e-03 -8.6989920644984020e-01  4.3773451962153431e-01
3.588728643216081e+00  2.0286764171294783e-01  9.6519039767185133e-01  7.4451276256703205e-05 -1.6242153701812878e-03  7.4451276284397984e-05 -1.6242153702095260e-03 -7.8103843460354760e-01  5.8913918658978370e-01
3.674150753768844e+00  2.5752442850131502e-01  9.5119083346943800e-01  1.3810186079250876e-04 -1.9111737287239420e-03  1.3810186090562550e-04 -1.9111737287610094e-03 -6.8981391524586333e-01  6.9725518768378514e-01
3.759572864321608e+00  3.1056679622131877e-01  9.3467549582770093e-01 -1.4521267394773934e-04 -2.1293363175087991e-03 -1.4521267392644639e-04 -2.1293363175060444e-03 -6.0008786493588417e-01  7.7786342602919101e-01
3.844994974874372e+00  3.6222827543253511e-01  9.1569282845385136e-01 -5.6566870200958888e-04 -2.1640884875069660e-03 -5.6566870200224710e-04 -2.1640884875074253e-03 -5.1291182101297450e-01  8.3928548814432868e-01
3.930417085427136e+00  4.1257371690449068e-01  8.9414189339448436e-01 -9.8183006322636527e-04 -2.0467165634728778e-03 -9.8183006321734862e-04 -2.0467165634774059e-03 -4.2853965126641475e-01  8.8635210181057478e-01
4.015839195979900e+00  4.6152308259388597e-01  8.6994422734856358e-01 -1.3466260008073701e-03 -1.8426440887339168e-03 -1.3466260008292775e-03 -1.8426440888209019e-03 -3.4700752083146985e-01  9.2210694009209293e-01
4.101261306532663e+00  5.0895008846555922e-01  8.4308644065292082e-01 -1.6650309336358579e-03 -1.5941278084367083e-03 -1.6650309336817552e-03 -1.5941278084510009e-03 -2.6829724124132764e-01  9.4861341132986632e-01
4.186683417085428e+00  5.5473579483444679e-01  8.1359033846531792e-01 -1.9562300980755583e-03 -1.3140195325459176e-03 -1.9562300980315167e-03 -1.3140195325653122e-03 -1.9237705353844486e-01  9.6735615422847188e-01
4.272105527638191e+00  5.9877808016426393e-01  7.8147760902014629e-01 -2.2361543657615792e-03 -9.9428974128096281e-04 -2.2361543657495710e-03 -9.9428974128417660e-04 -1.1921192154740923e-01  9.7945266396265940e-01
4.357527638190955e+00  6.4098195526352009e-01  7.4674567369835443e-01 -2.5107984498244488e-03 -6.1318218958245053e-04 -2.5107984498710127e-03 -6.1318218953503099e-04 -4.8767398079823054e-02  9.8577315399146026e-01
4.442949748743718e+00  6.8124215181001191e-01  7.0935185873012385e-01 -2.7716322022896954e-03 -1.3925556732901793e-04 -2.7716322022676475e-03 -1.3925556732457764e-04  1.8987353142206943e-02  9.8701332530528585e-01
4.528371859296483e+00  7.1941955869335894e-01  6.6920306821526254e-01 -2.9887279198365147e-03  4.6465137880528700e-04 -2.9887279197658798e-03  4.6465137881892079e-04  8.4075704281671493e-02  9.8374188525229866e-01
4.613793969849247e+00  7.5531207434093806e-01  6.2615240261485283e-01 -3.1007325578795235e-03  1.2321273802252033e-03 -3.1007325579279648e-03  1.2321273801828945e-03  1.4650848054695514e-01  9.7643553065548261e-01
4.699216080402010e+00  7.8862948796534527e-01  5.8000297936689071e-01 -3.0068917410589532e-03  2.1715387860599066e-03 -3.0068917410973825e-03  2.1715387861607300e-03  2.0627990126024232e-01  9.6551056020426973e-01
4.784638190954774e+00  8.1899778427554126e-01  5.3048897086915936e-01 -2.5774679622351088e-03  3.2310882277030916e-03 -2.5774679622593125e-03  3.2310882277109781e-03  2.6337253948084866e-01  9.5135582514453998e-01
4.870060301507539e+00  8.4599110644983966e-01  4.7709608442068596e-01 -1.7006644569856108e-03  4.2770580392943415e-03 -1.7006644569928584e-03  4.2770580392979514e-03  3.1778257914792302e-01  9.3435829779074309e-01
4.955482412060302e+00  8.6894600916705622e-01  4.1835630985556177e-01 -3.3057166954978865e-04  5.1427497846220057e-03 -3.3057166955474958e-04  5.1427497846277728e-03  3.6955817711692962e-01  9.1489586611135554e-01
5.040904522613066e+00  8.8525654776337870e-01  3.4970953978997854e-01  1.6282458508360099e-03  5.7401533171868146e-03  1.6282458508475328e-03  5.7401533171675002e-03  4.1880591786267535e-01  8.9329426544455581e-01
5.126326633165829e+00  8.7721858222166615e-01  2.5750975878449012e-01  5.0579810528112220e-03  5.8170592228011450e-03  5.0579810528245421e-03  5.8170592228274868e-03  4.6563728176451835e-01  8.6982629224027108e-01
5.211748743718593e+00  7.1841960634584323e-01  2.2434520571527006e-01  1.0561897447199382e-02 -2.0034731986227432e-03  1.0561897447208594e-02 -2.0034731986142054e-03  5.1041975599820688e-01  8.4490385663326717e-01
5.297170854271357e+00  8.4963251397918138e-01  3.4726186285636984e-01  5.9140434264763446e-04 -3.4916437289624364e-03  5.9140434274204451e-04 -3.4916437289924216e-03  5.5320311319109405e-01  8.1753126128026743e-01
5.382592964824121e+00  9.2127048725913041e-01  2.5980365616809104e-01  3.0624824177865684e-04 -7.2827242489195199e-04  3.0624824182476400e-04 -7.2827242493383093e-04  5.9331236791136355e-01  7.8888030881393756e-01
5.468015075376885e+00  9.4568262291573579e-01  1.8123502726646029e-01  8.2299781663944965e-04 -2.7915391214565154e-05  8.2299781668261315e-04 -2.7915391229470166e-05  6.3128947264619961e-01  7.5893540655771907e-01
5.553437185929649e+00  9.5687205771021966e-01  1.0768629163316117e-01  1.2429014689639298e-03  6.7020317801833195e-05  1.2429014689691240e-03  6.7020317806307643e-05  6.6712534276023605e-01  7.2774887551966239e-01
5.638859296482413e+00  9.6044874403913161e-01  3.4716985873831763e-02  1.5531105405899098e-03 -8.2778583742112007e-05  1.5531105405928269e-03 -8.2778583746113377e-05  7.0082774811705395e-01  6.9543740371875684e-01
5.724281407035177e+00  9.5732504898677906e-01 -3.9770849713846340e-02  1.7718624210996427e-03 -3.7148565514734681e-04  1.7718624211002373e-03 -3.7148565515086608e-04  7.3241380157712344e-01  6.6212103964127023e-01
5.809703517587939e+00  9.4703971220290617e-01 -1.1694868609604515e-01  1.8979205973541746e-03 -7.6370494393758872e-04  1.8979205973543960e-03 -7.6370494393888683e-04  7.6190222050013157e-01  6.2791683691787115e-01
5.895125628140703e+00  9.2838537879710181e-01 -1.9756943451612130e-01  1.9096985909065995e-03 -1.2402994749367788e-03  1.9096985909066266e-03 -1.2402994749361139e-03  7.8931033638573223e-01  5.9294126067288611e-01
5.980547738693468e+00  8.9947105754556289e-01 -2.8209752075491895e-01  1.7718638033069956e-03 -1.7728537481576877e-03  1.7718638033083138e-03 -1.7728537481529014e-03  8.1465570015834776e-01  5.5731567400635607e-01
6.065969849246232e+00  8.5759436796996469e-01 -3.7064330812484103e-01  1.4505625635450445e-03 -2.3085750704900788e-03  1.4505625635444208e-03 -2.3085750704935726e-03  8.3796410902178231e-01  5.2117085843287969e-01
6.151391959798995e+00  7.9899997251044952e-01 -4.6272070342411725e-01  9.3756661968093463e-04 -2.7702508372658345e-03  9.3756661968182390e-04 -2.7702508372702580e-03  8.5928295730724014e-01  4.8464355562931527e-01
6.236814070351759e+00  7.1852769263110527e-01 -5.5673585443931473e-01  2.6964137738122359e-04 -3.0796612938781172e-03  2.6964137738140731e-04 -3.0796612938733471e-03  8.7869034116510869e-01  4.4785965334886341e-01
6.322236180904524e+00  6.0918770597469096e-01 -6.4894309917834392e-01 -4.8040059499510101e-04 -3.1937220863437988e-03 -4.8040059499969119e-04 -3.1937220863589447e-03  8.9628627866390931e-01  4.1091180742728617e-01
6.407658291457287e+00  4.6195790105536849e-01 -7.3135261284259367e-01 -1.2435336237905279e-03 -3.1193419158215899e-03 -1.2435336237507364e-03 -3.1193419157902655e-03  9.1216710420329972e-01  3.7385151453162446e-01
6.493080402010050e+00  2.6677164858433650e-01 -7.8782367463657510e-01 -1.9924421600611242e-03 -2.8866892489289907e-03 -1.9924421600594241e-03 -2.8866892489316977e-03  9.2640378725694383e-01  3.3670376764155308e-01
6.578502512562814e+00  1.7226852385707637e-02 -7.8654679896443835e-01 -2.7481779088639286e-03 -2.4938447342854279e-03 -2.7481779088675772e-03 -2.4938447342932077e-03  9.3903939275820547e-01  2.9948928731580599e-01
6.663924623115578e+00 -2.5130503119803133e-01 -6.7353204425806212e-01 -3.4598915496431657e-03 -1.8077012182171699e-03 -3.4598915496451845e-03 -1.8077012182154467e-03  9.5010009510330307e-01  2.6223787650673902e-01
6.749346733668342e+00 -5.0253036609067336e-01 -4.5816123583441359e-01 -4.0064273097386626e-03 -9.5961457575398726e-04 -4.0064273097455061e-03 -9.5961457576201068e-04  9.5960719519070370e-01  2.2498842836752539e-01
6.834768844221106e+00 -6.5198024967176471e-01 -9.9580682711025673e-02 -4.3328593166546700e-03  2.0328637618988033e-04 -4.3328593166403178e-03  2.0328637618606782e-04  9.6758137855719573e-01  1.8778695507653947e-01
6.920190954773870e+00 -6.0716753059605011e-01  2.9980615091953222e-01 -4.1704372896176085e-03  1.5025424845290733e-03 -4.1704372896099488e-03  1.5025424845352769e-03  9.7404645481236996e-01  1.5068156684354825e-01
7.005613065326634e+00 -3.9284994470693596e-01  6.1023637555872745e-01 -3.5185219730482480e-03  2.6286987232264822e-03 -3.5185219730656772e-03  2.6286987232393972e-03  9.7902698379288799e-01  1.1372043657411753e-01
7.091035175879398e+00 -1.0878533306582659e-01  7.7429651339581662e-01 -2.5745419430507717e-03  3.3962543591050916e-03 -2.5745419430425708e-03  3.3962543590991892e-03  9.8254735825678019e-01  7.6952506481610020e-02
7.176457286432161e+00  1.6114769980935650e-01  8.1474482448044971e-01 -1.5397981439764295e-03  3.7972727618662966e-03 -1.5397981439780855e-03  3.7972727618659913e-03  9.8463219325822815e-01  4.0429135193717797e-02
7.261879396984924e+00  3.8202471907592750e-01  7.7929900722190604e-01 -5.2860892181013730e-04  3.8953099865107871e-03 -5.2860892180797139e-04  3.8953099865048947e-03  9.8530855079909496e-01  4.2057498637088318e-03
7.347301507537689e+00  5.5080462027660249e-01  7.0595537292120281e-01  4.0332304820438918e-04  3.7481098312863088e-03  4.0332304819565463e-04  3.7481098313250430e-03  9.8461026545702912e-01 -3.1658038580486894e-02
7.432723618090453e+00  6.7607309767574664e-01  6.1734833778192777e-01  1.2162280873367691e-03  3.3984384684894496e-03  1.2162280873365160e-03  3.3984384684908552e-03  9.8258304386379769e-01 -6.7102190411676990e-02
7.518145728643217e+00  7.6800137147709646e-01  5.2517361754275027e-01  1.8723272886345622e-03  2.8914623175762648e-03  1.8723272886332764e-03  2.8914623175785399e-03  9.7928629491079755e-01 -1.0207456300018170e-01
7.603567839195980e+00  8.3509254121372634e-01  4.3490523491995775e-01  2.3453534985982895e-03  2.2853555677458462e-03  2.3453534985980770e-03  2.2853555677449173e-03  9.7478768703756025e-01 -1.3653982201721682e-01
7.688989949748745e+00  8.8370140414720999e-01  3.4882625197676709e-01  2.6335712148985737e-03  1.6441691981769668e-03  2.6335712148982107e-03  1.6441691981769107e-03  9.6915192609133993e-01 -1.7048208907227391e-01
7.774412060301509e+00  9.1839204549240439e-01  2.6768809102040775e-01  2.7604888312229006e-03  1.0213621081879918e-03  2.7604888312227245e-03  1.0213621081882763e-03  9.6243110325515835e-01 -2.0389885126133947e-01
7.859834170854271e+00  9.4242013899611166e-01  1.9154703808690901e-01  2.7629624943956181e-03  4.4875061415467404e-04  2.7629624943956406e-03  4.4875061415490568e-04  9.5466236049653119e-01 -2.3679110083121588e-01
