# GHz S RI R 50

1.000000000000000e-03  3.2380846470367910e-04 -4.7126764296436213e-04  9.9966742845653189e-01 -1.6389559519738826e-03  9.9966742845655909e-01 -1.6389559519730760e-03  3.2381035962001742e-04 -4.7126970185390525e-04
4.360401002506266e-02 -1.0454951778844578e-03 -2.0989847571935442e-02  9.9653013830133474e-01 -7.0850275007982313e-02  9.9653013830133463e-01 -7.0850275007983701e-02 -1.0417354141349228e-03 -2.0990254082293346e-02
8.620802005012532e-02 -5.2249387709756567e-03 -4.1438170575606822e-02  9.8818281756744120e-01 -1.3923137474935521e-01  9.8818281756744208e-01 -1.3923137474935632e-01 -5.2105405980245739e-03 -4.1440632746268385e-02
1.288120300751880e-01 -1.2271938989741202e-02 -6.1221397979420986e-02  9.7484651280932133e-01 -2.0655965773695531e-01  9.7484651280932189e-01 -2.0655965773695478e-01 -1.2240518731309463e-02 -6.1228896283092020e-02
1.714160401002506e-01 -2.2011370074558841e-02 -7.9911343478039701e-02  9.5660926337581831e-01 -2.7247825903178169e-01  9.5660926337581842e-01 -2.7247825903178163e-01 -2.1957233524691561e-02 -7.9928117730234199e-02
2.140200501253133e-01 -3.4244830828606798e-02 -9.7165299305454172e-02  9.3362769986529359e-01 -3.3659107591934340e-01  9.3362769986529393e-01 -3.3659107591934356e-01 -3.4163201907682850e-02 -9.7196708249921437e-02
2.566240601503759e-01 -4.8745743881824947e-02 -1.1267796754376529e-01  9.0611298549835062e-01 -3.9852335016372564e-01  9.0611298549835051e-01 -3.9852335016372559e-01 -4.8632955922389136e-02 -1.1273030024438126e-01
2.992280701754386e-01 -6.5254624563815020e-02 -1.2618029472068831e-01  8.7431483589588499e-01 -4.5793334031069949e-01  8.7431483589588599e-01 -4.5793334031070032e-01 -6.5108271487712852e-02 -1.2626055333957181e-01
3.418320802005013e-01 -8.3482595221521363e-02 -1.3744361610495967e-01  8.3851238177397402e-01 -5.1451617321037646e-01  8.3851238177397314e-01 -5.1451617321037590e-01 -8.3301641178490704e-02 -1.3755927802096962e-01
3.844360902255639e-01 -1.0311758795448650e-01 -1.4628274977391889e-01  7.9900697265151077e-01 -5.6800614763790258e-01  7.9900697265151188e-01 -5.6800614763790358e-01 -1.0290243334391196e-01 -1.4644151653901161e-01
4.270401002506266e-01 -1.2383115016384921e-01 -1.5255763111421847e-01  7.5611538789683175e-01 -6.1817795051704927e-01  7.5611538789683141e-01 -6.1817795051704894e-01 -1.2358365316586462e-01 -1.5276717229936890e-01
4.696441102756893e-01 -1.4528517736915697e-01 -1.5617369832298475e-01  7.1016326869332325e-01 -6.6484671415823349e-01  7.1016326869332347e-01 -6.6484671415823393e-01 -1.4500863181955054e-01 -1.5644139817400229e-01
5.122481203007518e-01 -1.6713829541692124e-01 -1.5708122129780569e-01  6.6147891995475472e-01 -7.0786694383568105e-01  6.6147891995475494e-01 -7.0786694383568127e-01 -1.6683736741153937e-01 -1.5741393545482185e-01
5.548521303258145e-01 -1.8905172484276397e-01 -1.5527373986138793e-01  6.1038766492566809e-01 -7.4713044120939653e-01  6.1038766492566821e-01 -7.4713044120939687e-01 -1.8873235159010118e-01 -1.5567756845113065e-01
5.974561403508772e-01 -2.1069451043576404e-01 -1.5078577876388277e-01  5.5720689645123422e-01 -7.8256339540142883e-01  5.5720689645123500e-01 -7.8256339540142983e-01 -2.1036376577550242e-01 -1.5126586103779341e-01
6.400601503759399e-01 -2.3174804201988614e-01 -1.4369001410754226e-01  5.0224191962542686e-01 -8.1412282854691065e-01  5.0224191962542519e-01 -8.1412282854690754e-01 -2.3141397346566156e-01 -1.4425034863697481e-01
6.826641604010025e-01 -2.5190983427228075e-01 -1.3409406712090691e-01  4.4578263420035807e-01 -8.4179258030955639e-01  4.4578263420035841e-01 -8.4179258030955684e-01 -2.5158127673613928e-01 -1.3473736039763598e-01
7.252681704260653e-01 -2.7089657304277015e-01 -1.2213709278534347e-01  3.8810106726993632e-01 -8.6557900355290107e-01  3.8810106726993576e-01 -8.6557900355290018e-01 -2.7058294430034047e-01 -1.2286463803826661e-01
7.678721804511278e-01 -2.8844646961090975e-01 -1.0798631468482804e-01  3.2944973600034672e-01 -8.8550652481962799e-01  3.2944973600034905e-01 -8.8550652481963443e-01 -2.8815755231572288e-01 -1.0879790186562788e-01
8.104761904761905e-01 -3.0432099129174361e-01 -9.1833635460534163e-02  2.7006079829480539e-01 -9.0161320125064326e-01  2.7006079829480628e-01 -9.0161320125064592e-01 -3.0406670603471075e-01 -9.2727492526228666e-02
8.530802005012532e-01 -3.1830605669732187e-01 -7.3892427318754894e-02  2.1014593473831206e-01 -9.1394638209836210e-01  2.1014593473831239e-01 -9.1394638209836321e-01 -3.1809623004836357e-01 -7.4865192437775258e-02
8.956842105263159e-01 -3.3021279739576587e-01 -5.4394580722160926e-02  1.4989689782376459e-01 -9.2255856029878136e-01  1.4989689782376484e-01 -9.2255856029878303e-01 -3.3005692838673795e-01 -5.5441304660557890e-02
9.382882205513785e-01 -3.3987799520790002e-01 -3.3587863314565487e-02  8.9486663824680762e-02 -9.2750347901260932e-01  8.9486663824680623e-02 -9.2750347901260877e-01 -3.3978502317045117e-01 -3.4702041003966198e-02
9.808922305764411e-01 -3.4716430709952639e-01 -1.1733616674334674e-02  2.9071126317207294e-02 -9.2883254031437334e-01  2.9071126317207211e-02 -9.2883254031436968e-01 -3.4714238330657793e-01 -1.2907246982809756e-02
1.023496240601504e+00 -3.5196038935191709e-01  1.0895205312092713e-02 -3.1208721382784761e-02 -9.2659155055148923e-01 -3.1208721382784931e-02 -9.2659155055149356e-01 -3.5201665447128078e-01  9.6715324718216825e-03
1.066100250626566e+00 -3.5418102895107023e-01  3.4015673806241375e-02 -9.1224157206999598e-02 -9.2081782800154788e-01 -9.1224157206999321e-02 -9.2081782800154510e-01 -3.5432139806534851e-01  3.2752663695261454e-02
1.108704260651629e+00 -3.5376738507450850e-01  5.7336236054820043e-02 -1.5085568499579005e-01 -9.1153769539869522e-01 -1.5085568499578933e-01 -9.1153769539869078e-01 -3.5399634180324197e-01  5.6045748972922062e-02
1.151308270676692e+00 -3.5068743726576218e-01  8.0557838659841133e-02 -2.0998959091290692e-01 -8.9876438265358305e-01 -2.0998959091290698e-01 -8.9876438265358316e-01 -3.5100783854187628e-01  7.9252723428121202e-02
1.193912280701754e+00 -3.4493672815680149e-01  1.0337490068687594e-01 -2.6851410891824123e-01 -8.8249637179680140e-01 -2.6851410891824029e-01 -8.8249637179679796e-01 -3.4534962139020470e-01  1.0206880110911205e-01
1.236516290726817e+00 -3.3653947917809113e-01  1.2547623650187645e-01 -3.2631519347918198e-01 -8.6271623106058237e-01 -3.2631519347918009e-01 -8.6271623106057727e-01 -3.3704393385256454e-01  1.2418337001953257e-01
1.279120300751880e+00 -3.2555014463055248e-01  1.4654605086181938e-01 -3.8327189352230001e-01 -8.3939000342006553e-01 -3.8327189352230018e-01 -8.3939000342006564e-01 -3.2614310103716637e-01  1.4528095795338536e-01
1.321724310776942e+00 -3.1205545273903940e-01  1.6626515464558336e-01 -4.3925132270318745e-01 -8.1246724010418592e-01 -4.3925132270318540e-01 -8.1246724010418214e-01 -3.1273159136995127e-01  1.6504241731726169e-01
1.364328320802005e+00 -2.9617695873996952e-01  1.8431257810741503e-01 -4.9410323048673926e-01 -7.8188179988255058e-01 -4.9410323048674126e-01 -7.8188179988255369e-01 -2.9692859495944357e-01  1.8314650582998437e-01
1.406932330827068e+00 -2.7807410259006005e-01  2.0036778929341728e-01 -5.4765419923826719e-01 -7.4755356841918119e-01 -5.4765419923826619e-01 -7.4755356841917953e-01 -2.7889111266272537e-01  1.9927207056135396e-01
1.449536340852130e+00 -2.5794771862046662e-01  2.1411375671884728e-01 -5.9970152719968062e-01 -7.0939128865926304e-01 -5.9970152719968028e-01 -7.0939128865926293e-01 -2.5881750472053155e-01  2.1310107528196606e-01
1.492140350877193e+00 -2.3604388260292603e-01  2.2524112511012387e-01 -6.5000691047441239e-01 -6.6729672771356741e-01 -6.5000691047442527e-01 -6.6729672771358073e-01 -2.3695138644907313e-01  2.2432274068794655e-01
1.534744360902256e+00 -2.1265789946346561e-01  2.3345379437020516e-01 -6.9829011202457536e-01 -6.2117043327286470e-01 -6.9829011202456959e-01 -6.2117043327286003e-01 -2.1358567615743862e-01  2.3263908952544321e-01
1.577348370927318e+00 -1.8813812811912925e-01  2.3847619944073190e-01 -7.4422290608593611e-01 -5.7091934629928520e-01 -7.4422290608590669e-01 -5.7091934629926178e-01 -1.8906649392918481e-01  2.3777219678277164e-01
1.619952380952381e+00 -1.6288920837604051e-01  2.4006256719066332e-01 -7.8742371278700485e-01 -5.1646652181123365e-01 -7.8742371278704359e-01 -5.1646652181121966e-01 -1.6379647785015805e-01  2.3947342488553522e-01
1.662556390977444e+00 -1.3737409894012492e-01  2.3800836533366368e-01 -8.2745348881862402e-01 -4.5776315523509187e-01 -8.2745348881862424e-01 -4.5776315523509081e-01 -1.3823692800642931e-01  2.3753486369054191e-01
1.705160401002506e+00 -1.1211416577471968e-01  2.3216403548214337e-01 -8.6381360579750166e-01 -3.9480299568587862e-01 -8.6381360579748789e-01 -3.9480299568587102e-01 -1.1290801740287656e-01  2.3180307363946859e-01
1.747764411027569e+00 -8.7686392122118456e-02  2.2245090072147680e-01 -8.9594661152843391e-01 -3.2763903343486012e-01 -8.9594661152844901e-01 -3.2763903343486994e-01 -8.8386139561797056e-02  2.2219502978556199e-01
1.790368421052632e+00 -6.4716648163418627e-02  2.0887883898623325e-01 -9.2324089886922511e-01 -2.5640205758528245e-01 -9.2324089886921745e-01 -2.5640205758528045e-01 -6.5297326094312713e-02  2.0871586628440641e-01
1.832972431077694e+00 -4.3867902470319804e-02  1.9156491037379414e-01 -9.4504035767317729e-01 -1.8132028486418644e-01 -9.4504035767318473e-01 -1.8132028486419283e-01 -4.4305609173005252e-02  1.9147761771596303e-01
1.875576441102757e+00 -2.5822338999019517e-02  1.7075162950081202e-01 -9.6065999825157211e-01 -1.0273877354627142e-01 -9.6065999825157244e-01 -1.0273877354627356e-01 -2.6095280730517763e-02  1.7071765554837032e-01
1.918180451127820e+00 -1.1256629163905959e-02  1.4682302290664112e-01 -9.6940824162249728e-01 -2.1136796582726821e-02 -9.6940824162249661e-01 -2.1136796582727050e-02 -1.1346281921764617e-02  1.4681496419182144e-01
1.960784461152882e+00 -8.1015349134846114e-04  1.2031608971665139e-01 -9.7061601649829587e-01  6.2859160463028030e-02 -9.7061601649828455e-01  6.2859160463089009e-02 -7.0249816847073093e-04  1.2030187406168175e-01
2.003388471177945e+00  4.9531947689109030e-03  9.1924911649743341e-02 -9.6367195170284170e-01  1.4846946404021960e-01 -9.6367195170284181e-01  1.4846946404021913e-01  5.2664301608054149e-03  9.1868490048534493e-02
2.045992481203008e+00  5.5879007755073283e-03  6.2494597621242695e-02 -9.4806184243697478e-01  2.3476518307438057e-01 -9.4806184243697311e-01  2.3476518307437974e-01  6.1080791920778543e-03  6.2356983731785338e-02
2.088596491228071e+00  8.1146123940971729e-04  3.3002655660105892e-02 -9.2340931396848702e-01  3.2068400418897813e-01 -9.2340931396847303e-01  3.2068400418898330e-01  1.5320593047497952e-03  3.2743315487236475e-02
2.131200501253133e+00 -9.4533305711973197e-03  4.5263732074733460e-03 -8.8951343544339034e-01  4.0505944742255218e-01 -8.8951343544332462e-01  4.0505944742261341e-01 -8.5474037614111410e-03  4.1049326523229061e-03
2.173804511278195e+00 -2.5043289805848658e-02 -2.1803650964848709e-02 -8.4637824415987095e-01  4.8666297390318691e-01 -8.4637824415987761e-01  4.8666297390321017e-01 -2.3975972241230509e-02 -2.2425452706867778e-02
2.216408521303258e+00 -4.5531818285828564e-02 -4.4861719736743202e-02 -7.9422905167548707e-01  5.6425649404638567e-01 -7.9422905167554003e-01  5.6425649404636258e-01 -4.4335690052428864e-02 -4.5717940987041975e-02
2.259012531328321e+00 -7.0221951217696366e-02 -6.3592895837741720e-02 -7.3351124193939299e-01  6.3665060591789735e-01 -7.3351124193936046e-01  6.3665060591786193e-01 -6.8937500457996653e-02 -6.4711306258669068e-02
2.301616541353384e+00 -9.8157623775015565e-02 -7.7080865669367934e-02 -6.6486907374222748e-01  7.0276208276214414e-01 -6.6486907374220572e-01  7.0276208276229524e-01 -9.6831988488011680e-02 -7.8481014106299735e-02
2.344220551378446e+00 -1.2815276228093436e-01 -8.4611581919164916e-02 -5.8910452914350375e-01  7.6166314217698594e-01 -5.8910452914338418e-01  7.6166314217701714e-01 -1.2683800593196362e-01 -8.6303158924374151e-02
2.386824561403509e+00 -1.5883506422378146e-01 -8.5727164552984958e-02 -5.0711903562947602e-01  8.1261514478348051e-01 -5.0711903562957217e-01  8.1261514478344421e-01 -1.5758608730891149e-01 -8.7708768363019204e-02
2.429428571428571e+00 -1.8869905007983545e-01 -8.0266599435600369e-02 -4.1984334626763309e-01  8.5508055380001957e-01 -4.1984334626764147e-01  8.5508055380003689e-01 -1.8757126671593166e-01 -8.2524963696051876e-02
2.472032581453635e+00 -2.1616176619445518e-01 -6.8392933803900144e-02 -3.2816251219550457e-01  8.8870884540912398e-01 -3.2816251219551218e-01  8.8870884540914563e-01 -2.1520867520273090e-01 -7.0902616132724014e-02
2.514636591478697e+00 -2.3961483485141336e-01 -5.0610463291122343e-02 -2.3284355805085366e-01  9.1329392827343925e-01 -2.3284355805085102e-01  9.1329392827343336e-01 -2.3888558540881424e-01 -5.3333938427427056e-02
2.557240601503759e+00 -2.5746861839878898e-01 -2.7779334762402196e-02 -1.3447347934532469e-01  9.2870175134882116e-01 -1.3447347934532364e-01  9.2870175134881161e-01 -2.5700561201579358e-01 -3.0667394974071949e-02
2.599844611528822e+00 -2.6818827603557122e-01 -1.1386883245354492e-03 -3.3415391991503188e-02  9.3476653299283807e-01 -3.3415391991504020e-02  9.3476653299285772e-01 -2.6802476125358632e-01 -4.1310421609656095e-03
2.642448621553885e+00 -2.7032794551486883e-01  2.7647299906770131e-02  7.0207411850878837e-02  9.3115218995431170e-01  7.0207411850878185e-02  9.3115218995430393e-01 -2.7048545382255823e-01  2.4621311138586149e-02
2.685052631578948e+00 -2.6257954154824970e-01  5.6403770625183244e-02  1.7648373365582010e-01  9.1717262717597448e-01  1.7648373365581987e-01  9.1717262717596981e-01 -2.6306488458173899e-01  5.3424326510551387e-02
2.727656641604010e+00 -2.4386962145424110e-01  8.2303536710579481e-02  2.8561357692888090e-01  8.9156283259467384e-01  2.8561357692888206e-01  8.9156283259467861e-01 -2.4467103087741615e-01  7.9459153516733216e-02
2.770260651629073e+00 -2.1356617716156584e-01  1.0166178326444045e-01  3.9767808735504823e-01  8.5219866975986636e-01  3.9767808735505028e-01  8.5219866975987135e-01 -2.1464805723599462e-01  9.9047209886229531e-02
2.812864661654135e+00 -1.7190177189508721e-01  1.0969233103855344e-01  5.1218029598625037e-01  7.9579322142551034e-01  5.1218029598624548e-01  7.9579322142550235e-01 -1.7319757726223872e-01  1.0740426881625528e-01
2.855468671679198e+00 -1.2077397785629804e-01  1.0034377586621332e-01  6.2720145674507466e-01  7.1768805500020616e-01  6.2720145674513528e-01  7.1768805500023025e-01 -1.2217727370872930e-01  9.8472071583523127e-02
2.898072681704261e+00 -6.5094280691227399e-02  6.6551003661541333e-02  7.3800589854560716e-01  6.1207309824074208e-01  7.3800589854558474e-01  6.1207309824072165e-01 -6.6449877890734962e-02  6.5161583506460480e-02
2.940676691729323e+00 -1.4631297339631595e-02  1.6253760752347002e-03  8.3515006985631368e-01  4.7335603294909351e-01  8.3515006985619855e-01  4.7335603294903927e-01 -1.5732748327831080e-02  7.3075179158374915e-04
2.983280701754386e+00  1.4577802629195518e-02 -9.7158977434684018e-02  9.0302067962225141e-01  2.9973823242197228e-01  9.0302067962227850e-01  2.9973823242182090e-01  1.3970753896294567e-02 -9.7641363355143534e-02
3.025884711779449e+00  1.9191425102753912e-03 -2.2253014336509677e-01  9.2147259734788656e-01  9.9255070993476233e-02  9.2147259734786569e-01  9.9255070993482297e-02  2.0252442399990079e-03 -2.2281573707164565e-01
3.068488721804511e+00 -6.9532585510405268e-02 -3.5219826927943071e-01  8.7404572839804040e-01 -1.0517319255525223e-01  8.7404572839802031e-01 -1.0517319255524803e-01 -6.8610095304263180e-02 -3.5262898236707846e-01
3.111092731829574e+00 -1.9992348390028894e-01 -4.5295054985536803e-01  7.6103784861037838e-01 -2.7978327275192189e-01  7.6103784861035395e-01 -2.7978327275191822e-01 -1.9828005798823284e-01 -4.5390565284136425e-01
3.153696741854637e+00 -3.6682339779364420e-01 -4.9699931089387822e-01  6.0532966606948668e-01 -3.9627765551859417e-01  6.0532966606947713e-01 -3.9627765551859234e-01 -3.6474453341201912e-01 -4.9875446377549532e-01
3.196300751879699e+00 -5.3652307642827723e-01 -4.7740413966694700e-01  4.4112642289802928e-01 -4.4725865657874664e-01  4.4112642289802451e-01 -4.4725865657874586e-01 -5.3437145823977750e-01 -4.8004187778362589e-01
3.238904761904762e+00 -6.8220235987412414e-01 -4.0731948376071320e-01  2.9578748563690177e-01 -4.4551727990003070e-01  2.9578748563689672e-01 -4.4551727990002976e-01 -6.8029042406038376e-01 -4.1074926585317811e-01
3.281508771929825e+00 -7.9218716155271640e-01 -3.0746688997579147e-01  1.8152986340673191e-01 -4.1152401196975169e-01  1.8152986340673191e-01 -4.1152401196975108e-01 -7.9071597956599637e-01 -3.1150772590002535e-01
3.324112781954887e+00 -8.6675774469466560e-01 -1.9566284341922321e-01  9.8583107757827235e-02 -3.6294100618928626e-01  9.8583107757829816e-02 -3.6294100618928871e-01 -8.6582193317496237e-01 -2.0011780470584922e-01
3.366716791979950e+00 -9.1172647279205954e-01 -8.3407257663066919e-02  4.1596095424195519e-02 -3.1118285056248196e-01  4.1596095424194388e-02 -3.1118285056248463e-01 -9.1134625028950711e-01 -8.8103124629332494e-02
3.409320802005013e+00 -9.3398178760816097e-01  2.3231109177577199e-02  4.0928780159709376e-03 -2.6227921643292440e-01  4.0928780159716167e-03 -2.6227921643292484e-01 -9.3413439321335745e-01  1.8431799296248670e-02
3.451924812030075e+00 -9.3953381552721549e-01  1.2168070204911308e-01 -1.9567648943916018e-02 -2.1879424098587741e-01 -1.9567648943916535e-02 -2.1879424098587499e-01 -9.4017539016430274e-01  1.1688132875244416e-01
3.494528822055138e+00 -9.3303091869021293e-01  2.1129053644365692e-01 -3.3702634240577303e-02 -1.8139433826356544e-01 -3.3702634240579309e-02 -1.8139433826356491e-01 -9.3410944734017098e-01  2.0656661077181335e-01
3.537132832080201e+00 -9.1787644717785277e-01  2.9234176745603563e-01 -4.1417359307532028e-02 -1.4983095387201381e-01 -4.1417359307529676e-02 -1.4983095387201126e-01 -9.1933865554546623e-01  2.8774747772723142e-01
3.579736842105263e+00 -8.9650373491925961e-01  3.6550317411294925e-01 -4.4876550578540737e-02 -1.2348102816499983e-01 -4.4876550578538080e-02 -1.2348102816499881e-01 -8.9829843351097027e-01  3.6107685050539490e-01
3.622340852130326e+00 -8.7064010118170443e-01  4.3155579289205653e-01 -4.5565377401888971e-02 -1.0161921477317232e-01 -4.5565377401887069e-02 -1.0161921477317408e-01 -8.7271960072533983e-01  4.2732407471652412e-01
3.664944862155389e+00 -8.4151432151656669e-01  4.9126471199318561e-01 -4.4494355274427327e-02 -8.3543529162251176e-02 -4.4494355274427189e-02 -8.3543529162251218e-02 -8.4383486085127690e-01  4.8724560241947246e-01
3.707548872180451e+00 -8.1000715030293824e-01  5.4532643558102156e-01 -4.2347590377991809e-02 -6.8625875479031873e-02 -4.2347590377992371e-02 -6.8625875479032553e-02 -8.1252884953266169e-01  5.4153150604911426e-01
3.750152882205514e+00 -7.7675670507652306e-01  5.9435308231181749e-01 -3.9586099014194742e-02 -5.6326110280097430e-02 -3.9586099014207149e-02 -5.6326110280107068e-02 -7.7944331228758779e-01  5.9078905878876031e-01
3.792756892230577e+00 -7.4223116783754983e-01  6.3887341669510944e-01 -3.6518619597332207e-02 -4.6189590743326361e-02 -3.6518619597345363e-02 -4.6189590743335653e-02 -7.4504973482337677e-01  6.3554332623106435e-01
3.835360902255639e+00 -7.0677875420470981e-01  6.7934074119737209e-01 -3.3349849503465374e-02 -3.7838134556633700e-02 -3.3349849503453252e-02 -3.7838134556640007e-02 -7.0969930630909184e-01  6.7624474814868352e-01
3.877964912280702e+00 -6.7066214544576930e-01  7.1614286227838764e-01 -3.0213291274374006e-02 -3.0959137977396956e-02 -3.0213291274369673e-02 -3.0959137977401168e-02 -6.7365737442788454e-01  7.1327888538938977e-01
3.920568922305764e+00 -6.3408236108542249e-01  7.4961196065099878e-01 -2.7193678090510497e-02 -2.5294985555801699e-02 -2.7193678090502001e-02 -2.5294985555799943e-02 -6.3712735156980482e-01  7.4697613462286139e-01
