! markimicrowave.com
! Date: Tue Mar 19 2024 11:41:49 GMT+0100 (Central European Standard Time)
# Hz S DB R 50.00
!Frequency        S11 dB       S11 Deg       S21 dB      S21 Deg      S12 dB      S12 Deg      S22 dB       S22 Deg      
150000000.00000    -13.23864    -116.69064    -0.21107    -26.69064    -0.21107    -26.69064    -13.23864    -116.69064
150414889.44889    -13.21773    -116.76189    -0.21212    -26.76189    -0.21212    -26.76189    -13.21773    -116.76189
150830926.45281    -13.19683    -116.83333    -0.21316    -26.83333    -0.21316    -26.83333    -13.19683    -116.83333
151248114.18582    -13.17595    -116.90494    -0.21422    -26.90494    -0.21422    -26.90494    -13.17595    -116.90494
151666455.83076    -13.15508    -116.97673    -0.21528    -26.97673    -0.21528    -26.97673    -13.15508    -116.97673
152085954.57926    -13.13423    -117.04870    -0.21634    -27.04870    -0.21634    -27.04870    -13.13423    -117.04870
152506613.63179    -13.11340    -117.12084    -0.21740    -27.12084    -0.21740    -27.12084    -13.11340    -117.12084
152928436.19767    -13.09258    -117.19317    -0.21848    -27.19317    -0.21848    -27.19317    -13.09258    -117.19317
153351425.49509    -13.07178    -117.26568    -0.21955    -27.26568    -0.21955    -27.26568    -13.07178    -117.26568
153775584.75116    -13.05100    -117.33837    -0.22063    -27.33837    -0.22063    -27.33837    -13.05100    -117.33837
154200917.20189    -13.03023    -117.41124    -0.22172    -27.41124    -0.22172    -27.41124    -13.03023    -117.41124
154627426.09227    -13.00948    -117.48429    -0.22281    -27.48429    -0.22281    -27.48429    -13.00948    -117.48429
155055114.67623    -12.98875    -117.55752    -0.22390    -27.55752    -0.22390    -27.55752    -12.98875    -117.55752
155483986.21674    -12.96803    -117.63094    -0.22500    -27.63094    -0.22500    -27.63094    -12.96803    -117.63094
155914043.98576    -12.94733    -117.70453    -0.22610    -27.70453    -0.22610    -27.70453    -12.94733    -117.70453
156345291.26431    -12.92665    -117.77831    -0.22721    -27.77831    -0.22721    -27.77831    -12.92665    -117.77831
156777731.34251    -12.90598    -117.85228    -0.22832    -27.85228    -0.22832    -27.85228    -12.90598    -117.85228
157211367.51954    -12.88534    -117.92642    -0.22944    -27.92642    -0.22944    -27.92642    -12.88534    -117.92642
157646203.10374    -12.86471    -118.00075    -0.23056    -28.00075    -0.23056    -28.00075    -12.86471    -118.00075
158082241.41257    -12.84409    -118.07527    -0.23169    -28.07527    -0.23169    -28.07527    -12.84409    -118.07527
158519485.77270    -12.82350    -118.14997    -0.23282    -28.14997    -0.23282    -28.14997    -12.82350    -118.14997
158957939.51997    -12.80292    -118.22485    -0.23396    -28.22485    -0.23396    -28.22485    -12.80292    -118.22485
159397605.99947    -12.78236    -118.29992    -0.23510    -28.29992    -0.23510    -28.29992    -12.78236    -118.29992
159838488.56552    -12.76181    -118.37518    -0.23624    -28.37518    -0.23624    -28.37518    -12.76181    -118.37518
160280590.58173    -12.74129    -118.45062    -0.23739    -28.45062    -0.23739    -28.45062    -12.74129    -118.45062
160723915.42103    -12.72078    -118.52624    -0.23855    -28.52624    -0.23855    -28.52624    -12.72078    -118.52624
161168466.46564    -12.70029    -118.60206    -0.23971    -28.60206    -0.23971    -28.60206    -12.70029    -118.60206
161614247.10718    -12.67982    -118.67806    -0.24087    -28.67806    -0.24087    -28.67806    -12.67982    -118.67806
162061260.74662    -12.65937    -118.75425    -0.24204    -28.75425    -0.24204    -28.75425    -12.65937    -118.75425
162509510.79433    -12.63893    -118.83063    -0.24322    -28.83063    -0.24322    -28.83063    -12.63893    -118.83063
162959000.67015    -12.61852    -118.90719    -0.24440    -28.90719    -0.24440    -28.90719    -12.61852    -118.90719
163409733.80335    -12.59812    -118.98395    -0.24558    -28.98395    -0.24558    -28.98395    -12.59812    -118.98395
163861713.63269    -12.57774    -119.06089    -0.24677    -29.06089    -0.24677    -29.06089    -12.57774    -119.06089
164314943.60645    -12.55738    -119.13802    -0.24796    -29.13802    -0.24796    -29.13802    -12.55738    -119.13802
164769427.18243    -12.53704    -119.21534    -0.24916    -29.21534    -0.24916    -29.21534    -12.53704    -119.21534
165225167.82801    -12.51671    -119.29286    -0.25036    -29.29286    -0.25036    -29.29286    -12.51671    -119.29286
165682169.02017    -12.49641    -119.37056    -0.25157    -29.37056    -0.25157    -29.37056    -12.49641    -119.37056
166140434.24547    -12.47612    -119.44845    -0.25278    -29.44845    -0.25278    -29.44845    -12.47612    -119.44845
166599967.00015    -12.45586    -119.52654    -0.25400    -29.52654    -0.25400    -29.52654    -12.45586    -119.52654
167060770.79011    -12.43561    -119.60482    -0.25522    -29.60482    -0.25522    -29.60482    -12.43561    -119.60482
167522849.13094    -12.41538    -119.68328    -0.25645    -29.68328    -0.25645    -29.68328    -12.41538    -119.68328
167986205.54796    -12.39517    -119.76195    -0.25768    -29.76195    -0.25768    -29.76195    -12.39517    -119.76195
168450843.57623    -12.37499    -119.84080    -0.25892    -29.84080    -0.25892    -29.84080    -12.37499    -119.84080
168916766.76061    -12.35482    -119.91985    -0.26016    -29.91985    -0.26016    -29.91985    -12.35482    -119.91985
169383978.65574    -12.33467    -119.99909    -0.26141    -29.99909    -0.26141    -29.99909    -12.33467    -119.99909
169852482.82611    -12.31454    -120.07852    -0.26266    -30.07852    -0.26266    -30.07852    -12.31454    -120.07852
170322282.84606    -12.29443    -120.15815    -0.26392    -30.15815    -0.26392    -30.15815    -12.29443    -120.15815
170793382.29982    -12.27434    -120.23797    -0.26518    -30.23797    -0.26518    -30.23797    -12.27434    -120.23797
171265784.78153    -12.25427    -120.31799    -0.26645    -30.31799    -0.26645    -30.31799    -12.25427    -120.31799
171739493.89527    -12.23422    -120.39821    -0.26772    -30.39821    -0.26772    -30.39821    -12.23422    -120.39821
172214513.25510    -12.21419    -120.47862    -0.26900    -30.47862    -0.26900    -30.47862    -12.21419    -120.47862
172690846.48507    -12.19418    -120.55922    -0.27028    -30.55922    -0.27028    -30.55922    -12.19418    -120.55922
173168497.21925    -12.17419    -120.64003    -0.27156    -30.64003    -0.27156    -30.64003    -12.17419    -120.64003
173647469.10176    -12.15422    -120.72102    -0.27286    -30.72102    -0.27286    -30.72102    -12.15422    -120.72102
174127765.78681    -12.13427    -120.80222    -0.27415    -30.80222    -0.27415    -30.80222    -12.13427    -120.80222
174609390.93870    -12.11434    -120.88362    -0.27545    -30.88362    -0.27545    -30.88362    -12.11434    -120.88362
175092348.23188    -12.09444    -120.96521    -0.27676    -30.96521    -0.27676    -30.96521    -12.09444    -120.96521
175576641.35097    -12.07455    -121.04700    -0.27807    -31.04700    -0.27807    -31.04700    -12.07455    -121.04700
176062273.99076    -12.05468    -121.12899    -0.27939    -31.12899    -0.27939    -31.12899    -12.05468    -121.12899
176549249.85626    -12.03484    -121.21118    -0.28071    -31.21118    -0.28071    -31.21118    -12.03484    -121.21118
177037572.66276    -12.01502    -121.29357    -0.28204    -31.29357    -0.28204    -31.29357    -12.01502    -121.29357
177527246.13580    -11.99522    -121.37615    -0.28337    -31.37615    -0.28337    -31.37615    -11.99522    -121.37615
178018274.01121    -11.97544    -121.45894    -0.28471    -31.45894    -0.28471    -31.45894    -11.97544    -121.45894
178510660.03519    -11.95568    -121.54193    -0.28605    -31.54193    -0.28605    -31.54193    -11.95568    -121.54193
179004407.96428    -11.93594    -121.62512    -0.28740    -31.62512    -0.28740    -31.62512    -11.93594    -121.62512
179499521.56541    -11.91623    -121.70851    -0.28875    -31.70851    -0.28875    -31.70851    -11.91623    -121.70851
179996004.61593    -11.89654    -121.79211    -0.29011    -31.79211    -0.29011    -31.79211    -11.89654    -121.79211
180493860.90365    -11.87686    -121.87590    -0.29147    -31.87590    -0.29147    -31.87590    -11.87686    -121.87590
180993094.22684    -11.85722    -121.95990    -0.29283    -31.95990    -0.29283    -31.95990    -11.85722    -121.95990
181493708.39428    -11.83759    -122.04410    -0.29421    -32.04410    -0.29421    -32.04410    -11.83759    -122.04410
181995707.22530    -11.81798    -122.12851    -0.29558    -32.12851    -0.29558    -32.12851    -11.81798    -122.12851
182499094.54977    -11.79840    -122.21312    -0.29697    -32.21312    -0.29697    -32.21312    -11.79840    -122.21312
183003874.20818    -11.77884    -122.29793    -0.29835    -32.29793    -0.29835    -32.29793    -11.77884    -122.29793
183510050.05161    -11.75930    -122.38295    -0.29975    -32.38295    -0.29975    -32.38295    -11.75930    -122.38295
184017625.94182    -11.73979    -122.46817    -0.30115    -32.46817    -0.30115    -32.46817    -11.73979    -122.46817
184526605.75125    -11.72030    -122.55360    -0.30255    -32.55360    -0.30255    -32.55360    -11.72030    -122.55360
185036993.36302    -11.70083    -122.63923    -0.30396    -32.63923    -0.30396    -32.63923    -11.70083    -122.63923
185548792.67102    -11.68138    -122.72507    -0.30537    -32.72507    -0.30537    -32.72507    -11.68138    -122.72507
186062007.57991    -11.66196    -122.81112    -0.30679    -32.81112    -0.30679    -32.81112    -11.66196    -122.81112
186576642.00514    -11.64256    -122.89737    -0.30821    -32.89737    -0.30821    -32.89737    -11.64256    -122.89737
187092699.87299    -11.62318    -122.98383    -0.30964    -32.98383    -0.30964    -32.98383    -11.62318    -122.98383
187610185.12060    -11.60383    -123.07050    -0.31107    -33.07050    -0.31107    -33.07050    -11.60383    -123.07050
188129101.69601    -11.58450    -123.15737    -0.31251    -33.15737    -0.31251    -33.15737    -11.58450    -123.15737
188649453.55816    -11.56519    -123.24446    -0.31396    -33.24446    -0.31396    -33.24446    -11.56519    -123.24446
189171244.67696    -11.54591    -123.33175    -0.31540    -33.33175    -0.31540    -33.33175    -11.54591    -123.33175
189694479.03329    -11.52665    -123.41925    -0.31686    -33.41925    -0.31686    -33.41925    -11.52665    -123.41925
190219160.61905    -11.50742    -123.50697    -0.31832    -33.50697    -0.31832    -33.50697    -11.50742    -123.50697
190745293.43717    -11.48821    -123.59489    -0.31978    -33.59489    -0.31978    -33.59489    -11.48821    -123.59489
191272881.50165    -11.46902    -123.68302    -0.32125    -33.68302    -0.32125    -33.68302    -11.46902    -123.68302
191801928.83761    -11.44986    -123.77136    -0.32273    -33.77136    -0.32273    -33.77136    -11.44986    -123.77136
192332439.48129    -11.43072    -123.85992    -0.32421    -33.85992    -0.32421    -33.85992    -11.43072    -123.85992
192864417.48009    -11.41161    -123.94868    -0.32569    -33.94868    -0.32569    -33.94868    -11.41161    -123.94868
193397866.89262    -11.39252    -124.03766    -0.32718    -34.03766    -0.32718    -34.03766    -11.39252    -124.03766
193932791.78869    -11.37346    -124.12685    -0.32868    -34.12685    -0.32868    -34.12685    -11.37346    -124.12685
194469196.24941    -11.35442    -124.21625    -0.33018    -34.21625    -0.33018    -34.21625    -11.35442    -124.21625
195007084.36713    -11.33541    -124.30587    -0.33168    -34.30587    -0.33168    -34.30587    -11.33541    -124.30587
195546460.24555    -11.31642    -124.39570    -0.33319    -34.39570    -0.33319    -34.39570    -11.31642    -124.39570
196087327.99971    -11.29746    -124.48574    -0.33471    -34.48574    -0.33471    -34.48574    -11.29746    -124.48574
196629691.75603    -11.27852    -124.57600    -0.33623    -34.57600    -0.33623    -34.57600    -11.27852    -124.57600
197173555.65235    -11.25961    -124.66647    -0.33775    -34.66647    -0.33775    -34.66647    -11.25961    -124.66647
197718923.83795    -11.24072    -124.75716    -0.33929    -34.75716    -0.33929    -34.75716    -11.24072    -124.75716
198265800.47359    -11.22186    -124.84806    -0.34082    -34.84806    -0.34082    -34.84806    -11.22186    -124.84806
198814189.73154    -11.20303    -124.93918    -0.34236    -34.93918    -0.34236    -34.93918    -11.20303    -124.93918
199364095.79560    -11.18422    -125.03051    -0.34391    -35.03051    -0.34391    -35.03051    -11.18422    -125.03051
199915522.86116    -11.16544    -125.12206    -0.34546    -35.12206    -0.34546    -35.12206    -11.16544    -125.12206
200468475.13519    -11.14668    -125.21383    -0.34702    -35.21383    -0.34702    -35.21383    -11.14668    -125.21383
201022956.83631    -11.12795    -125.30582    -0.34858    -35.30582    -0.34858    -35.30582    -11.12795    -125.30582
201578972.19482    -11.10925    -125.39802    -0.35015    -35.39802    -0.35015    -35.39802    -11.10925    -125.39802
202136525.45270    -11.09057    -125.49044    -0.35172    -35.49044    -0.35172    -35.49044    -11.09057    -125.49044
202695620.86367    -11.07192    -125.58308    -0.35329    -35.58308    -0.35329    -35.58308    -11.07192    -125.58308
203256262.69322    -11.05330    -125.67594    -0.35488    -35.67594    -0.35488    -35.67594    -11.05330    -125.67594
203818455.21864    -11.03470    -125.76902    -0.35646    -35.76902    -0.35646    -35.76902    -11.03470    -125.76902
204382202.72903    -11.01613    -125.86232    -0.35806    -35.86232    -0.35806    -35.86232    -11.01613    -125.86232
204947509.52539    -10.99759    -125.95584    -0.35965    -35.95584    -0.35965    -35.95584    -10.99759    -125.95584
205514379.92058    -10.97907    -126.04958    -0.36126    -36.04958    -0.36126    -36.04958    -10.97907    -126.04958
206082818.23940    -10.96059    -126.14354    -0.36286    -36.14354    -0.36286    -36.14354    -10.96059    -126.14354
206652828.81864    -10.94213    -126.23772    -0.36448    -36.23772    -0.36448    -36.23772    -10.94213    -126.23772
207224416.00704    -10.92369    -126.33213    -0.36609    -36.33213    -0.36609    -36.33213    -10.92369    -126.33213
207797584.16540    -10.90529    -126.42675    -0.36771    -36.42675    -0.36771    -36.42675    -10.90529    -126.42675
208372337.66657    -10.88691    -126.52160    -0.36934    -36.52160    -0.36934    -36.52160    -10.88691    -126.52160
208948680.89549    -10.86857    -126.61668    -0.37097    -36.61668    -0.37097    -36.61668    -10.86857    -126.61668
209526618.24924    -10.85025    -126.71197    -0.37261    -36.71197    -0.37261    -36.71197    -10.85025    -126.71197
210106154.13707    -10.83196    -126.80749    -0.37425    -36.80749    -0.37425    -36.80749    -10.83196    -126.80749
210687292.98039    -10.81369    -126.90324    -0.37590    -36.90324    -0.37590    -36.90324    -10.81369    -126.90324
211270039.21287    -10.79546    -126.99921    -0.37755    -36.99921    -0.37755    -36.99921    -10.79546    -126.99921
211854397.28045    -10.77725    -127.09540    -0.37921    -37.09540    -0.37921    -37.09540    -10.77725    -127.09540
212440371.64133    -10.75908    -127.19182    -0.38087    -37.19182    -0.38087    -37.19182    -10.75908    -127.19182
213027966.76608    -10.74093    -127.28847    -0.38254    -37.28847    -0.38254    -37.28847    -10.74093    -127.28847
213617187.13761    -10.72281    -127.38534    -0.38421    -37.38534    -0.38421    -37.38534    -10.72281    -127.38534
214208037.25125    -10.70472    -127.48244    -0.38589    -37.48244    -0.38589    -37.48244    -10.70472    -127.48244
214800521.61473    -10.68666    -127.57977    -0.38757    -37.57977    -0.38757    -37.57977    -10.68666    -127.57977
215394644.74829    -10.66863    -127.67732    -0.38926    -37.67732    -0.38926    -37.67732    -10.66863    -127.67732
215990411.18465    -10.65063    -127.77510    -0.39095    -37.77510    -0.39095    -37.77510    -10.65063    -127.77510
216587825.46907    -10.63266    -127.87311    -0.39265    -37.87311    -0.39265    -37.87311    -10.63266    -127.87311
217186892.15937    -10.61472    -127.97135    -0.39435    -37.97135    -0.39435    -37.97135    -10.61472    -127.97135
217787615.82600    -10.59681    -128.06982    -0.39605    -38.06982    -0.39605    -38.06982    -10.59681    -128.06982
218390001.05203    -10.57893    -128.16852    -0.39777    -38.16852    -0.39777    -38.16852    -10.57893    -128.16852
218994052.43323    -10.56108    -128.26745    -0.39948    -38.26745    -0.39948    -38.26745    -10.56108    -128.26745
219599774.57806    -10.54326    -128.36661    -0.40120    -38.36661    -0.40120    -38.36661    -10.54326    -128.36661
220207172.10773    -10.52548    -128.46600    -0.40293    -38.46600    -0.40293    -38.46600    -10.52548    -128.46600
220816249.65625    -10.50772    -128.56562    -0.40466    -38.56562    -0.40466    -38.56562    -10.50772    -128.56562
221427011.87042    -10.48999    -128.66548    -0.40639    -38.66548    -0.40639    -38.66548    -10.48999    -128.66548
222039463.40992    -10.47230    -128.76557    -0.40813    -38.76557    -0.40813    -38.76557    -10.47230    -128.76557
222653608.94729    -10.45463    -128.86588    -0.40988    -38.86588    -0.40988    -38.86588    -10.45463    -128.86588
223269453.16802    -10.43700    -128.96644    -0.41163    -38.96644    -0.41163    -38.96644    -10.43700    -128.96644
223887000.77055    -10.41940    -129.06722    -0.41338    -39.06722    -0.41338    -39.06722    -10.41940    -129.06722
224506256.46630    -10.40183    -129.16824    -0.41514    -39.16824    -0.41514    -39.16824    -10.40183    -129.16824
225127224.97975    -10.38430    -129.26950    -0.41690    -39.26950    -0.41690    -39.26950    -10.38430    -129.26950
225749911.04843    -10.36679    -129.37099    -0.41867    -39.37099    -0.41867    -39.37099    -10.36679    -129.37099
226374319.42298    -10.34932    -129.47271    -0.42044    -39.47271    -0.42044    -39.47271    -10.34932    -129.47271
227000454.86717    -10.33188    -129.57467    -0.42222    -39.57467    -0.42222    -39.57467    -10.33188    -129.57467
227628322.15795    -10.31447    -129.67687    -0.42400    -39.67687    -0.42400    -39.67687    -10.31447    -129.67687
228257926.08550    -10.29709    -129.77930    -0.42578    -39.77930    -0.42578    -39.77930    -10.29709    -129.77930
228889271.45322    -10.27975    -129.88197    -0.42758    -39.88197    -0.42758    -39.88197    -10.27975    -129.88197
229522363.07783    -10.26244    -129.98488    -0.42937    -39.98488    -0.42937    -39.98488    -10.26244    -129.98488
230157205.78933    -10.24516    -130.08803    -0.43117    -40.08803    -0.43117    -40.08803    -10.24516    -130.08803
230793804.43112    -10.22792    -130.19141    -0.43297    -40.19141    -0.43297    -40.19141    -10.22792    -130.19141
231432163.85997    -10.21071    -130.29503    -0.43478    -40.29503    -0.43478    -40.29503    -10.21071    -130.29503
232072288.94610    -10.19353    -130.39890    -0.43659    -40.39890    -0.43659    -40.39890    -10.19353    -130.39890
232714184.57319    -10.17639    -130.50300    -0.43841    -40.50300    -0.43841    -40.50300    -10.17639    -130.50300
233357855.63843    -10.15928    -130.60734    -0.44023    -40.60734    -0.44023    -40.60734    -10.15928    -130.60734
234003307.05256    -10.14221    -130.71193    -0.44206    -40.71193    -0.44206    -40.71193    -10.14221    -130.71193
234650543.73991    -10.12517    -130.81675    -0.44389    -40.81675    -0.44389    -40.81675    -10.12517    -130.81675
235299570.63840    -10.10816    -130.92182    -0.44572    -40.92182    -0.44572    -40.92182    -10.10816    -130.92182
