# GHz S RI R 50

1.000000000000000e-03  2.2520467405770164e-04 -3.0035786328344767e-04  9.9976934366295256e-01 -1.2217380247456647e-03  9.9976934366292769e-01 -1.2217380246965198e-03  2.2520413519176605e-04 -3.0035763467992137e-04
4.368717948717949e-01 -6.7112194331360786e-02 -1.1630117434126180e-01  8.5476824863560552e-01 -4.9670565911989922e-01  8.5476824863560430e-01 -4.9670565911989845e-01 -6.7199804848863592e-02 -1.1624889312496922e-01
8.727435897435898e-01 -2.1656566715555522e-01 -1.2531485498987646e-01  4.8265000624488480e-01 -8.3463630638232877e-01  4.8265000624488413e-01 -8.3463630638232766e-01 -2.1676022244268775e-01 -1.2497036300865538e-01
1.308615384615385e+00 -3.3136280000826812e-01 -2.2523137273664285e-03  6.9438936137689823e-03 -9.3767817026002831e-01  6.9438936137689866e-03 -9.3767817026003175e-01 -3.3136087436335265e-01 -1.3785838492750844e-03
1.744487179487180e+00 -3.1365561408773784e-01  1.7934939439110828e-01 -4.5903959841169834e-01 -8.0281630505999579e-01 -4.5903959841169911e-01 -8.0281630505999724e-01 -3.1285212500290699e-01  1.8072523315464323e-01
2.180358974358974e+00 -1.4508706706967753e-01  2.7590406534315171e-01 -8.3407796685168245e-01 -4.3407219689003834e-01 -8.3407796685166524e-01 -4.3407219689002680e-01 -1.4265268539005668e-01  2.7714536489456620e-01
2.616230769230769e+00  2.0604662793184288e-02  1.2021992296903103e-01 -9.5804743204658283e-01  2.0219365953084870e-01 -9.5804743204656828e-01  2.0219365953085700e-01  2.4952740699323926e-02  1.1927523752837936e-01
3.052102564102564e+00 -2.2394735445849032e-01 -1.0860586452427963e-01 -4.4315041589898324e-01  8.3980137461250381e-01 -4.4315041589898102e-01  8.3980137461249971e-01 -2.2138263715301623e-01 -1.1342893476189105e-01
3.487974358974359e+00 -4.7343580913018174e-01  2.5592634546195958e-01  3.8618677394434586e-01  7.1969909070667304e-01  3.8618677394432377e-01  7.1969909070663884e-01 -4.7323538521466624e-01  2.5571330648029095e-01
3.923846153846154e+00 -2.4140261481614519e-01 -1.5294528303646032e-01  6.6620463046551415e-01 -5.7867260350993210e-01  6.6620463046550593e-01 -5.7867260350992911e-01 -2.1006172225807640e-01 -1.8297306701218061e-01
4.359717948717949e+00 -5.4229201902830293e-01  8.1267328870190936e-01 -6.4205477400521516e-02 -5.1240256012847249e-02 -6.4205477400491345e-02 -5.1240256012832774e-02 -5.6732779598511962e-01  7.9501307743621663e-01
4.795589743589744e+00 -5.9181191451685135e-02  9.8448507767665994e-01 -8.0304824310563957e-03 -1.9161749414883056e-03 -8.0304824310329301e-03 -1.9161749414880612e-03 -8.5784548942963765e-02  9.8278023702587214e-01
5.231461538461539e+00  3.0859651319627207e-01  9.3900419261894907e-01  1.2552372083360329e-03 -8.8033197968633893e-04  1.2552372084194379e-03 -8.8033197966812205e-04  2.8485884369615266e-01  9.4640850966884016e-01
5.667333333333334e+00  5.9496688411704368e-01  7.9004269824820572e-01  4.6800981272361493e-03 -3.5044884099354407e-03  4.6800981272355699e-03 -3.5044884099010611e-03  5.7394537470347684e-01  8.0540479688760125e-01
6.103205128205129e+00  8.0564659964198060e-01  5.7332328912203812e-01  8.2127220044824669e-03 -1.0940994706335076e-02  8.2127220045073984e-03 -1.0940994706312096e-02  7.8905126132098224e-01  5.9597248232038746e-01
6.539076923076924e+00  9.3861709508240576e-01  3.0694361170423107e-01  9.1565463306480816e-03 -2.6450163000308731e-02  9.1565463306478474e-03 -2.6450163000309185e-02  9.2864149006562058e-01  3.3612809132602128e-01
6.974948717948719e+00  9.8416712114852611e-01  4.1971731575282624e-03  3.3311475826274922e-04 -5.2245638505428245e-02  3.3311475826202069e-04 -5.2245638505430556e-02  9.8359180741876207e-01  3.8509072563662955e-02
7.410820512820513e+00  9.2286151216224499e-01 -3.1843091510917837e-01 -3.1698141107395460e-02 -8.7076126207468019e-02 -3.1698141107395335e-02 -8.7076126207467838e-02  9.3502045025609049e-01 -2.8186887146635686e-01
7.846692307692308e+00  7.2307168886635353e-01 -6.2710993138102811e-01 -1.1012230918261059e-01 -1.1689618759138178e-01 -1.1012230918261035e-01 -1.1689618759138155e-01  7.5119713363995055e-01 -5.9407719567666850e-01
8.282564102564102e+00  3.5252068200474590e-01 -8.3828366454598413e-01 -2.6005661033730038e-01 -8.7634531080207023e-02 -2.6005661033730032e-01 -8.7634531080207051e-02  3.9677443139214824e-01 -8.1937979778703862e-01
8.718435897435898e+00 -1.3626549869278126e-01 -7.8198142271423865e-01 -4.3244733222276671e-01  1.2846288249551019e-01 -4.3244733222276843e-01  1.2846288249551019e-01 -8.7080639923006825e-02 -7.9057970588800985e-01
9.154307692307691e+00 -4.2822559747024269e-01 -3.7357421956132292e-01 -3.3774320747958608e-01  5.6819341139607937e-01 -3.3774320747960079e-01  5.6819341139608215e-01 -4.0023425101550758e-01 -4.0645277508347155e-01
9.590179487179487e+00 -2.9377628528898631e-01 -1.4380749674358833e-02  2.0447210231473084e-01  7.8374433015411893e-01  2.0447210231474294e-01  7.8374433015411960e-01 -2.9338107709090328e-01 -4.1316949220407184e-02
1.002605128205128e+01 -9.4710185765403215e-02  2.9044927479306409e-02  7.3399400057971065e-01  4.7323052033411750e-01  7.3399400057971376e-01  4.7323052033412211e-01 -9.8048745244447386e-02  1.9871315627391355e-02
1.046192307692308e+01 -5.0346089394278093e-02 -4.1704707411717848e-02  8.8893023472155375e-01 -1.1031407633564901e-01  8.8893023472154942e-01 -1.1031407633564361e-01 -4.3255074698935747e-02 -4.6944430317065355e-02
1.089779487179487e+01 -1.3739851523058583e-01 -8.0090251873494375e-02  6.1436195069444410e-01 -6.5544093894086319e-01  6.1436195069443966e-01 -6.5544093894086497e-01 -1.2423730661356387e-01 -9.8377938378443289e-02
1.133366666666667e+01 -3.1665929265376747e-01  3.3423651193844980e-02  1.1689604743204391e-02 -8.6464453763265536e-01  1.1689604743203257e-02 -8.6464453763266180e-01 -3.1814664651561725e-01 -7.5068865843186264e-03
1.176953846153846e+01 -3.4735354685057362e-01  4.2634629694311443e-01 -5.2830100910059796e-01 -5.2360317746866614e-01 -5.2830100910060407e-01 -5.2360317746866358e-01 -3.9652105846380736e-01  3.8118517845120325e-01
1.220541025641026e+01  9.0379291789065300e-02  7.5180554181554882e-01 -5.2989072889693500e-01  5.5460312128305204e-03 -5.2989072889693611e-01  5.5460312128504871e-03 -5.1814050567881246e-03  7.5831629373967147e-01
1.264128205128205e+01  6.3519167687747990e-01  5.8466644454110006e-01 -2.5160336195506905e-01  2.0356060419207780e-01 -2.5160336195509736e-01  2.0356060419208435e-01  5.4674761316317377e-01  6.7200617021500630e-01
1.307715384615385e+01  8.8982764735402398e-01  1.2916726116969934e-01 -6.4858435723488178e-02  1.7097243893581024e-01 -6.4858435723515837e-02  1.7097243893576516e-01  8.5986411555436892e-01  2.8294863239979512e-01
1.351302564102564e+01  8.2928084961871862e-01 -3.3825072699117725e-01  1.9607072273971613e-03  9.7551850244739460e-02  1.9607072274085095e-03  9.7551850244702726e-02  9.0078291032118885e-01 -1.5782056620588686e-01
1.394889743589744e+01  5.6777029964252257e-01 -6.9940585792049903e-01  1.4043979439709730e-02  4.6515339309315805e-02  1.4043979439646777e-02  4.6515339309364495e-02  7.4158921492312047e-01 -5.3178568470813836e-01
1.438476923076923e+01  9.3101812663866704e-02 -8.4798400976813837e-01 -2.9533457746086701e-04  2.1760990525490041e-02 -2.9533457743064016e-04  2.1760990525481579e-02  4.4609419878111206e-01 -7.8673114553091816e-01
1.482064102564103e+01 -2.0150926571824271e-01 -8.4671224608197715e-01 -9.5535537126315764e-03  1.6003806886537030e-02 -9.5535537126288511e-03  1.6003806886537398e-02  8.6394208944380588e-02 -8.8881694029366531e-01
1.525651282051282e+01 -5.9618700962227122e-01 -6.3010569120099325e-01 -1.3704316026223592e-02  2.4619009318386110e-02 -1.3704316026223236e-02  2.4619009318383102e-02 -2.9331079623147288e-01 -8.3183954047443720e-01
1.569238461538462e+01 -8.2174075661782076e-01 -2.5751794314476534e-01 -8.1939372218699513e-03  3.8176086223707828e-02 -8.1939372218710373e-03  3.8176086223713761e-02 -6.1339552232025607e-01 -6.1605319589300001e-01
1.612825641025641e+01 -8.4080543268071861e-01  1.7022071384146886e-01  1.1045946782661452e-02  5.3483847020593112e-02  1.1045946782660711e-02  5.3483847020591280e-02 -8.1147783828310671e-01 -2.7612669492242270e-01
1.656412820512821e+01 -6.5337709876582406e-01  5.5143989688801076e-01  5.4037653590959189e-02  6.5960473998064623e-02  5.4037653590960071e-02  6.5960473998064637e-02 -8.3375610947106338e-01  1.3248263891122453e-01
1.700000000000000e+01 -2.8563753489760946e-01  7.8475463642079557e-01  1.5029241928903819e-01  4.9371157854532215e-02  1.5029241928903941e-01  4.9371157854531021e-02 -6.2341626749837387e-01  5.2560710135591315e-01
