# GHz S RI R 50

1.000000000000000e-03  1.1553620199158496e-03 -2.3999087683985267e-03  9.9877780925678483e-01 -6.0258533924037998e-03  9.9877780925679482e-01 -6.0258533924079502e-03  1.1552782857527275e-03 -2.3998483259954325e-03
4.368717948717949e-01 -1.6621237088930729e-01  1.5349589287496848e-01 -6.8878082029705656e-01 -6.6046763111614337e-01 -6.8878082029706278e-01 -6.6046763111614981e-01 -1.6025627311339263e-01  1.5902896442373232e-01
8.727435897435898e-01 -2.2651828832238807e-01  7.7404037641050694e-02  3.4121205155621481e-01  8.6955335941392320e-01  3.4121205155621037e-01  8.6955335941391176e-01 -2.2397293992580630e-01  8.3778492584009323e-02
1.308615384615385e+00 -2.5060536471796102e-01 -8.6141788163164035e-01 -3.0636440641506563e-01  4.7463908470980039e-02 -3.0636440641508883e-01  4.7463908470994340e-02 -2.1269299687249210e-01 -8.6957147383483557e-01
1.744487179487180e+00 -9.7905286109083922e-01 -1.2519110963298113e-01 -2.4248805446518214e-03  1.0024473215522241e-02 -2.4248805446508283e-03  1.0024473215524554e-02 -9.7602238724850476e-01 -1.3938225814052749e-01
2.180358974358974e+00 -9.3636838106997489e-01  3.1702690869678735e-01  2.7014684228230290e-04  1.6159249102220509e-03  2.7014684227619603e-04  1.6159249102237895e-03 -9.3800597577042000e-01  3.0858087081153707e-01
2.616230769230769e+00 -7.7715609199292301e-01  6.1041212855093840e-01  1.3702776038197758e-04  4.1083470504844438e-04  1.3702776038227111e-04  4.1083470503131854e-04 -7.7946670808825025e-01  6.0578434879885390e-01
3.052102564102564e+00 -5.6543138356601474e-01  8.0934333293888983e-01  8.0621299417352998e-05  2.1808060136739734e-04  8.0621299289684222e-05  2.1808060142398586e-04 -5.6694136834007758e-01  8.0725369821233839e-01
3.487974358974359e+00 -3.2443525410537594e-01  9.3118007740976794e-01  1.4068569887356236e-04  6.5380325185760685e-05  1.4068569887653787e-04  6.5380325186731249e-05 -3.2435483282932526e-01  9.3052524283089344e-01
3.923846153846154e+00 -6.9180445851864211e-02  9.8245439676156199e-01  1.0096343324305496e-05 -6.3098086899616285e-05  1.0096343308884868e-05 -6.3098086900593666e-05 -6.6942996928358228e-02  9.8183592698934286e-01
4.359717948717949e+00  1.8768947165757169e-01  9.6565340584418913e-01 -8.4126191860918131e-05 -1.4801295810673258e-05 -8.4126191860391751e-05 -1.4801295810571641e-05  1.9108280836293542e-01  9.6534326170246199e-01
4.795589743589744e+00  4.3312953448147673e-01  8.8191161228128190e-01 -1.3723301540183677e-04  4.9307865315585998e-05 -1.3723301539351614e-04  4.9307865311487910e-05  4.3852519396638628e-01  8.7952578899757661e-01
5.231461538461539e+00  6.5286840072362151e-01  7.3232205880963974e-01 -1.7271774689881197e-04  1.9607528017319078e-04 -1.7271774689077879e-04  1.9607528016024820e-04  6.5920911090359646e-01  7.2666391427084687e-01
5.667333333333334e+00  8.3069138888110094e-01  5.1831346568998105e-01 -2.9192730498962526e-05  4.0061686328000923e-04 -2.9192730499995700e-05  4.0061686328238922e-04  8.3630234522367775e-01  5.0792340265112113e-01
6.103205128205129e+00  9.4618614362689535e-01  2.3957466264441268e-01  2.3985783511880305e-04  3.8918188478099521e-04  2.3985783512026228e-04  3.8918188479327933e-04  9.4778346759173537e-01  2.2272178295385900e-01
6.539076923076924e+00  9.6039790804983527e-01 -1.1997652726924353e-01  8.1851423400493525e-05  8.5928119380873183e-05  8.1851423417196405e-05  8.5928119396258825e-05  9.4880483728623299e-01 -1.4575746492552161e-01
6.974948717948719e+00  3.2320087027289424e-01 -6.0392978499850669e-01  8.6418524194312021e-02 -4.3225506401384478e-02  8.6418524194312563e-02 -4.3225506401382945e-02  2.2660114634298159e-01 -5.3984789239367537e-01
7.410820512820513e+00  7.5867904899248995e-01 -5.4863616057283005e-01  1.9045796223224561e-02  2.4060191934351997e-02  1.9045796223224363e-02  2.4060191934352024e-02  7.4546408491185956e-01 -5.5673834822473711e-01
7.846692307692308e+00  9.8978786241572983e-02 -8.8820991223984480e-01  1.0498133354533033e-01 -7.1555787556107520e-03  1.0498133354533205e-01 -7.1555787556068298e-03  5.2678894102735671e-02 -8.5959134633101808e-01
8.282564102564102e+00  3.6359090589351578e-02 -1.4665788994437334e-01 -6.9208878730938261e-01  2.1488602242321835e-02 -6.9208878730937662e-01  2.1488602242312336e-02 -2.4656924373237309e-02 -1.5453856589385573e-01
8.718435897435898e+00 -5.0246585296648917e-02 -2.5042487465831220e-01  6.0308342646143687e-01  6.2751419511226730e-02  6.0308342646143365e-01  6.2751419511232170e-02  4.5668575504312990e-02 -2.2705526367879694e-01
9.154307692307691e+00 -5.0747542293691356e-02  5.2276957224372289e-01 -2.4285397616772106e-01 -1.3110638186033535e-01 -2.4285397616772139e-01 -1.3110638186034049e-01  2.0779016787275749e-02  4.7447304790635253e-01
9.590179487179487e+00  7.8494944183495796e-01  1.2291359838522191e-01 -3.1917488854206297e-02  6.7721935727814028e-02 -3.1917488854204881e-02  6.7721935727821758e-02  7.6946738341043774e-01  7.8827690326392710e-02
1.002605128205128e+01  7.4433418147331065e-01 -4.4220482313503856e-01  1.8499290766204740e-02  3.3078381229000323e-02  1.8499290766186061e-02  3.3078381228966600e-02  7.2480497094989815e-01 -4.5234817083820006e-01
1.046192307692308e+01  4.6054397351058735e-01 -7.4456872349073722e-01  3.7886786582075171e-02  6.8557231323148112e-03  3.7886786582075414e-02  6.8557231323295572e-03  4.5024659657815380e-01 -7.4350190511288361e-01
1.089779487179487e+01  1.9063396576595848e-01 -7.9383309194172458e-01 -1.5323271307060890e-02 -4.8264729000291710e-02 -1.5323271307067746e-02 -4.8264729000291530e-02  1.8510178402249158e-01 -7.9372071749624584e-01
1.133366666666667e+01 -3.3872347769186011e-02 -8.5995011968909918e-01 -6.9382301341428254e-03  6.5248767367914974e-03 -6.9382301341341154e-03  6.5248767367805322e-03 -3.9127967829992817e-02 -8.5596049102634719e-01
1.176953846153846e+01 -3.0626938708189838e-01 -8.2667099221010931e-01 -5.6628360398418527e-06 -1.7190962058561989e-03 -5.6628360305923308e-06 -1.7190962058591733e-03 -3.0706179371238623e-01 -8.1978097804741346e-01
1.220541025641026e+01 -5.4041955302802525e-01 -6.9363841724352793e-01 -3.7893342300561747e-03 -3.9492536338525475e-03 -3.7893342300552562e-03 -3.9492536338527557e-03 -5.3453343779649454e-01 -6.9577851989584527e-01
1.264128205128205e+01 -7.1390220946730520e-01 -4.9039542255513374e-01 -8.1970931017430783e-03 -2.2210941337042303e-03 -8.1970931017425527e-03 -2.2210941337048682e-03 -7.1302001635031875e-01 -4.9188686959864675e-01
1.307715384615385e+01 -7.9917849606859293e-01 -2.1765370771020007e-01 -2.0694107644655544e-02 -7.2702477754098245e-03 -2.0694107644656123e-02 -7.2702477754070932e-03 -8.0071660059666439e-01 -2.1919214716056282e-01
1.351302564102564e+01 -7.8068687320115260e-01  1.8352538535964458e-02  3.3431041965918153e-02  1.0053608684617893e-01  3.3431041965920283e-02  1.0053608684617850e-01 -7.8198823468449985e-01  2.5820187546556517e-02
1.394889743589744e+01 -7.2751451752957208e-01  1.2753210307362592e-01  3.2259310045932806e-02 -1.0745608428934210e-01  3.2259310045940078e-02 -1.0745608428933995e-01 -7.2463067047632468e-01  1.2111682039251326e-01
1.438476923076923e+01 -5.5238321186389916e-01  4.1341107729461618e-01 -8.1324060668458723e-02 -5.7836139204285375e-02 -8.1324060668464371e-02 -5.7836139204296762e-02 -5.6219296756166681e-01  4.1545419963288516e-01
1.482064102564103e+01 -4.9242015564484320e-01  4.0876557313923334e-01  9.5782414048674686e-02  8.8263099779216911e-02  9.5782414048687092e-02  8.8263099779222823e-02 -4.8590308882003486e-01  4.3541512727555226e-01
1.525651282051282e+01 -2.8529401921479114e-01  5.7306750046063237e-01 -2.9604916768658871e-02 -6.4992008693603540e-02 -2.9604916768655256e-02 -6.4992008693600278e-02 -2.4500798685094333e-01  5.8970848440330637e-01
1.569238461538462e+01  9.8073004719611556e-02  6.3589133735168446e-01 -1.3400123145252437e-02 -8.6704173162332528e-03 -1.3400123145272792e-02 -8.6704173162305987e-03  1.5545864654856911e-01  5.9067742482325825e-01
1.612825641025641e+01  4.0387429900891264e-01  2.2423214537665789e-01  4.0875677449349690e-03  3.3628796114212642e-02  4.0875677449306929e-03  3.3628796114211497e-02  3.8360864020942498e-01  2.0176630580760652e-01
1.656412820512821e+01  3.0356212877169769e-01 -1.1366772204548398e-01  2.0523819227147765e-02 -2.1462694359552850e-02  2.0523819227138033e-02 -2.1462694359560153e-02  2.6187890342894143e-01 -1.5519899681677568e-01
1.700000000000000e+01 -1.3541521266129927e-01 -5.3120003049135278e-01 -8.3658119118949249e-03 -4.5540363896814138e-05 -8.3658119118983406e-03 -4.5540363899722016e-05 -2.1967865614517479e-01 -3.1815785897879834e-01
