# GHz S RI R 50

1.000000000000000e-03  1.6607466928233371e-04 -1.7602513166425248e-04  9.9983082412257818e-01 -7.8146301549078794e-04  9.9983082412251056e-01 -7.8146301557030149e-04  1.6604485220618180e-04 -1.7598317173495647e-04
4.368717948717949e-01 -2.4079290860413997e-02 -7.7507116547640753e-02  9.3891890752352913e-01 -3.2969028190734895e-01  9.3891890752352547e-01 -3.2969028190734762e-01 -2.8890170374986118e-02 -7.5681720317343798e-02
8.727435897435898e-01 -9.3991511525941623e-02 -1.3371596673342856e-01  7.6734539970736870e-01 -6.1583445630048139e-01  7.6734539970737037e-01 -6.1583445630048284e-01 -1.0972931318637531e-01 -1.2058699339480398e-01
1.308615384615385e+00 -1.9719857897914714e-01 -1.4822564078225381e-01  5.0594918793425869e-01 -8.2215191007421962e-01  5.0594918793425836e-01 -8.2215191007421884e-01 -2.2081324714511177e-01 -1.0839852329522458e-01
1.744487179487180e+00 -3.1236606312414722e-01 -1.0576538786067888e-01  1.8904287751652041e-01 -9.1988032807902886e-01  1.8904287751652082e-01 -9.1988032807903086e-01 -3.2784571744327112e-01 -2.4189193107804374e-02
2.180358974358974e+00 -4.0996465892132755e-01 -1.3239321027036779e-03 -1.3929626821333221e-01 -8.9494796837759516e-01 -1.3929626821333210e-01 -8.9494796837759472e-01 -3.8786344932482325e-01  1.2828775878550847e-01
2.616230769230769e+00 -4.5715648833648515e-01  1.5406288402454238e-01 -4.3335710907084529e-01 -7.5192860783466464e-01 -4.3335710907084196e-01 -7.5192860783465820e-01 -3.5824941174605346e-01  3.2019131047985105e-01
3.052102564102564e+00 -4.2651656001624255e-01  3.2983226124346721e-01 -6.5711707978953116e-01 -5.1045322153168482e-01 -6.5711707978952005e-01 -5.1045322153167405e-01 -2.0873665188922239e-01  4.9416635610342324e-01
3.487974358974359e+00 -3.0649181458943692e-01  4.7356080539624079e-01 -7.9139290400318929e-01 -1.8607982400876111e-01 -7.9139290400317730e-01 -1.8607982400875853e-01  6.5623764478160485e-02  5.5570581879169290e-01
3.923846153846154e+00 -1.2886190628726982e-01  4.9166955816166591e-01 -8.0002773174205910e-01  2.6816045125952798e-01 -8.0002773174199793e-01  2.6816045125950355e-01  3.8687860480819708e-01  3.1170301662594690e-01
4.359717948717949e+00 -2.5094686540718336e-01  3.3476495616332930e-01 -1.7187719039957294e-01  8.5882570083423870e-01 -1.7187719039965296e-01  8.5882570083427334e-01 -1.1744049338631125e-01 -3.5389407576829496e-01
4.795589743589744e+00 -2.0722418289741257e-01  9.0304573374426766e-01  3.0317700041697399e-01  1.0258864211991452e-01  3.0317700041678020e-01  1.0258864212008563e-01 -3.1306710964169659e-01  8.5589993244152085e-01
5.231461538461539e+00  2.7539097152635533e-01  9.4391219586032993e-01  8.2066835388444406e-02 -4.1735340540842415e-02  8.2066835388448209e-02 -4.1735340540843997e-02  6.2376076060123620e-01  7.4100268703882555e-01
5.667333333333334e+00  5.9813320525446512e-01  7.8350122035378766e-01  1.4289769339264232e-02 -7.9253548741555283e-02  1.4289769339255996e-02 -7.9253548741553242e-02  7.8428706996922748e-01 -4.9443470983913174e-01
6.103205128205129e+00  8.2108327022234595e-01  5.5102425386995846e-01  8.7112823247617582e-03 -6.0627756765173988e-03  8.7112823247582002e-03 -6.0627756765576999e-03 -2.8637132772088275e-01  9.0833165170252239e-01
6.539076923076924e+00  9.4704548221453733e-01  2.6116861066882385e-01  4.9502286880145845e-02 -9.1626128370452004e-02  4.9502286880056361e-02 -9.1626128370434851e-02  7.1713630105990345e-01  6.6542437779642483e-01
6.974948717948719e+00  9.6587144072599851e-01 -5.2702055218238217e-02  1.1211776250407684e-02 -1.8836316695825980e-01  1.1211776250406126e-02 -1.8836316695825797e-01  9.4873432420756898e-01  1.9021533494016632e-01
7.410820512820513e+00  8.6979840443397205e-01 -3.5717514952600377e-01 -9.0922269348702719e-02 -2.6591770117530023e-01 -9.0922269348702747e-02 -2.6591770117530139e-01  9.1634272354673907e-01 -2.1930494803621492e-01
7.846692307692308e+00  6.6008951670640981e-01 -6.0701785536472841e-01 -2.4964469223617830e-01 -2.8923778360863084e-01 -2.4964469223617919e-01 -2.8923778360863167e-01  7.2718451482524515e-01 -5.3070214747529909e-01
8.282564102564102e+00  3.6160597036092706e-01 -7.4988505711135101e-01 -4.3568544784290736e-01 -2.2057639507205432e-01 -4.3568544784290553e-01 -2.2057639507205343e-01  4.4505560605607586e-01 -7.1055957314136897e-01
8.718435897435898e+00  3.3045171480800370e-02 -7.4556929493927959e-01 -5.9119371883822114e-01 -4.0187169247027060e-02 -5.9119371883822314e-01 -4.0187169247027400e-02  1.4280728202530221e-01 -7.4264538681616332e-01
9.154307692307691e+00 -2.4423596451246146e-01 -5.9462635063304692e-01 -6.4611894635962619e-01  2.2878750720388824e-01 -6.4611894635962608e-01  2.2878750720388791e-01 -1.0592868358901540e-01 -6.5030982862846765e-01
9.590179487179487e+00 -4.0280450916516503e-01 -3.4941474230863062e-01 -5.5573518722184534e-01  5.1710994011329681e-01 -5.5573518722184267e-01  5.1710994011329581e-01 -2.5838333863743995e-01 -4.9412169602801981e-01
1.002605128205128e+01 -4.2306572645264240e-01 -8.9299322993284483e-02 -3.2881383516887219e-01  7.4057429991043966e-01 -3.2881383516887658e-01  7.4057429991043755e-01 -3.2094972273192413e-01 -3.3875007064275309e-01
1.046192307692308e+01 -3.3352720806125985e-01  1.2010283065655160e-01 -1.9947727124454001e-02  8.4049158785355227e-01 -1.9947727124449133e-02  8.4049158785355338e-01 -3.3266364098432982e-01 -2.1863337958065784e-01
1.089779487179487e+01 -1.8349234860711250e-01  2.4817952600223395e-01  3.0186861322681158e-01  8.0018460078840214e-01  3.0186861322680791e-01  8.0018460078840881e-01 -3.3256732069948158e-01 -1.3154097230866424e-01
1.133366666666667e+01 -1.7696642293509760e-02  2.9422410058536830e-01  5.7838564314879792e-01  6.3520759039098340e-01  5.7838564314880081e-01  6.3520759039099051e-01 -3.3924704510441356e-01 -5.4347554187118126e-02
1.176953846153846e+01  1.3371890719162069e-01  2.7302249498127240e-01  7.6892330440986045e-01  3.7670441290505219e-01  7.6892330440985535e-01  3.7670441290504980e-01 -3.4655453286247939e-01  3.8209927036759621e-02
1.220541025641026e+01  2.5454861777000681e-01  2.0345139722715599e-01  8.4668843643506997e-01  6.2293523036369133e-02  8.4668843643506808e-01  6.2293523036362694e-02 -3.2855084698351505e-01  1.5814396657303800e-01
1.264128205128205e+01  3.3822377467152326e-01  1.0299733254179565e-01  7.9511433202357462e-01 -2.6556597442218849e-01  7.9511433202357396e-01 -2.6556597442218999e-01 -2.5039089296206829e-01  2.9379399613497892e-01
1.307715384615385e+01  3.8510561906474272e-01 -1.3948435885409977e-02  6.0660347778202217e-01 -5.5739642736284412e-01  6.0660347778202472e-01 -5.5739642736284700e-01 -8.1728881333569023e-02  4.0293629166924416e-01
1.351302564102564e+01  4.0209168905715476e-01 -1.3968626576945337e-01  2.8624101362394572e-01 -7.4930671997339782e-01  2.8624101362392873e-01 -7.4930671997338083e-01  1.8097906148144075e-01  4.0425087912047358e-01
1.394889743589744e+01  3.9571922875802085e-01 -2.8423407156320607e-01 -1.2480008799158325e-01 -7.5149381588054120e-01 -1.2480008799158852e-01 -7.5149381588050823e-01  4.5792244653158631e-01  1.8062579771163167e-01
1.438476923076923e+01  3.4565591828273040e-01 -4.7234611999929743e-01 -4.7816913305546355e-01 -4.8433767533916600e-01 -4.7816913305546266e-01 -4.8433767533910949e-01  4.8511630352820695e-01 -3.0771375145802787e-01
1.482064102564103e+01  1.4451383262229914e-01 -6.9664784550166026e-01 -5.3358402865042920e-01 -4.9241897893082857e-02 -5.3358402865047616e-01 -4.9241897893062450e-02 -9.5887877467286577e-03 -6.8974609704699208e-01
1.525651282051282e+01 -2.3240215695170030e-01 -7.6705597331726971e-01 -2.9860438932185424e-01  2.0705973470566427e-01 -2.9860438932184585e-01  2.0705973470566011e-01 -6.4929311262169254e-01 -4.4864386768782571e-01
1.569238461538462e+01 -5.9237443546947377e-01 -5.9170740267737298e-01 -8.2229860773437899e-02  2.2951248342213923e-01 -8.2229860773427352e-02  2.2951248342213709e-01 -8.2999434816821938e-01  1.5634297555635940e-01
1.612825641025641e+01 -8.1154912537040003e-01 -2.5091757530202174e-01  4.0726601228723673e-02  1.7543928495576444e-01  4.0726601228723361e-02  1.7543928495577146e-01 -5.7461235506193786e-01  6.5984031893289485e-01
1.656412820512821e+01 -8.3757131210823377e-01  1.4462102355072329e-01  1.1591794141530586e-01  1.1840107293728644e-01  1.1591794141528722e-01  1.1840107293729442e-01 -1.1463546651280525e-01  8.8081520910666233e-01
1.700000000000000e+01 -6.7954434675785402e-01  5.0512365080202171e-01  1.6922151499943319e-01  4.2601217868337399e-02  1.6922151499941343e-01  4.2601217868311864e-02  3.7029986924332209e-01  8.0961445765931428e-01
