# GHz S RI R 50

1.000000000000000e-03  1.2957404475269904e-03 -1.1302709532329014e-05  9.9867656398581373e-01 -4.4323722702274988e-03  9.9867656398581339e-01 -4.4323722702378837e-03  1.2997536693605291e-03 -1.3363437316428938e-05
8.642211055276383e-02 -1.2329009299320315e-02 -3.9062088352099253e-04  9.2467469611617248e-01 -3.6769633546821606e-01  9.2467469611616904e-01 -3.6769633546821462e-01  1.4537568484494747e-02 -1.2032036825502414e-02
1.718442211055277e-01 -4.1944729756914788e-02  3.0280866004822788e-02  7.2280657591217623e-01 -6.7766090443074489e-01  7.2280657591217812e-01 -6.7766090443074700e-01  3.7469522756717409e-02 -4.7959253470251692e-02
2.572663316582915e-01 -4.8213594960800472e-02  1.0162925215157825e-01  4.1905198253054160e-01 -8.8931128494927902e-01  4.1905198253053955e-01 -8.8931128494927447e-01  4.7360976154059396e-02 -1.1253187434643877e-01
3.426884422110553e-01  4.5940758547485441e-03  1.8529449703455816e-01  6.0441045161175287e-02 -9.6785863213394252e-01  6.0441045161174753e-02 -9.6785863213393331e-01  2.1701480656228702e-02 -1.9292192364365462e-01
4.281105527638192e-01  1.1962923913986723e-01  2.2976349849044228e-01 -2.9280936854311002e-01 -9.0481297100195690e-01 -2.9280936854310541e-01 -9.0481297100194347e-01 -4.7175842448625993e-02 -2.6201565776686503e-01
5.135326633165830e-01  2.5880401971515343e-01  1.9258243662876440e-01 -5.8703679077764293e-01 -7.2158514451684286e-01 -5.8703679077763216e-01 -7.2158514451683275e-01 -1.4567568551274263e-01 -2.9376248764055635e-01
5.989547738693468e-01  3.6123352006447979e-01  6.7060138507978179e-02 -7.9049438995913013e-01 -4.5586481008702645e-01 -7.9049438995910482e-01 -4.5586481008701046e-01 -2.4624828262944309e-01 -2.7756651104965502e-01
6.843768844221106e-01  3.7085001303173809e-01 -1.1287473426113402e-01 -8.9148277854662605e-01 -1.4300923399971785e-01 -8.9148277854662805e-01 -1.4300923399971863e-01 -3.2093998249202338e-01 -2.2241881457729892e-01
7.697989949748745e-01  2.5601389195665331e-01 -2.8094717946939968e-01 -8.8336309737911611e-01  1.9139025699209250e-01 -8.8336309737910990e-01  1.9139025699209475e-01 -3.5204457771476955e-01 -1.5316693566853745e-01
8.552211055276383e-01  2.6830697638481421e-02 -3.4669831634203518e-01 -7.4975327698068095e-01  5.2076805665133796e-01 -7.4975327698066485e-01  5.2076805665132753e-01 -3.4040983487590126e-01 -1.0501775244781951e-01
9.406432160804020e-01 -2.3222053287755945e-01 -2.1688153628115792e-01 -4.6844622517068396e-01  7.8923353659167916e-01 -4.6844622517068224e-01  7.8923353659167694e-01 -3.1736580033133577e-01 -1.1200782424923970e-01
1.026065326633166e+00 -3.4028929331547264e-01  1.1919888420219492e-01 -6.2910010731241514e-02  8.9265435300172224e-01 -6.2910010731238683e-02  8.9265435300170770e-01 -3.4846089476964587e-01 -1.7194725122178359e-01
1.111487437185930e+00 -1.4357155436355878e-01  4.7356549010920379e-01  3.2913693091909846e-01  7.5465284664160548e-01  3.2913693091910839e-01  7.5465284664159538e-01 -4.7925859401868942e-01 -2.0753699616620949e-01
1.196909547738694e+00  2.5819758760029810e-01  5.9075087708296881e-01  5.4450590844758351e-01  4.5939775610915018e-01  5.4450590844761848e-01  4.5939775610913702e-01 -6.5411980405527426e-01 -1.2878834564998981e-01
1.282331658291457e+00  6.1865911039299182e-01  4.3942654926447222e-01  5.6969348694566169e-01  1.7162434312497460e-01  5.6969348694559552e-01  1.7162434312506655e-01 -7.7241102503315162e-01  5.9709466612788975e-02
1.367753768844221e+00  8.1765710354852783e-01  1.5773797277236315e-01  4.9366969726244037e-01 -3.1187993478954974e-02  4.9366969726251991e-01 -3.1187993478945686e-02 -7.9029788672499979e-01  2.9395843827683354e-01
1.453175879396985e+00  8.6732855263745756e-01 -1.3734996497930957e-01  3.8807579258444197e-01 -1.5422781963727397e-01  3.8807579258446739e-01 -1.5422781963727977e-01 -7.1255950966226878e-01  5.2293599355433529e-01
1.538597989949749e+00  8.1617297161341995e-01 -3.9325257174501471e-01  2.8378472127989757e-01 -2.2371026770559932e-01  2.8378472127992638e-01 -2.2371026770555810e-01 -5.5390967088304721e-01  7.1849793836912523e-01
1.624020100502513e+00  7.0556403629315723e-01 -5.9550334504433189e-01  1.8847271612120864e-01 -2.6046803524745948e-01  1.8847271612119515e-01 -2.6046803524751860e-01 -3.2465328109317454e-01  8.6067124486315139e-01
1.709442211055276e+00  5.6342878149060127e-01 -7.4516620421879387e-01  1.0073989686639394e-01 -2.7615366530224400e-01  1.0073989686640714e-01 -2.7615366530213592e-01 -3.2658714182083909e-02  9.2483811532134430e-01
1.794864321608040e+00  4.0755673783826546e-01 -8.4840128939837423e-01  1.6960666072373252e-02 -2.7464394978497447e-01  1.6960666072410854e-02 -2.7464394978496814e-01  3.0585776216237098e-01  8.7385666461231415e-01
1.880286432160804e+00  2.4916879014854662e-01 -9.1266307373518252e-01 -6.4542886968525864e-02 -2.5344945420238668e-01 -6.4542886968529431e-02 -2.5344945420236031e-01  6.4519164502047899e-01  6.5940669779828642e-01
1.965708542713568e+00  9.4980038000341480e-02 -9.4552257520919147e-01 -1.3869960080531890e-01 -2.0633288249743811e-01 -1.3869960080535504e-01 -2.0633288249746118e-01  8.8255939498661085e-01  2.5111748811289886e-01
2.051130653266332e+00 -5.2036084959391778e-02 -9.5384711835009062e-01 -1.9010263071484432e-01 -1.3171182580687579e-01 -1.9010263071489267e-01 -1.3171182580691126e-01  8.6826032381806839e-01 -2.8743724857183256e-01
2.136552763819096e+00 -1.9166925940997367e-01 -9.4223246810919303e-01 -2.0143881754479723e-01 -4.4896827251012288e-02 -2.0143881754484824e-01 -4.4896827251026387e-02  5.2941524214506186e-01 -7.4921836364440753e-01
2.221974874371859e+00 -3.2376730288473460e-01 -9.1235867103018720e-01 -1.7402114875401142e-01  2.6780681241968297e-02 -1.7402114875401326e-01  2.6780681241909413e-02  3.1637850135632418e-03 -9.2609734603435478e-01
2.307396984924623e+00 -4.4636712206660217e-01 -8.6526913151511509e-01 -1.2885051249273632e-01  6.8437741043491804e-02 -1.2885051249274981e-01  6.8437741043497827e-02 -4.7900093633788765e-01 -8.0536546201343584e-01
2.392819095477387e+00 -5.5701813536101574e-01 -8.0335373436016655e-01 -8.5193587077898800e-02  8.4554688652326654e-02 -8.5193587077887448e-02  8.4554688652316329e-02 -7.9339422204312438e-01 -5.1673590052490537e-01
2.478241206030151e+00 -6.5430893907958154e-01 -7.2983042451650093e-01 -5.0600209151124995e-02  8.5898318689123621e-02 -5.0600209151115787e-02  8.5898318689114045e-02 -9.3686206237510128e-01 -1.8103405933772679e-01
2.563663316582915e+00 -7.3791161840300379e-01 -6.4775328829102341e-01 -2.5159535701182744e-02  8.0547216168288610e-02 -2.5159535701182362e-02  8.0547216168281657e-02 -9.4918228327199661e-01  1.3781867933237224e-01
2.649085427135678e+00 -8.0811859255022411e-01 -5.5966126502014479e-01 -6.6683486643698102e-03  7.2804002887387781e-02 -6.6683486643682012e-03  7.2804002887393846e-02 -8.6789913408654507e-01  4.1495702411178170e-01
2.734507537688442e+00 -8.6550596216610454e-01 -4.6759517029154402e-01  7.1034255428321534e-03  6.4553215554125923e-02  7.1034255428355422e-03  6.4553215554122634e-02 -7.1768434484375354e-01  6.4219567685069590e-01
2.819929648241206e+00 -9.1075987723308549e-01 -3.7320534957922352e-01  1.7878069572476864e-02  5.6425060129972955e-02  1.7878069572476729e-02  5.6425060129990150e-02 -5.1204910265095371e-01  8.1491777749652816e-01
2.905351758793970e+00 -9.4460552960071642e-01 -2.7785421703421748e-01  2.6884617134600868e-02  4.8386622772268593e-02  2.6884617134606360e-02  4.8386622772270294e-02 -2.5756519946705903e-01  9.2480960366584897e-01
2.990773869346734e+00 -9.6778464528712249e-01 -1.8268537821571273e-01  3.4920359994924106e-02  3.9968822424426488e-02  3.4920359994927770e-02  3.9968822424438992e-02  4.0649057522000605e-02  9.5452797449714188e-01
3.076195979899498e+00 -9.8104824451983141e-01 -8.8666672918066708e-02  4.2285240608803024e-02  3.0323139925863211e-02  4.2285240608799429e-02  3.0323139925862674e-02  3.6933192603284271e-01  8.7309611706425061e-01
3.161618090452261e+00 -9.8515693619584521e-01  3.3824377856185206e-03  4.8459852597743415e-02  1.8315841622778474e-02  4.8459852597751825e-02  1.8315841622781374e-02  6.8777386948173336e-01  6.3678563566233393e-01
3.247040201005025e+00 -9.8088726757222455e-01  9.2782283892085579e-02  5.1536329836590074e-02  3.1365568783709523e-03  5.1536329836588665e-02  3.1365568783694388e-03  8.9853104704727471e-01  2.1492586104286188e-01
3.332462311557789e+00 -9.6902344726898215e-01  1.7901384150940722e-01  4.8329957812607530e-02 -1.3943496018334032e-02  4.8329957812610680e-02 -1.3943496018338459e-02  8.4916277702265830e-01 -3.3102648222333053e-01
3.417884422110553e+00 -9.5028770447550526e-01  2.6173448259248266e-01  3.7307942495743054e-02 -2.8118004082051867e-02  3.7307942495739703e-02 -2.8118004082062966e-02  4.6217844118779378e-01 -7.7978201059717733e-01
3.503306532663317e+00 -9.2525805942522288e-01  3.4068492531391464e-01  2.2213002601533579e-02 -3.4567844868651589e-02  2.2213002601529381e-02 -3.4567844868648702e-02 -9.9501097091246396e-02 -9.0661910759614195e-01
3.588728643216081e+00 -8.9443914951537196e-01  4.1556053379315572e-01  8.8687419830878796e-03 -3.3742400688519782e-02  8.8687419830768173e-03 -3.3742400688512572e-02 -5.7337862425199793e-01 -7.2422282501773660e-01
3.674150753768844e+00 -8.5838357192899539e-01  4.8604410734933562e-01 -2.9445247873304106e-04 -2.9415699396722769e-02 -2.9445247874797649e-04 -2.9415699396764694e-02 -8.4621316103984567e-01 -3.9900628008526751e-01
3.759572864321608e+00 -8.1768848664809601e-01  5.5188963519693257e-01 -5.9229485801533931e-03 -2.4457116627443494e-02 -5.9229485801423013e-03 -2.4457116627504664e-02 -9.4294087820727779e-01 -6.0160071753624395e-02
3.844994974874372e+00 -7.7295182250262340e-01  6.1293735915303893e-01 -9.3758125884472431e-03 -2.0012741614069136e-02 -9.3758125884308274e-03 -2.0012741614049461e-02 -9.2068094519954424e-01  2.3871690140807930e-01
3.930417085427136e+00 -7.2475336609656393e-01  6.6910685168322948e-01 -1.1697849322146842e-02 -1.6270562688879931e-02 -1.1697849322156749e-02 -1.6270562688892577e-02 -8.2170850115313898e-01  4.8572025981953210e-01
4.015839195979900e+00 -6.7363585095736489e-01  7.2039645367615934e-01 -1.3538845167502820e-02 -1.3072788011070235e-02 -1.3538845167550620e-02 -1.3072788011010394e-02 -6.6777532349982804e-01  6.8278847595825520e-01
4.101261306532663e+00 -6.2007620384629392e-01  7.6686548032907231e-01 -1.5329845502735357e-02 -1.0153550894251774e-02 -1.5329845502724182e-02 -1.0153550894241695e-02 -4.6349336450433354e-01  8.3153345806328660e-01
4.186683417085428e+00 -5.6447809221008782e-01  8.0859267774633270e-01 -1.7450756209856727e-02 -7.0920142369237304e-03 -1.7450756209888299e-02 -7.0920142368804222e-03 -1.9762911764698118e-01  9.2214788508449830e-01
4.272105527638191e+00 -5.0719798000649285e-01  8.4564415186808051e-01 -2.0235916291633509e-02 -2.9643113256212260e-03 -2.0235916291622646e-02 -2.9643113257124759e-03  1.5634080954251883e-01  9.0889245412954978e-01
4.357527638190955e+00 -4.4858573386121370e-01  8.7806591358486696e-01 -2.3140976412429945e-02  4.5237882527179906e-03 -2.3140976412425612e-02  4.5237882527269842e-03  5.9938533608237388e-01  6.3584417482462052e-01
4.442949748743718e+00 -3.8905436598870941e-01  9.0593059039647184e-01 -1.9940983579862508e-02  1.7909020230780417e-02 -1.9940983579908776e-02  1.7909020230810455e-02  7.6287007311683219e-01 -1.8651995747996045e-01
4.528371859296483e+00 -3.2894539525968836e-01  9.2955505068598165e-01 -3.2207004072936350e-03  2.3159199686364391e-02 -3.2207004073209274e-03  2.3159199686311541e-02 -1.3854568655300623e-01 -7.7049319869469357e-01
4.613793969849247e+00 -2.6822249955986716e-01  9.4903554989974115e-01  5.9334511775609262e-03  1.4387706350283285e-02  5.9334511775723303e-03  1.4387706350267130e-02 -8.2444186237224715e-01 -2.8675831771024618e-01
4.699216080402010e+00 -2.0719586442293869e-01  9.6425938808501199e-01  6.5694434274924680e-03  7.7767173052034474e-03  6.5694434275555746e-03  7.7767173051548188e-03 -9.0048778057653567e-01  2.1100080261049711e-01
4.784638190954774e+00 -1.4619551870267741e-01  9.7535842488396429e-01  5.5255278954669780e-03  4.4364019000561888e-03  5.5255278954843756e-03  4.4364019002669204e-03 -7.9945319937781256e-01  5.1144120155201711e-01
4.870060301507539e+00 -8.5447097738095043e-02  9.8248151742478296e-01  4.4979535670876068e-03  2.7212102453775637e-03  4.4979535673059217e-03  2.7212102456088427e-03 -6.6803990845914951e-01  6.9136298857824630e-01
4.955482412060302e+00 -2.5139563586774157e-02  9.8575793166322401e-01  3.7242875780367840e-03  1.7755682368551580e-03  3.7242875779128918e-03  1.7755682368305462e-03 -5.3946846801970338e-01  8.0423268374679258e-01
5.040904522613066e+00  3.4556429197884514e-02  9.8530423639287357e-01  3.1833206702940701e-03  1.2077993175248216e-03  3.1833206698157488e-03  1.2077993179294858e-03 -4.2023124329666345e-01  8.7732924169445570e-01
5.126326633165829e+00  9.3482573821005999e-02  9.8122820177538317e-01  2.8186060648028714e-03  8.2499301555829228e-04  2.8186060649251932e-03  8.2499301581981626e-04 -3.1065591227198203e-01  9.2490753194406217e-01
5.211748743718593e+00  1.5149006000758078e-01  9.7363304739642464e-01  2.5740648572497322e-03  5.2452790885048240e-04  2.5740648570823292e-03  5.2452790866252207e-04 -2.0976563752144634e-01  9.5494143352491390e-01
5.297170854271357e+00  2.0844236342273595e-01  9.6262314663487047e-01  2.3978330630936170e-03  2.5378598591746727e-04  2.3978330631469094e-03  2.5378598590558408e-04 -1.1647069604637429e-01  9.7221459964016343e-01
5.382592964824121e+00  2.6422709862950361e-01  9.4830540430735921e-01  2.2466845702411018e-03 -4.7747402307750477e-06  2.2466845703341958e-03 -4.7747402364826615e-06 -2.9835723969923664e-02  9.7978803432505979e-01
5.468015075376885e+00  3.1877199121830518e-01  9.3077648590925355e-01  2.0947517644372016e-03 -2.4529799945200993e-04  2.0947517644810537e-03 -2.4529799949076896e-04  5.0896183262599481e-02  9.7973565293567288e-01
5.553437185929649e+00  3.7205059366807164e-01  9.1009529628240982e-01  1.9379083634719798e-03 -4.5507334846724227e-04  1.9379083634554336e-03 -4.5507334847064753e-04  1.2633516519536461e-01  9.7352943180993534e-01
5.638859296482413e+00  4.2407111750795029e-01  8.8625485940314719e-01  1.7869982847524676e-03 -6.2936533873193259e-04  1.7869982847234459e-03 -6.2936533871849238e-04  1.9697675946978183e-01  9.6225093089768610e-01
5.724281407035177e+00  4.7486014918532676e-01  8.5916348693610778e-01  1.6555609919733151e-03 -7.7586209078859181e-04  1.6555609920063615e-03 -7.7586209079791725e-04  2.6322432490319525e-01  9.4671760361516932e-01
5.809703517587939e+00  5.2445482384007036e-01  8.2862594852546823e-01  1.5517260128921724e-03 -9.1053693083429461e-04  1.5517260128710408e-03 -9.1053693082576172e-04  3.2540633906788208e-01  9.2756498525595110e-01
5.895125628140703e+00  5.7290377707493267e-01  7.9430584158632833e-01  1.4766515706644437e-03 -1.0523174727707118e-03  1.4766515706406697e-03 -1.0523174727536783e-03  3.8379205259755428e-01  9.0530166426648884e-01
5.980547738693468e+00  6.2026818848496834e-01  7.5564953133887347e-01  1.4262250911238263e-03 -1.2207608985478036e-03  1.4262250911528010e-03 -1.2207608985717849e-03  4.3860529040145485e-01  8.8034558052806100e-01
6.065969849246232e+00  6.6661013790671575e-01  7.1174171912507989e-01  1.3927761800943636e-03 -1.4371312871169595e-03  1.3927761801016819e-03 -1.4371312871921415e-03  4.9003553794559801e-01  8.5304783173530496e-01
6.151391959798995e+00  7.1194090353737616e-01  6.6102628596036916e-01  1.3650860900920835e-03 -1.7286165208977695e-03  1.3650860900597448e-03 -1.7286165208764037e-03  5.3824624316151537e-01  8.2370851473723772e-01
6.236814070351759e+00  7.5604227910142308e-01  6.0073055004010834e-01  1.3248948009688189e-03 -2.1371095782279480e-03  1.3248948008993007e-03 -2.1371095782012710e-03  5.8338078288789319e-01  7.9258752611440642e-01
6.322236180904524e+00  7.9783594849283912e-01  5.2557232022667966e-01  1.2339597140066222e-03 -2.7380307516280252e-03  1.2339597139861833e-03 -2.7380307516098970e-03  6.2556652757358522e-01  7.5991203474346136e-01
6.407658291457287e+00  8.3287684498978143e-01  4.2460500143071395e-01  9.8623088868825389e-04 -3.6840153467738931e-03  9.8623088868950658e-04 -3.6840153467732582e-03  6.6491696639145081e-01  7.2588154619302980e-01
6.493080402010050e+00  8.4131877761395646e-01  2.7374006427589553e-01  1.9554555862799967e-04 -5.2952087416129109e-03  1.9554555862868052e-04 -5.2952087416123263e-03  7.0153001377859636e-01  6.9067126610732943e-01
6.578502512562814e+00  7.1951754638582710e-01  4.1219535820935349e-02 -2.9024166360110725e-03 -7.8073788439017603e-03 -2.9024166360151525e-03 -7.8073788439022452e-03  7.3547192655912597e-01  6.5444234348231889e-01
6.663924623115578e+00  2.2716465343839262e-01  9.4731109442291475e-02 -1.1383860598352488e-02 -4.6214879368991404e-03 -1.1383860598334765e-02 -4.6214879368954324e-03  7.6679453347885129e-01  6.1745483058221018e-01
6.749346733668342e+00  3.6936678865311479e-01  5.8138713062358705e-01 -8.5858854390286725e-03  4.5360624905017464e-03 -8.5858854390294080e-03  4.5360624905031333e-03  7.9584851135055423e-01  5.7980940202406350e-01
6.834768844221106e+00  6.6689203405517672e-01  5.4847185714557789e-01 -4.4018925218037444e-03  5.6647418263019687e-03 -4.4018925218151563e-03  5.6647418263399071e-03  8.2251505006714531e-01  5.4142496532828732e-01
6.920190954773870e+00  8.2004192701710998e-01  3.4595805210384811e-01 -2.4836626252771133e-03  6.3163255343930474e-03 -2.4836626252441123e-03  6.3163255342693599e-03  8.4681843729730399e-01  5.0254281367200770e-01
7.005613065326634e+00  7.3966666152699811e-01 -1.3192645671280445e-01  8.6925852749178867e-04  9.2252221645064535e-03  8.6925852761208394e-04  9.2252221644331112e-03  8.6883707179282310e-01  4.6328547867390357e-01
7.091035175879398e+00 -2.1891113628781381e-01  4.9476238809760043e-01  9.0193092884978225e-03 -3.3691832177686846e-04  9.0193092885134281e-03 -3.3691832177863083e-04  8.8866758629507980e-01  4.2390255972713253e-01
7.176457286432161e+00  4.7201840931285804e-01  7.7442698000982835e-01  2.1864940342165083e-03 -2.0653598754567576e-03  2.1864940342004543e-03 -2.0653598754458375e-03  9.0652270330314066e-01  3.8424038148169393e-01
7.261879396984924e+00  6.8645088827097644e-01  6.6179241457900639e-01  7.3721936407400261e-04 -1.2000716253509878e-03  7.3721936407811792e-04 -1.2000716253564915e-03  9.2229719701572943e-01  3.4448445529651694e-01
7.347301507537689e+00  7.8126975095686169e-01  5.7030693547482736e-01  2.6538636175042193e-04 -7.5389904819757434e-04  2.6538636174889760e-04 -7.5389904819338129e-04  9.3611028510132266e-01  3.0472697358071349e-01
7.432723618090453e+00  8.3727539890022906e-01  4.9635517370363652e-01  4.8048488962068939e-05 -5.0460283267635467e-04  4.8048488965459476e-05 -5.0460283267824563e-04  9.4803447292710286e-01  2.6503347408053446e-01
7.518145728643217e+00  8.7550696672507933e-01  4.3272642467289812e-01 -7.5739354715285371e-05 -3.4412018560180888e-04 -7.5739354729515023e-05 -3.4412018560518574e-04  9.5813466064609998e-01  2.2546715720110461e-01
7.603567839195980e+00  9.0366131010974371e-01  3.7551905051906637e-01 -1.5584252555314823e-04 -2.2552549320744417e-04 -1.5584252555542210e-04 -2.2552549321228576e-04  9.6647291596678575e-01  1.8608767952820224e-01
7.688989949748745e+00  9.2522725733502964e-01  3.2260100572060801e-01 -2.1042396640013291e-04 -1.2667933328013134e-04 -2.1042396639855336e-04 -1.2667933328349104e-04  9.7310961953295694e-01  1.4695082213612534e-01
7.774412060301509e+00  9.4203145407730859e-01  2.7273488718955780e-01 -2.4624721943010701e-04 -3.6610035608088022e-05 -2.4624721943905341e-04 -3.6610035607787250e-05  9.7810394179844962e-01  1.0810834283976500e-01
7.859834170854271e+00  9.5513515081008027e-01  2.2516196494224103e-01 -2.6531185914445828e-04  4.9892784070437079e-05 -2.6531185914457152e-04  4.9892784074124999e-05  9.8151401329268451e-01  6.9607795397713390e-02
