# GHz S RI R 50

1.000000000000000e-03  1.5015407643909865e-03 -2.0827878919510916e-03  9.9838588909000969e-01 -9.9110569032737524e-03  9.9838588909001158e-01 -9.9110569032759416e-03  1.5014996398064603e-03 -2.0827509594103129e-03
4.360401002506266e-02 -3.5468165313622776e-02 -8.1870525391076004e-02  9.0244492405325638e-01 -4.1283999475770766e-01  9.0244492405325949e-01 -4.1283999475770883e-01 -3.5504085985730155e-02 -8.1850124096810029e-02
8.620802005012532e-02 -1.1703186500550317e-01 -1.0784270227383851e-01  6.5417643092300559e-01 -7.3134478365197075e-01  6.5417643092300792e-01 -7.3134478365197320e-01 -1.1712208094908676e-01 -1.0772585562093324e-01
1.288120300751880e-01 -1.8727340023868963e-01 -6.5952248077847303e-02  3.1054669836321419e-01 -9.2102746685404013e-01  3.1054669836321785e-01 -9.2102746685405124e-01 -1.8734964855826872e-01 -6.5667691112543961e-02
1.714160401002506e-01 -2.0081015463044077e-01  1.2424420994704078e-02 -7.4122314575565798e-02 -9.6669761720042535e-01 -7.4122314575565909e-02 -9.6669761720042535e-01 -2.0074922550648419e-01  1.2876290994807188e-02
2.140200501253133e-01 -1.4863858946261438e-01  7.4121694864575649e-02 -4.5204177635778225e-01 -8.6313868364713231e-01 -4.5204177635777820e-01 -8.6313868364712487e-01 -1.4832848059335857e-01  7.4644011770390456e-02
2.566240601503759e-01 -6.3370717886142236e-02  7.3820834936094468e-02 -7.6785891814638596e-01 -6.1196583703424601e-01 -7.6785891814639073e-01 -6.1196583703425123e-01 -6.2777296550614411e-02  7.4247132100528981e-02
2.992280701754386e-01 -4.8148777935244401e-03  4.6309359608791003e-03 -9.5505154665915948e-01 -2.4165822848784724e-01 -9.5505154665915615e-01 -2.4165822848784752e-01 -4.0106542813145027e-03  4.7951518628878090e-03
3.418320802005013e-01 -1.9325618008221909e-02 -8.8351272216691590e-02 -9.6368288054829931e-01  1.7652552405793029e-01 -9.6368288054827023e-01  1.7652552405792421e-01 -1.8449555263169722e-02 -8.8549902103322434e-02
3.844360902255639e-01 -9.9096820359580298e-02 -1.3887177595940714e-01 -7.9491306207901435e-01  5.5207644349103524e-01 -7.9491306207899759e-01  5.5207644349108154e-01 -9.8283695903523580e-02 -1.3948039793723488e-01
4.270401002506266e-01 -1.8816780803664140e-01 -1.1268665552524285e-01 -4.9480749122524459e-01  8.1882104171566183e-01 -4.9480749122518480e-01  8.1882104171557224e-01 -1.8755022813253014e-01 -1.1377699878489919e-01
4.696441102756893e-01 -2.2630635336342733e-01 -2.9002518666084023e-02 -1.1858787787949497e-01  9.4570799489617963e-01 -1.1858787787949357e-01  9.4570799489616397e-01 -2.2613050812505284e-01 -3.0702021662748030e-02
5.122481203007518e-01 -1.8617399621559369e-01  5.5744293741664189e-02  2.8450606766579911e-01  9.1549836060297241e-01  2.8450606766580328e-01  9.1549836060298606e-01 -1.8695175387195684e-01  5.3382530737625750e-02
5.548521303258145e-01 -9.0982784683502391e-02  7.9483418173760464e-02  6.5466787685521832e-01  7.1387771187094473e-01  6.5466787685516414e-01  7.1387771187087568e-01 -9.3500903512636013e-02  7.6811052314251116e-02
5.974561403508772e-01 -9.7260927283966854e-03  1.7135376718965065e-02  9.0742206080328369e-01  3.5392499555576556e-01  9.0742206080332100e-01  3.5392499555578438e-01 -1.4668224933614587e-02  1.5270695481138541e-02
6.400601503759399e-01 -9.5463408002535964e-03 -8.6251051952628485e-02  9.6458423428563522e-01 -9.0798271728171551e-02  9.6458423428564855e-01 -9.0798271728163502e-02 -1.6747148906305555e-02 -8.5507873648431876e-02
6.826641604010025e-01 -8.9842767687016503e-02 -1.4595195162179650e-01  8.1036838777964249e-01 -5.0779388026678451e-01  8.1036838777966103e-01 -5.0779388026677397e-01 -9.7786601759438221e-02 -1.4089783113136983e-01
7.252681704260653e-01 -1.8031401298776278e-01 -1.1585284298678669e-01  4.9185614582206827e-01 -8.0830962586020494e-01  4.9185614582203674e-01 -8.0830962586023691e-01 -1.8635546024072114e-01 -1.0582196584159194e-01
7.678721804511278e-01 -2.0395419686001487e-01 -2.5116036337262133e-02  7.1391278684661538e-02 -9.4330720830802706e-01  7.1391278684647133e-02 -9.4330720830799175e-01 -2.0498629684131570e-01 -1.1129039108127858e-02
8.104761904761905e-01 -1.3649136580477705e-01  4.5069044276891415e-02 -3.8473284017686243e-01 -8.7348633095428185e-01 -3.8473284017678494e-01 -8.7348633095455508e-01 -1.3000268417794980e-01  5.9850810534394949e-02
8.530802005012532e-01 -3.6345632417743336e-02  2.1438897784675393e-02 -7.7147474502736291e-01 -5.7347983226203469e-01 -7.7147474502750268e-01 -5.7347983226209753e-01 -2.2240488606827969e-02  3.2033825382909095e-02
8.956842105263159e-01 -8.2886519037030353e-03 -7.8722377333486498e-02 -9.5144024798878435e-01 -9.7270133818549417e-02 -9.5144024798840365e-01 -9.7270133818569277e-02  9.6735651844900173e-03 -7.6711870130371382e-02
9.382882205513785e-01 -8.2920635566852322e-02 -1.4351378440102580e-01 -8.5090541757828098e-01  4.0630353662745006e-01 -8.5090541757830207e-01  4.0630353662745844e-01 -6.7140929220506379e-02 -1.5075233053445949e-01
9.808922305764411e-01 -1.6635058569875372e-01 -9.7128902982482196e-02 -5.0151804571066028e-01  7.8860681323924320e-01 -5.0151804571060232e-01  7.8860681323922155e-01 -1.5757628875786556e-01 -1.1024976684647196e-01
1.023496240601504e+00 -1.4609193609790647e-01  4.1609709766897819e-03  2.0880071975925774e-02  9.3786817894041641e-01  2.0880071975929101e-02  9.3786817894040797e-01 -1.4594204935123978e-01 -9.4085549186697284e-03
1.066100250626566e+00 -3.3100200363138349e-02  2.1421795928335471e-02  5.7780429484073592e-01  7.4524315086199600e-01  5.7780429484074713e-01  7.4524315086191584e-01 -3.9217236745700164e-02  1.2675555168307115e-02
1.108704260651629e+00  1.4140706243400180e-02 -7.2216306982621048e-02  9.1221482634019435e-01  2.0823323135234062e-01  9.1221482634022988e-01  2.0823323135232930e-01  7.5052079210071185e-03 -7.4340088414082947e-02
1.151308270676692e+00 -5.2626767219094789e-02 -1.0127301985717974e-01  8.0468821161218573e-01 -4.5489765766102441e-01  8.0468821161218429e-01 -4.5489765766101897e-01 -5.4735827324946695e-02 -1.0092676234122661e-01
1.193912280701754e+00 -4.4580469335979818e-02 -1.6957971008584677e-02  2.0325392047747229e-01 -8.9464260785364869e-01  2.0325392047752525e-01 -8.9464260785373750e-01 -4.4364870667901742e-02 -2.2983644166421513e-02
1.236516290726817e+00  1.0096043934556429e-02  2.0678465366555356e-02 -6.2887640582729365e-01 -6.3793391879158101e-01 -6.2887640582725901e-01 -6.3793391879168437e-01 -5.8711444376366379e-03  7.3808219755916232e-03
1.279120300751880e+00  3.4120117587744969e-01  2.9459451330409914e-01 -5.9715442342089731e-01  4.0594173230768854e-01 -5.9715442342084557e-01  4.0594173230763259e-01  3.0912498763542257e-01  3.2036954490862446e-01
1.321724310776942e+00  7.7229790229411199e-01 -4.2027198882341876e-01  8.5074865815695247e-02  2.4126932411089833e-01  8.5074865815684214e-02  2.4126932411082888e-01  7.8502855648710868e-01 -3.9112377142812449e-01
1.364328320802005e+00  4.1270454185372379e-01 -8.5618158105365139e-01  6.7857309161824350e-02  4.3585127348163714e-02  6.7857309161784451e-02  4.3585127348139817e-02  4.3060683091596968e-01 -8.4633755653774079e-01
1.406932330827068e+00  7.7402978918711909e-02 -9.6449681793535080e-01  2.9588296349736844e-02  5.4207174352446513e-03  2.9588296349711957e-02  5.4207174352634410e-03  9.2078491273184848e-02 -9.6276729088311674e-01
1.449536340852130e+00 -1.7422470247569960e-01 -9.5920972833299689e-01  1.2622808527919232e-02 -1.1751833747971924e-03  1.2622808527969730e-02 -1.1751833747622750e-03 -1.6270666581980145e-01 -9.6097330780877299e-01
1.492140350877193e+00 -3.6334468397953429e-01 -9.0905987022214874e-01  5.4942968762892773e-03 -1.7284886516535766e-03  5.4942968762683479e-03 -1.7284886516465386e-03 -3.5425395795152725e-01 -9.1246649545446068e-01
1.534744360902256e+00 -5.0798475085418016e-01 -8.3991207251878786e-01  2.4026776264204400e-03 -1.2435508494957124e-03  2.4026776264092047e-03 -1.2435508494619640e-03 -5.0073189823677255e-01 -8.4412604758573229e-01
1.577348370927318e+00 -6.2031451252294167e-01 -7.6302881701664804e-01  1.0130896880182771e-03 -7.2258054400407455e-04  1.0130896879861572e-03 -7.2258054396516784e-04 -6.1447860338746274e-01 -7.6763245743249675e-01
1.619952380952381e+00 -7.0851249635197322e-01 -6.8377009208062967e-01  3.7603522098406816e-04 -3.2815858720244156e-04  3.7603522093304431e-04 -3.2815858721340735e-04 -7.0379386829119750e-01 -6.8853843064445364e-01
1.662556390977444e+00 -7.7821152529843662e-01 -6.0481885540673996e-01  8.8767197167516335e-05 -5.1352758196319495e-05  8.8767197222708189e-05 -5.1352758245707154e-05 -7.7439239341747546e-01 -6.0962418936446749e-01
1.705160401002506e+00 -8.3340133958394791e-01 -5.2754482636064370e-01 -2.7026636586814534e-05  1.4084681987884846e-04 -2.7026636589176590e-05  1.4084681987251057e-04 -8.3031947491028668e-01 -5.3231218865535279e-01
1.747764411027569e+00 -8.7698333506831005e-01 -4.5263742463168927e-01 -5.3154269370663524e-05  2.7537111573032398e-04 -5.3154269305396830e-05  2.7537111577433999e-04 -8.7451504397917124e-01 -4.5732210233694526e-01
1.790368421052632e+00 -9.1111803828441351e-01 -3.8042050069646799e-01 -2.8189107609229748e-05  3.6948857869161455e-04 -2.8189107610397952e-05  3.6948857870639667e-04 -9.0916704977170237e-01 -3.8499592078627171e-01
1.832972431077694e+00 -9.3744871134891539e-01 -3.1101728273999357e-01  2.9092881922731897e-05  4.3244232473562528e-04  2.9092881935524229e-05  4.3244232473258848e-04 -9.3593875954413597e-01 -3.1546812242067940e-01
1.875576441102757e+00 -9.5724939623146443e-01 -2.4444030975147291e-01  1.0860486976944797e-04  4.6751076108848485e-04  1.0860486976761961e-04  4.6751076109382352e-04 -9.5611914200339954e-01 -2.4875839769263131e-01
1.918180451127820e+00 -9.7152571769984009e-01 -1.8064168965239599e-01  2.0302583839032108e-04  4.7383837158287691e-04  2.0302583839036087e-04  4.7383837158698338e-04 -9.7072518085952930e-01 -1.8482347570014268e-01
1.960784461152882e+00 -9.8108524627586446e-01 -1.1954112011299305e-01  3.0419741837837554e-04  4.4846637006333155e-04  3.0419741837869223e-04  4.4846637006330369e-04 -9.8057323617955905e-01 -1.2358607026355170e-01
2.003388471177945e+00 -9.8658721403154948e-01 -6.1040634848469222e-02  4.0113831863244486e-04  3.8913211723980292e-04  4.0113831863317984e-04  3.8913211723878865e-04 -9.8632943971170872e-01 -6.4950203550766986e-02
2.045992481203008e+00 -9.8857694849983668e-01 -5.0313934686127383e-03  4.8027043909788878e-04  2.9776652870297548e-04  4.8027043909804003e-04  2.9776652870281475e-04 -9.8854461363681601e-01 -8.8083573559564372e-03
2.088596491228071e+00 -9.8750826000745551e-01  4.8603011287726858e-02  5.2857436235649504e-04  1.8318834749776172e-04  5.2857436235621337e-04  1.8318834749801377e-04 -9.8767701944461050e-01  4.4954981588065303e-02
2.131200501253133e+00 -9.8375751258991206e-01  9.9982530197646663e-02  5.3860909242296111e-04  6.0522693342853306e-05  5.3860909242704194e-04  6.0522693340827379e-05 -9.8410670400344369e-01  9.6459165628333787e-02
2.173804511278195e+00 -9.7763467047589625e-01  1.4922409024072128e-01  5.1193161213275646e-04 -5.3467463073324222e-05  5.1193161213291475e-04 -5.3467463072628909e-05 -9.7814673897289917e-01  1.4582075630409516e-01
2.216408521303258e+00 -9.6939552250679928e-01  1.9643474206301340e-01  4.5797883867909167e-04 -1.4627978499051779e-04  4.5797883867882138e-04 -1.4627978499216730e-04 -9.7005556109063640e-01  1.9314663945586896e-01
2.259012531328321e+00 -9.5925498438910772e-01  2.4170822322172753e-01  3.8938924004480242e-04 -2.1273920435220059e-04  3.8938924004601277e-04 -2.1273920434792433e-04 -9.6005033812148044e-01  2.3853055735345119e-01
2.301616541353384e+00 -9.4739848621316758e-01  2.8512582968896449e-01  3.1737325830007043e-04 -2.5411159215428758e-04  3.1737325829961349e-04 -2.5411159215491653e-04 -9.4831840344697127e-01  2.8205393359058956e-01
2.344220551378446e+00 -9.3398955609730039e-01  3.2675947796180499e-01  2.4947009839425028e-04 -2.7523018598998395e-04  2.4947009839549619e-04 -2.7523018598427025e-04 -9.3502488906990977e-01  3.2378888792797844e-01
2.386824561403509e+00 -9.1917409670688732e-01  3.6667463842829029e-01  1.8952871938126574e-04 -2.8185786783595056e-04  1.8952871939028774e-04 -2.8185786780973390e-04 -9.2031705299305711e-01  3.6380113513597506e-01
2.429428571428571e+00 -9.0308281360477694e-01  4.0493220564366994e-01  1.3870454353730831e-04 -2.7916200567335269e-04  1.3870454344592505e-04 -2.7916200566607986e-04 -9.0432675352390990e-01  4.0215183482894640e-01
2.472032581453635e+00 -8.8583290757396849e-01  4.4158942050998334e-01  9.6546649387636350e-05 -2.7115325968014728e-04  9.6546649450254460e-05 -2.7115325958926545e-04 -8.8717217961259442e-01  4.3889850194760582e-01
2.514636591478697e+00 -8.6752953866972282e-01  4.7670025100597602e-01  6.1807519577089902e-05 -2.6066253229698112e-04  6.1807519674150446e-05 -2.6066253225485368e-04 -8.6895934369723282e-01  4.7409538311168653e-01
2.557240601503759e+00 -8.4826719973082743e-01  5.1031554834606296e-01  3.2943948010375624e-05 -2.4952736766657463e-04  3.2943947946976611e-05 -2.4952736771120511e-04 -8.4978347809840427e-01  5.0779360886973801e-01
2.599844611528822e+00 -8.2813099911834553e-01  5.4248314490552008e-01  8.3913223372167156e-06 -2.3881484284585689e-04  8.3913223316742486e-06 -2.3881484286205102e-04 -8.2973033452462741e-01  5.4004129092246722e-01
2.642448621553885e+00 -8.0719782846446608e-01  5.7324795870317857e-01 -1.3299963886428263e-05 -2.2901256727876577e-04 -1.3299963824754726e-05 -2.2901256724277419e-04 -8.0887736572104108e-01  5.7088362482455968e-01
2.685052631578948e+00 -7.8553740272402284e-01  6.0265211939013519e-01 -3.3401605152347193e-05 -2.2017186219627804e-04 -3.3401605143368162e-05 -2.2017186214384155e-04 -7.8729477604769016e-01  6.0036301559299310e-01
2.727656641604010e+00 -7.6321317461086424e-01  6.3073511211505484e-01 -5.2977681122969323e-05 -2.1200790000464549e-04 -5.2977681119134934e-05 -2.1200790000075782e-04 -7.6504644503416352e-01  6.2851922040777430e-01
2.770260651629073e+00 -7.4028313516039113e-01  6.5753393204203692e-01 -7.2864252870172608e-05 -2.0396769776603771e-04 -7.2864252883161405e-05 -2.0396769778143920e-04 -7.4219073505319066e-01  6.5538950274059715e-01
2.812864661654135e+00 -7.1680051697082992e-01  6.8308324442980450e-01 -9.3644370922407277e-05 -1.9527837186286926e-04 -9.3644370933158904e-05 -1.9527837187413853e-04 -7.1878120056981898e-01  6.8100879190127583e-01
2.855468671679198e+00 -6.9281441751911932e-01  7.0741555004972345e-01 -1.1561032370467277e-04 -1.8498857765696477e-04 -1.1561032370861398e-04 -1.8498857766127320e-04 -6.9486721631834814e-01  7.0540984807144902e-01
2.898072681704261e+00 -6.6837035785300658e-01  7.3056136157592755e-01 -1.3870923797490388e-04 -1.7201769633008046e-04 -1.3870923797682397e-04 -1.7201769633238406e-04 -6.7049454030309708e-01  7.2862343799060303e-01
2.940676691729323e+00 -6.4351078617097446e-01  7.5254940306425810e-01 -1.6247386308875666e-04 -1.5523049026249148e-04 -1.6247386307878206e-04 -1.5523049025483197e-04 -6.4570582051192404e-01  7.5067853410764041e-01
2.983280701754386e+00 -6.1827552502517202e-01  7.7340684983206753e-01 -1.8595036546517442e-04 -1.3355801264841580e-04 -1.8595036546325432e-04 -1.3355801264650386e-04 -6.2054104482922468e-01  7.7160255377874132e-01
3.025884711779449e+00 -5.9270214317693093e-01  7.9315962618247315e-01 -2.0765122565970199e-04 -1.0618401408315416e-04 -2.0765122565217589e-04 -1.0618401407805809e-04 -5.9503791549515905e-01  7.9142165586692392e-01
3.068488721804511e+00 -5.6682620984056287e-01  8.1183276558803463e-01 -2.2558282989421186e-04 -7.2801982946301579e-05 -2.2558282992986211e-04 -7.2801982969198642e-05 -5.6923210502724886e-01  8.1016110020282905e-01
3.111092731829574e+00 -5.4068137102178737e-01  8.2945080192892817e-01 -2.3741499241096726e-04 -3.3912085539293459e-05 -2.3741499243196159e-04 -3.3912085551019600e-05 -5.4315733530320964e-01  8.2784563730795901e-01
3.153696741854637e+00 -5.1429919703800953e-01  8.4603810080991215e-01 -2.4084798184169630e-04  8.9334828447943756e-06 -2.4084798183390333e-04  8.9334828491828939e-06 -5.1684522690558654e-01  8.4449983938477202e-01
3.196300751879699e+00 -4.8770881897280083e-01  8.6161898063701847e-01 -2.3416468718156420e-04  5.3086632147403474e-05 -2.3416468718391543e-04  5.3086632148235768e-05 -4.9032493753294548e-01  8.6014822175192385e-01
3.238904761904762e+00 -4.6093649961385491e-01  8.7621747766380720e-01 -2.1682552512456097e-04  9.5107652747485440e-05 -2.1682552512474658e-04  9.5107652747452508e-05 -4.6362273335052406e-01  8.7481500980725324e-01
3.281508771929825e+00 -4.3400540324921361e-01  8.8985673678849764e-01 -1.8984569315794560e-04  1.3143616058096939e-04 -1.8984569318889282e-04  1.3143616058206405e-04 -4.3676175524834665e-01  8.8852353332221401e-01
3.324112781954887e+00 -4.0693580854587036e-01  9.0255823076252562e-01 -1.5571267198181092e-04  1.5922736212044893e-04 -1.5571267200668350e-04  1.5922736204443370e-04 -4.0976222370736387e-01  9.0129544867475897e-01
3.366716791979950e+00 -3.7974579471953496e-01  9.1434116132666887e-01 -1.1781432774027068e-04  1.7700149703211307e-04 -1.1781432769014819e-04  1.7700149718205007e-04 -3.8264210768661905e-01  9.1315014212673606e-01
3.409320802005013e+00 -3.5245215565355009e-01  9.2522231907328301e-01 -7.9620941979924632e-05  1.8483061935220646e-04 -7.9620942010071103e-05  1.8483061934878648e-04 -3.5541801166813608e-01  9.2410458809805418e-01
3.451924812030075e+00 -3.2507117969945354e-01  9.3521641677348744e-01 -4.3975423723712298e-05  1.8404836663209122e-04 -4.3975423703807145e-05  1.8404836663441781e-04 -3.2810590446833138e-01  9.3417367855540268e-01
3.494528822055138e+00 -2.9761903488314040e-01  9.4433667753007466e-01 -1.2722992019278939e-05  1.7670039136403058e-04 -1.2722992033181579e-05  1.7670039135765804e-04 -3.0072140100087130e-01  9.4337080294087550e-01
3.537132832080201e+00 -2.7011159376478655e-01  9.5259537444187892e-01  1.3308920350236664e-05  1.6500841850165647e-04  1.3308920369050983e-05  1.6500841850706957e-04 -2.7327928787233141e-01  9.5170836021115623e-01
3.579736842105263e+00 -2.4256298130642584e-01  9.6000255590161132e-01  3.4226768508075937e-05  1.5087344296891718e-04  3.4226768511763905e-05  1.5087344296849036e-04 -2.4579070770434544e-01  9.5919482852833138e-01
3.622340852130326e+00 -2.1499953194796018e-01  9.6656929849541118e-01  5.0216984003775300e-05  1.3590905982774996e-04  5.0216983999344830e-05  1.3590905982763105e-04 -2.1828392969350977e-01  9.6584330470190838e-01
3.664944862155389e+00 -1.8741526667062489e-01  9.7231262488220405e-01  6.2471974503282450e-05  1.2139042671875586e-04  6.2471974504711754e-05  1.2139042671880633e-04 -1.9073588579163134e-01  9.7166654215562320e-01
3.707548872180451e+00 -1.5981182914122569e-01  9.7721944400860250e-01  7.1794282857298738e-05  1.0854443099493708e-04  7.1794282852620650e-05  1.0854443099404272e-04 -1.6311224364617108e-01  9.7662786217568065e-01
3.750152882205514e+00 -1.3239222384133900e-01  9.8108843871250861e-01  8.7424150058888677e-05  8.9345677317180186e-05  8.7424150074173353e-05  8.9345677319647735e-05 -1.3560824983375569e-01  9.7998972261097417e-01
3.792756892230577e+00 -1.0497335310087297e-01  9.8465776457612098e-01  8.4088908314492521e-05  8.2068822357563340e-05  8.4088908330346606e-05  8.2068822359162959e-05 -1.0889727676674553e-01  9.8414456217241675e-01
3.835360902255639e+00 -7.7499335175795853e-02  9.8722936701368957e-01  8.9704200290789468e-05  7.1824076943472422e-05  8.9704200265777235e-05  7.1824076941286400e-05 -8.1380613147610470e-02  9.8691647132312588e-01
3.877964912280702e+00 -5.0112501440955325e-02  9.8900699218123511e-01  9.4596904008499650e-05  6.2074527913302729e-05  9.4596904018620813e-05  6.2074527913569198e-05 -5.4022227707285320e-02  9.8881678239189486e-01
3.920568922305764e+00 -2.2811177042250573e-02  9.9001566430159449e-01  9.9504014457275453e-05  5.2620539865636720e-05  9.9504014460171343e-05  5.2620539865669660e-05 -2.6771205856774012e-02  9.8993811299833956e-01
