#  HZ   S   DB   R     50.00 
! Rohde & Schwarz ZVA67 4Ports - Version 4.11 - 1305.7002k04 SN: 101038
! Date: 2024-04-08 01:25:01
! Measurements: S11 S21 S12 S22 
! 
 8.000000000000000E9    -3.746956663967907  -1.062698470332419E2  -1.197926667067982E1   0.000000000000000  -9.990000000000000E2   0.000000000000000  -8.192087765328767  -1.713538149914141E2  
 8.050000000000000E9    -3.640071073856698  -1.266813869791680E2  -1.203001339518782E1   0.000000000000000  -9.990000000000000E2   0.000000000000000  -8.244412766355056  -1.709570615195142E2  
 8.100000000000000E9    -3.635050523004819  -1.499939766600194E2  -1.246178768954085E1   0.000000000000000  -9.990000000000000E2   0.000000000000000  -8.503823431503889  -1.697937324540236E2  
 8.150000000000000E9    -3.967463515074424  -1.794212274734751E2  -1.228034929190153E1   0.000000000000000  -9.990000000000000E2   0.000000000000000  -7.807605022504762  -1.715349401718925E2  
 8.200000000000000E9    -4.713105486176350   1.454711885593268E2  -1.196962798014591E1   0.000000000000000  -9.990000000000000E2   0.000000000000000  -8.008764587777177  -1.753114275295752E2  
 8.250000000000000E9    -6.002374160913999   1.005257677925459E2  -1.166214240088368E1   0.000000000000000  -9.990000000000000E2   0.000000000000000  -7.546887607822545  -1.787720650520725E2  
 8.300000000000000E9    -6.174526811773429   4.877960479096871E1  -1.195201502576175E1   0.000000000000000  -9.990000000000000E2   0.000000000000000  -7.578752139203486  -1.760896082075139E2  
 8.350000000000000E9    -4.968928173092986   1.413235564828994  -1.376769087720459E1   0.000000000000000  -9.990000000000000E2   0.000000000000000  -7.471940426767984  -1.763285515589941E2  
 8.400000000000000E9    -3.856037874506000  -3.812715567174354E1  -1.496623978138981E1   0.000000000000000  -9.990000000000000E2   0.000000000000000  -6.765630646573589  -1.725756774601932E2  
 8.450000000000000E9    -3.148677117737719  -6.783290949602358E1  -1.668871557439458E1   0.000000000000000  -9.990000000000000E2   0.000000000000000  -5.104363775104997  -1.677233184645079E2  
 8.500000000000000E9    -2.631980251042186  -9.213324775121107E1  -1.683501535402791E1   0.000000000000000  -9.990000000000000E2   0.000000000000000  -6.026166585779604  -1.705380614969755E2  
 8.550000000000000E9    -2.418940770397360  -1.147274892172628E2  -1.592809445366474E1   0.000000000000000  -9.990000000000000E2   0.000000000000000  -7.577353350311319  -1.751742976915872E2  
 8.600000000000000E9    -2.285746430300234  -1.357739564033399E2  -1.550472457471107E1   0.000000000000000  -9.990000000000000E2   0.000000000000000  -8.133803123874246  -1.756706505607893E2  
 8.650000000000000E9    -2.478486213026355  -1.568672555769890E2  -1.440184215219685E1   0.000000000000000  -9.990000000000000E2   0.000000000000000  -8.891181856817015  -1.776420312702277E2  
 8.700000000000000E9    -2.854964301481304   1.787743032064733E2  -1.314083182635500E1   0.000000000000000  -9.990000000000000E2   0.000000000000000  -1.022086102843824E1   1.758183961888123E2  
 8.750000000000000E9    -3.560315272147196   1.482053868754906E2  -1.246243421987478E1   0.000000000000000  -9.990000000000000E2   0.000000000000000  -1.001872788591281E1   1.795523048902769E2  
 8.800000000000000E9    -4.785112590567368   1.080572090089629E2  -1.259619635146874E1   0.000000000000000  -9.990000000000000E2   0.000000000000000  -8.369073421770496  -1.735830565299889E2  
 8.850000000000000E9    -5.718909215504264   5.445896116373988E1  -1.337296164852226E1   0.000000000000000  -9.990000000000000E2   0.000000000000000  -6.954074881156237  -1.686592325744487E2  
 8.900000000000000E9    -5.329873903343842  -1.960194942394788  -1.579699579062503E1   0.000000000000000  -9.990000000000000E2   0.000000000000000  -4.661972602718906  -1.651518792296778E2  
 8.950000000000000E9    -4.226603349296652  -4.611361511125761E1  -1.983971306641550E1   0.000000000000000  -9.990000000000000E2   0.000000000000000  -2.794295432894167  -1.613878408445640E2  
 9.000000000000000E9    -2.892038523065055  -7.676892913509217E1  -4.148777298454934E1   0.000000000000000  -9.990000000000000E2   0.000000000000000  -5.847979846028760E-1  -1.609052279139230E2  
 9.050000000000000E9    -2.256413453230816  -1.014158924707762E2  -6.386121070920530E1   0.000000000000000  -9.990000000000000E2   0.000000000000000  -4.292701443284561E-1  -1.607349189295107E2  
 9.100000000000000E9    -1.837168144760755  -1.228522386423338E2  -7.068982452717606E1   0.000000000000000  -9.990000000000000E2   0.000000000000000  -3.980486294588441E-1  -1.602843011624784E2  
 9.150000000000000E9    -1.460285313036981  -1.418297160627313E2  -6.328597360022825E1   0.000000000000000  -9.990000000000000E2   0.000000000000000  -4.253742663828281E-1  -1.609319910564361E2  
 9.200000000000000E9    -1.387942064263952  -1.603230097539023E2  -6.230437890157718E1   0.000000000000000  -9.990000000000000E2   0.000000000000000  -5.107137624254704E-1  -1.607499399668946E2  
 9.250000000000000E9    -1.837639128004292   1.784610733182219E2  -2.217884655328217E1   0.000000000000000  -9.990000000000000E2   0.000000000000000  -2.471787140299367  -1.605873735680519E2  
 9.300000000000000E9    -2.506366415081222   1.534253470373436E2  -2.086905349867440E1   0.000000000000000  -9.990000000000000E2   0.000000000000000  -2.586090045810789  -1.609952870317020E2  
 9.350000000000000E9    -3.607294284920921   1.196672538517465E2  -2.342869950952287E1   0.000000000000000  -9.990000000000000E2   0.000000000000000  -1.523850693071403  -1.606891952583772E2  
 9.400000000000000E9    -6.505013035888998   6.485364105215376E1  -2.607268075225285E1   0.000000000000000  -9.990000000000000E2   0.000000000000000  -1.071548292429003  -1.611016520079656E2  
 9.450000000000000E9    -8.928005322063228  -1.840030782111688E1  -2.571719763621685E1   0.000000000000000  -9.990000000000000E2   0.000000000000000  -1.348566774993812  -1.610096815231469E2  
 9.500000000000000E9    -6.597888206117283  -8.344504049159929E1  -2.486546380481584E1   0.000000000000000  -9.990000000000000E2   0.000000000000000  -1.803859293056517  -1.612764824741994E2  
 9.550000000000000E9    -4.766742006407192  -1.176736379401886E2  -2.259430338039098E1   0.000000000000000  -9.990000000000000E2   0.000000000000000  -2.656710927578918  -1.627888704188037E2  
 9.600000000000000E9    -3.757815080384523  -1.395251885895237E2  -2.000954128349403E1   0.000000000000000  -9.990000000000000E2   0.000000000000000  -4.710716744171433  -1.625878309333001E2  
 9.650000000000000E9    -3.114809102100910  -1.559486344688189E2  -1.897410268707710E1   0.000000000000000  -9.990000000000000E2   0.000000000000000  -6.359466564349090  -1.630765759909079E2  
 9.700000000000000E9    -2.465992169667718  -1.698355191860914E2  -2.031679998545910E1   0.000000000000000  -9.990000000000000E2   0.000000000000000  -5.859728703931356  -1.617716259483291E2  
 9.750000000000000E9    -2.149317548987170   1.767539200997773E2  -2.060506106636572E1   0.000000000000000  -9.990000000000000E2   0.000000000000000  -5.159270053714598  -1.646613154489303E2  
 9.800000000000000E9    -2.057199457774766   1.641131471799061E2  -2.185211622527822E1   0.000000000000000  -9.990000000000000E2   0.000000000000000  -3.733194628304801  -1.636816144852600E2  
 9.850000000000000E9    -1.900609622626565   1.497717416082299E2  -2.466889946211520E1   0.000000000000000  -9.990000000000000E2   0.000000000000000  -2.224375155416515  -1.613480460153984E2  
 9.900000000000000E9    -3.330107487283756   1.286973089682394E2  -2.404170914896308E1   0.000000000000000  -9.990000000000000E2   0.000000000000000  -1.467601374312352  -1.613663903287725E2  
 9.950000000000000E9    -9.194349791034018   1.283575447417279E2  -2.264104779189692E1   0.000000000000000  -9.990000000000000E2   0.000000000000000  -1.712504425237213  -1.614754046578758E2  
 1.000000000000000E10   -7.742083747144965   1.587041173138684E2  -2.202613834074280E1   0.000000000000000  -9.990000000000000E2   0.000000000000000  -2.904241179339051  -1.641688912137701E2  
 1.005000000000000E10   -5.540728819690932   1.565112589364773E2  -2.215737203547681E1   0.000000000000000  -9.990000000000000E2   0.000000000000000  -4.096956545321050  -1.700301424833181E2  
 1.010000000000000E10   -4.766528284711901   1.495165890690313E2  -2.301385194326218E1   0.000000000000000  -9.990000000000000E2   0.000000000000000  -5.200573862931634  -1.703817557318036E2  
 1.015000000000000E10   -4.489598269442044   1.417487859329972E2  -2.316184557895846E1   0.000000000000000  -9.990000000000000E2   0.000000000000000  -6.236879381980518  -1.687386442100600E2  
 1.020000000000000E10   -4.414894692335654   1.350595170988776E2  -2.363322911751813E1   0.000000000000000  -9.990000000000000E2   0.000000000000000  -6.444433348665693  -1.642216541670376E2  
 1.025000000000000E10   -4.513352788139134   1.293361232722693E2  -2.192350421576140E1   0.000000000000000  -9.990000000000000E2   0.000000000000000  -6.921249960605420  -1.623643765241492E2  
 1.030000000000000E10   -4.872221532317549   1.253857956801797E2  -1.920919781346660E1   0.000000000000000  -9.990000000000000E2   0.000000000000000  -7.395876002170022  -1.596491416175470E2  
 1.035000000000000E10   -4.804903087703083   1.250907778492375E2  -1.594362435305625E1   0.000000000000000  -9.990000000000000E2   0.000000000000000  -6.866981846412208  -1.567973012250637E2  
 1.040000000000000E10   -3.486801649452135   1.215546975213223E2  -1.374926365325836E1   0.000000000000000  -9.990000000000000E2   0.000000000000000  -6.291967598734700  -1.637487441703985E2  
 1.045000000000000E10   -2.816880680183730   1.093455774760623E2  -1.423684844608715E1   0.000000000000000  -9.990000000000000E2   0.000000000000000  -5.736907256255631  -1.771740159343642E2  
 1.050000000000000E10   -2.905901880683506   9.726502357464865E1  -1.575400825497683E1   0.000000000000000  -9.990000000000000E2   0.000000000000000  -5.125816194552689   1.788735502313015E2  
 1.055000000000000E10   -3.226797500987720   8.673250418272806E1  -1.642071745510351E1   0.000000000000000  -9.990000000000000E2   0.000000000000000  -5.556967067499755  -1.749561248414801E2  
 1.060000000000000E10   -3.817425872801348   7.639175209301762E1  -1.566394202468038E1   0.000000000000000  -9.990000000000000E2   0.000000000000000  -7.081390173741763  -1.688774276756163E2  
 1.065000000000000E10   -4.761035189215115   6.443622170465622E1  -1.453315725414389E1   0.000000000000000  -9.990000000000000E2   0.000000000000000  -8.414096052523192  -1.664190179379146E2  
 1.070000000000000E10   -6.257276099519706   5.142164120701724E1  -1.287703855089939E1   0.000000000000000  -9.990000000000000E2   0.000000000000000  -9.763917039559299  -1.667507527416441E2  
 1.075000000000000E10   -9.233991836438250   3.822843690258900E1  -1.142810300243507E1   0.000000000000000  -9.990000000000000E2   0.000000000000000  -9.730733775519912  -1.635055734425465E2  
 1.080000000000000E10   -1.664749692162385E1   4.458563641525250E1  -9.673376561949999   0.000000000000000  -9.990000000000000E2   0.000000000000000  -9.886445323101698  -1.646732835670784E2  
 1.085000000000000E10   -1.457236973611189E1   1.185463797582020E2  -9.103198274995203   0.000000000000000  -9.990000000000000E2   0.000000000000000  -8.201756161843417  -1.691045901220494E2  
 1.090000000000000E10   -8.010923425957811   1.123653825372091E2  -9.570947002048746   0.000000000000000  -9.990000000000000E2   0.000000000000000  -6.732865431494018  -1.729030980179775E2  
 1.095000000000000E10   -5.298212706783148   9.432653094450996E1  -1.060088391080928E1   0.000000000000000  -9.990000000000000E2   0.000000000000000  -5.723172282401039  -1.773225097211668E2  
 1.100000000000000E10   -4.401702894030928   7.610311065276410E1  -1.169779920393288E1   0.000000000000000  -9.990000000000000E2   0.000000000000000  -5.366407448202449  -1.754631602739260E2  
 1.105000000000000E10   -4.169062607082545   5.856464907299510E1  -1.241228607594711E1   0.000000000000000  -9.990000000000000E2   0.000000000000000  -5.513994447080789  -1.708780128398875E2  
 1.110000000000000E10   -4.632214442236634   4.081796968097711E1  -1.192952198838222E1   0.000000000000000  -9.990000000000000E2   0.000000000000000  -6.551467053421537  -1.699381143115182E2  
 1.115000000000000E10   -5.534314048273956   2.214549444305275E1  -1.152625851290932E1   0.000000000000000  -9.990000000000000E2   0.000000000000000  -7.280250002962018  -1.653909527956694E2  
 1.120000000000000E10   -7.336145134032151  -9.798413101698851E-1  -1.055111398346335E1   0.000000000000000  -9.990000000000000E2   0.000000000000000  -7.847837675406670  -1.661802698616182E2  
 1.125000000000000E10   -1.060036498227110E1  -2.903965613470675E1  -9.445765417885713   0.000000000000000  -9.990000000000000E2   0.000000000000000  -8.760199391981566  -1.649952098344969E2  
 1.130000000000000E10   -1.647068910447419E1  -8.004956847669767E1  -8.924889790826361   0.000000000000000  -9.990000000000000E2   0.000000000000000  -8.383308723737070  -1.676095961506921E2  
 1.135000000000000E10   -1.696378367553322E1   1.758364215612138E2  -8.712515016658692   0.000000000000000  -9.990000000000000E2   0.000000000000000  -7.145158448279859  -1.683432063410665E2  
 1.140000000000000E10   -1.103609544619225E1   1.303098757466868E2  -9.572335039144209   0.000000000000000  -9.990000000000000E2   0.000000000000000  -6.013628974731506  -1.689609933378218E2  
 1.145000000000000E10   -8.171318004790537   9.904114880480788E1  -1.020071311198826E1   0.000000000000000  -9.990000000000000E2   0.000000000000000  -5.347732629269220  -1.708240403133647E2  
 1.150000000000000E10   -6.466407665786136   7.894129808662177E1  -1.178006163856181E1   0.000000000000000  -9.990000000000000E2   0.000000000000000  -4.705897307224891  -1.661263376404827E2  
 1.155000000000000E10   -5.273352191333712   5.836891231771212E1  -1.439592546339679E1   0.000000000000000  -9.990000000000000E2   0.000000000000000  -3.359920289735190  -1.638293417533608E2  
 1.160000000000000E10   -5.404788594751174   4.004530958305091E1  -1.523701649965616E1   0.000000000000000  -9.990000000000000E2   0.000000000000000  -3.307810971519122  -1.615766415537140E2  
 1.165000000000000E10   -4.846114020646883   2.240802247829431E1  -1.793207216386780E1   0.000000000000000  -9.990000000000000E2   0.000000000000000  -2.848899372120991  -1.619652142755011E2  
 1.170000000000000E10   -4.936717084147088   1.410085504697029  -1.832941667005632E1   0.000000000000000  -9.990000000000000E2   0.000000000000000  -3.204500009067422  -1.631999703585020E2  
 1.175000000000000E10   -5.895247483837264  -3.029511659477772E1  -1.505587636811247E1   0.000000000000000  -9.990000000000000E2   0.000000000000000  -4.629325987530739  -1.662500929687061E2  
 1.180000000000000E10   -7.228677462854017  -6.648043678629134E1  -1.285490481278307E1   0.000000000000000  -9.990000000000000E2   0.000000000000000  -5.528232259819362  -1.661704945228252E2  
 1.185000000000000E10   -9.049211965394417  -1.115021362274716E2  -1.112365040545637E1   0.000000000000000  -9.990000000000000E2   0.000000000000000  -6.709341402914457  -1.660917783057808E2  
 1.190000000000000E10   -9.114651943252577  -1.633164407878726E2  -1.062305069985454E1   0.000000000000000  -9.990000000000000E2   0.000000000000000  -6.510745560515193  -1.669557117209371E2  
 1.195000000000000E10   -8.246362010544344   1.471141880117733E2  -1.036168647682442E1   0.000000000000000  -9.990000000000000E2   0.000000000000000  -6.639507888864436  -1.684558625772623E2  
 1.200000000000000E10   -6.499470265752880   1.093530980370149E2  -1.105380927354313E1   0.000000000000000  -9.990000000000000E2   0.000000000000000  -6.024031466855188  -1.673182439345777E2  
 1.205000000000000E10   -5.567161507027820   8.092307206770656E1  -1.137286120106835E1   0.000000000000000  -9.990000000000000E2   0.000000000000000  -5.865829354316104  -1.676339173905495E2  
 1.210000000000000E10   -5.312770123790535   5.276676118758330E1  -1.119229262454470E1   0.000000000000000  -9.990000000000000E2   0.000000000000000  -6.568932110996318  -1.695444191637336E2  
 1.215000000000000E10   -5.080349190131074   2.677359530885074E1  -1.140351943049267E1   0.000000000000000  -9.990000000000000E2   0.000000000000000  -6.564147047077567  -1.675518121025314E2  
 1.220000000000000E10   -5.690415142852000   7.201733717707237E-1  -1.050563508772023E1   0.000000000000000  -9.990000000000000E2   0.000000000000000  -7.584249189063401  -1.706940870085275E2  
 1.225000000000000E10   -6.522954513667729  -2.561271704806349E1  -1.006210007690965E1   0.000000000000000  -9.990000000000000E2   0.000000000000000  -8.148320431241936  -1.684295367464650E2  
 1.230000000000000E10   -7.531121528321386  -5.549008653849580E1  -9.809294608384050   0.000000000000000  -9.990000000000000E2   0.000000000000000  -8.008288027433551  -1.688145289908038E2  
 1.235000000000000E10   -9.434624433705823  -8.800405991415181E1  -9.085336449393898   0.000000000000000  -9.990000000000000E2   0.000000000000000  -8.732506559260392  -1.733785353182502E2  
 1.240000000000000E10   -1.091525631554516E1  -1.294266875058974E2  -8.978795543196219   0.000000000000000  -9.990000000000000E2   0.000000000000000  -8.142999633358341  -1.680747292876603E2  
 1.245000000000000E10   -1.129844551623522E1  -1.755541808540403E2  -9.163865864720732   0.000000000000000  -9.990000000000000E2   0.000000000000000  -6.955542941211143  -1.711146932231454E2  
 1.250000000000000E10   -1.076405724739754E1   1.406256742740992E2  -9.145647611329361   0.000000000000000  -9.990000000000000E2   0.000000000000000  -7.595330490855074  -1.697777318470636E2  
 1.255000000000000E10   -9.672223127232648   1.030262059170080E2  -9.625438521281117   0.000000000000000  -9.990000000000000E2   0.000000000000000  -6.165225005237814  -1.710404685151802E2  
 1.260000000000000E10   -9.621867620317554   7.227686506248449E1  -9.371225740082203   0.000000000000000  -9.990000000000000E2   0.000000000000000  -6.758011011824752  -1.693723444931250E2  
 1.265000000000000E10   -8.999118110726062   4.335276387957440E1  -9.650501301301130   0.000000000000000  -9.990000000000000E2   0.000000000000000  -6.632738948359894  -1.692467472075029E2  
 1.270000000000000E10   -1.001682532584035E1   1.989946091861291E1  -9.166737851452576   0.000000000000000  -9.990000000000000E2   0.000000000000000  -7.102291585953751  -1.689776633889380E2  
 1.275000000000000E10   -1.083535694502419E1  -3.139283523951901  -8.918146209734021   0.000000000000000  -9.990000000000000E2   0.000000000000000  -7.253025217384457  -1.655862151444857E2  
 1.280000000000000E10   -1.226841439932315E1  -2.609177116071529E1  -9.017469232465210   0.000000000000000  -9.990000000000000E2   0.000000000000000  -6.892445784779195  -1.670237173825920E2  
 1.285000000000000E10   -1.442627255602824E1  -4.676187898094275E1  -8.883478104021567   0.000000000000000  -9.990000000000000E2   0.000000000000000  -6.933902817137584  -1.649879592693719E2  
 1.290000000000000E10   -1.718017999773339E1  -6.596860560645925E1  -8.949773449829777   0.000000000000000  -9.990000000000000E2   0.000000000000000  -6.347759828413859  -1.664435283965975E2  
 1.295000000000000E10   -2.146280018140337E1  -9.112950371711229E1  -9.103475838386576   0.000000000000000  -9.990000000000000E2   0.000000000000000  -5.541654231022905  -1.657016156352872E2  
 1.300000000000000E10   -2.808582395114883E1  -1.164261876265858E2  -9.220826801000335   0.000000000000000  -9.990000000000000E2   0.000000000000000  -5.459708962195628  -1.660999437339347E2  
 1.305000000000000E10   -3.569563754111803E1  -1.149433310223067E2  -9.344314475500536   0.000000000000000  -9.990000000000000E2   0.000000000000000  -4.931180719607545  -1.667987126131910E2  
