# GHz S RI R 50

1.000000000000000e-03  5.9718742253171068e-04 -3.3233762445176551e-04  9.9938674721469489e-01 -3.0043428997599611e-03  9.9938674721469511e-01 -3.0043428997756248e-03  5.9748345149001790e-04 -3.3261433926819574e-04
8.642211055276383e-02 -8.0648108148383829e-03 -3.1293008019609742e-02  9.6495308044993322e-01 -2.5236036323170508e-01  9.6495308044993389e-01 -2.5236036323170535e-01 -6.0794442244249151e-03 -3.1879911832122090e-02
1.718442211055277e-01 -3.3485297775466841e-02 -5.4821553799754411e-02  8.6940198222509379e-01 -4.8328832499755225e-01  8.6940198222509468e-01 -4.8328832499755281e-01 -2.6664259003258549e-02 -5.8823965098140939e-02
2.572663316582915e-01 -6.9997289323646544e-02 -6.3438935300412350e-02  7.1974912476913344e-01 -6.8160554975370358e-01  7.1974912476913477e-01 -6.8160554975370458e-01 -5.7919805247338994e-02 -7.5321509852779078e-02
3.426884422110553e-01 -1.0965245881832705e-01 -5.3717037236430176e-02  5.2667427942887546e-01 -8.3509180151789175e-01  5.2667427942887646e-01 -8.3509180151789342e-01 -9.4943475415083745e-02 -7.7902697811572330e-02
4.281105527638192e-01 -1.4397252563334054e-01 -2.6094575025589876e-02  3.0339871096510118e-01 -9.3511836374057489e-01  3.0339871096510090e-01 -9.3511836374057422e-01 -1.3189278009475849e-01 -6.5183775156282056e-02
5.135326633165830e-01 -1.6564634219589081e-01  1.5355555001094158e-02  6.4363179527838349e-02 -9.7694887588689139e-01  6.4363179527838529e-02 -9.7694887588689439e-01 -1.6276694907768696e-01 -3.8102083718186887e-02
5.989547738693468e-01 -1.6993041740078024e-01  6.3879523824167533e-02 -1.7591258823261002e-01 -9.5957916581315306e-01 -1.7591258823260980e-01 -9.5957916581315161e-01 -1.8226781319044669e-01  1.6416932857713908e-04
6.843768844221106e-01 -1.5545757933449775e-01  1.1144088829141569e-01 -4.0368092519791893e-01 -8.8526854987962134e-01 -4.0368092519791865e-01 -8.8526854987962078e-01 -1.8658355710387178e-01  4.4567153268230617e-02
7.697989949748745e-01 -1.2438064774054343e-01  1.5025270766968848e-01 -6.0647177755771009e-01 -7.5896420663339559e-01 -6.0647177755770210e-01 -7.5896420663338549e-01 -1.7401545408456595e-01  8.8807220279492977e-02
8.552211055276383e-01 -8.1910248300808453e-02  1.7418011718276033e-01 -7.7331045052917446e-01 -5.8780828403878549e-01 -7.7331045052904346e-01 -5.8780828403876839e-01 -1.4538749729107692e-01  1.2614692375920478e-01
9.406432160804020e-01 -3.5373782123931594e-02  1.7983048449796143e-01 -8.9479410267666992e-01 -3.8084928529993162e-01 -8.9479410267666493e-01 -3.8084928529992890e-01 -1.0418482848952304e-01  1.5037154406932404e-01
1.026065326633166e+00  7.0640480956383903e-03  1.6721474195437869e-01 -9.6321915608216957e-01 -1.4897531971736722e-01 -9.6321915608218089e-01 -1.4897531971737155e-01 -5.6354049756669210e-02  1.5683739854566728e-01
1.111487437185930e+00  3.7880762533119734e-02  1.3989024504977626e-01 -9.7294110846399684e-01  9.5036069986057320e-02 -9.7294110846399084e-01  9.5036069986061025e-02 -9.6807600330225934e-03  1.4350765533159071e-01
1.196909547738694e+00  5.1708722075565351e-02  1.0449605616497565e-01 -9.2106585931495444e-01  3.3657494481052180e-01 -9.2106585931495821e-01  3.3657494481049433e-01  2.7326698281581106e-02  1.1179184955294250e-01
1.282331658291457e+00  4.6633005387318550e-02  6.9617840973798750e-02 -8.0840764046732583e-01  5.5965512125519923e-01 -8.0840764046731994e-01  5.5965512125519401e-01  4.7024925706499326e-02  6.6905489405751112e-02
1.367753768844221e+00  2.4927968223337718e-02  4.4037617716283471e-02 -6.4042791622216655e-01  7.4801250051048163e-01 -6.4042791622217221e-01  7.4801250051048840e-01  4.4472842492641385e-02  1.7426568922038175e-02
1.453175879396985e+00 -7.1295920550071053e-03  3.4656862749761333e-02 -4.2768742628301443e-01  8.8686529271378101e-01 -4.2768742628301121e-01  8.8686529271377379e-01  1.9042893438575449e-02 -2.6147325200903473e-02
1.538597989949749e+00 -4.0548781853750111e-02  4.4644208504384178e-02 -1.8535351664190686e-01  9.6499551868648958e-01 -1.8535351664190652e-01  9.6499551868648914e-01 -2.4820038488559185e-02 -5.3694569942702733e-02
1.624020100502513e+00 -6.5798350834773325e-02  7.2457459657023479e-02  6.8390094786321298e-02  9.7650054136667785e-01  6.8390094786307060e-02  9.7650054136665676e-01 -7.8174208019925404e-02 -5.8028592938651910e-02
1.709442211055276e+00 -7.5229960106349761e-02  1.1216020575829055e-01  3.1468213176628318e-01  9.2155420175498826e-01  3.1468213176628596e-01  9.2155420175501834e-01 -1.2949813372001182e-01 -3.6870175494525495e-02
1.794864321608040e+00 -6.4958195473014416e-02  1.5495374882892685e-01  5.3633064294139288e-01  8.0590113113513484e-01  5.3633064294139621e-01  8.0590113113514017e-01 -1.6738736492352332e-01  6.4602426405251491e-03
1.880286432160804e+00 -3.5647330643628350e-02  1.9137134753041155e-01  7.1943057607043281e-01  6.3937356489458375e-01  7.1943057607043315e-01  6.3937356489458363e-01 -1.8317210251055360e-01  6.3804696832608851e-02
1.965708542713568e+00  7.8683660793730497e-03  2.1342581734650828e-01  8.5391019953582215e-01  4.3410381897248618e-01  8.5391019953582459e-01  4.3410381897248840e-01 -1.7274279734762885e-01  1.2401745219161189e-01
2.051130653266332e+00  5.7813035752167709e-02  2.1619624403116147e-01  9.3317348054113647e-01  2.0310342114189803e-01  9.3317348054113647e-01  2.0310342114189631e-01 -1.3728881046794564e-01  1.7529173645791526e-01
2.136552763819096e+00  1.0511509271170412e-01  1.9866859891105396e-01  9.5333703245893608e-01 -4.0422996727862662e-02  9.5333703245892620e-01 -4.0422996727871578e-02 -8.3022503258513125e-02  2.0744656127009511e-01
2.221974874371859e+00  1.4114886296284504e-01  1.6386610695536735e-01  9.1262173057586571e-01 -2.8304042513765792e-01  9.1262173057586171e-01 -2.8304042513765892e-01 -2.0090622773096336e-02  2.1388189458021684e-01
2.307396984924623e+00  1.5938941600002599e-01  1.1833814831866447e-01  8.1132851399611361e-01 -5.1064147899224444e-01  8.1132851399616224e-01 -5.1064147899224954e-01  3.9181211060738429e-02  1.9304047965408128e-01
2.392819095477387e+00  1.5682117078227839e-01  7.1020985274048848e-02  6.5257883694165464e-01 -7.0813440130849903e-01  6.5257883694163710e-01 -7.0813440130853156e-01  8.2628968711249501e-02  1.4917666543858282e-01
2.478241206030151e+00  1.3485288366255097e-01  3.1484229705587147e-02  4.4361271770986443e-01 -8.5988125055139752e-01  4.4361271770986194e-01 -8.5988125055138509e-01  1.0101930038673329e-01  9.2096692075636061e-02
2.563663316582915e+00  9.9377550233869058e-02  7.7117437500521880e-03  1.9697308671280661e-01 -9.5129275904569488e-01  1.9697308671280767e-01 -9.5129275904571531e-01  9.0786883121548909e-02  3.5455748498851962e-02
2.649085427135678e+00  5.9612848638382870e-02  3.8759801020721019e-03 -6.9341040937854342e-02 -9.7140141233661703e-01 -6.9341040937899029e-02 -9.7140141233659483e-01  5.5806539441823275e-02 -6.5323368016688248e-03
2.734507537688442e+00  2.5695593813143201e-02  1.8920408248976516e-02 -3.3339227271925409e-01 -9.1552797107625195e-01 -3.3339227271925154e-01 -9.1552797107624384e-01  7.0803686296734645e-03 -2.3319049566296778e-02
2.819929648241206e+00  5.6809805027103468e-03  4.6747760678800508e-02 -5.7231156787271886e-01 -7.8681368883717562e-01 -5.7231156787271442e-01 -7.8681368883716873e-01 -4.0150258322057784e-02 -1.1644450709736527e-02
2.905351758793970e+00  3.1189451515946263e-03  7.8170568086300393e-02 -7.6569768547792882e-01 -5.9582794278796591e-01 -7.6569768547792938e-01 -5.9582794278796625e-01 -7.1078570174104905e-02  2.3090421568519249e-02
2.990773869346734e+00  1.6212476097074512e-02  1.0388935104638133e-01 -8.9804541122018444e-01 -3.5852443347620255e-01 -8.9804541122023596e-01 -3.5852443347620200e-01 -7.6009796459351686e-02  6.8386015538161843e-02
3.076195979899498e+00  3.8781758511390617e-02  1.1731390207108965e-01 -9.5951421837559447e-01 -9.3708175743541941e-02 -9.5951421837560313e-01 -9.3708175743512104e-02 -5.3338638181465149e-02  1.0847122765365577e-01
3.161618090452261e+00  6.2489747043256376e-02  1.1629822085117020e-01 -9.4542497003821391e-01  1.7879585471226397e-01 -9.4542497003820769e-01  1.7879585471223758e-01 -1.0056946008367788e-02  1.2898378895325802e-01
3.247040201005025e+00  7.9506287797551006e-02  1.0344340693689891e-01 -8.5553574510642072e-01  4.3883093427238246e-01 -8.5553574510640762e-01  4.3883093427234032e-01  4.0077590970990007e-02  1.2121975035805328e-01
3.332462311557789e+00  8.4908089645302678e-02  8.5044032506246967e-02 -6.9404615125591018e-01  6.6593494543483245e-01 -6.9404615125584801e-01  6.6593494543481013e-01  8.0235086393820612e-02  8.5085339389887812e-02
3.417884422110553e+00  7.8254096955360064e-02  6.8921390331335958e-02 -4.7057357891363089e-01  8.3974317620205363e-01 -4.7057357891365509e-01  8.3974317620208982e-01  9.5518990600860054e-02  3.0007594674972951e-02
3.503306532663317e+00  6.3785930764042917e-02  6.1576319997547875e-02 -2.0140488013446256e-01  9.4170338556644784e-01 -2.0140488013446572e-01  9.4170338556644750e-01  7.8322567880539387e-02 -2.7016980385190903e-02
3.588728643216081e+00  4.8841491697016529e-02  6.5513867272314286e-02  9.0331701312290763e-02  9.5818484544943761e-01  9.0331701312304599e-02  9.5818484544943838e-01  3.2217570633294161e-02 -6.6608150768055249e-02
3.674150753768844e+00  4.0708234590795138e-02  7.7977292829967071e-02  3.7666578561395808e-01  8.8380846246128064e-01  3.7666578561395830e-01  8.8380846246128208e-01 -2.7891423186860435e-02 -7.4294961271199667e-02
3.759572864321608e+00  4.3145977656823813e-02  9.2047768800708335e-02  6.2867280828891536e-01  7.2318239907117698e-01  6.2867280828891259e-01  7.2318239907118131e-01 -8.0478901454940521e-02 -4.6978452193246867e-02
3.844994974874372e+00  5.4350004860895716e-02  9.9911617917017470e-02  8.2047971318913882e-01  4.9011858122262930e-01  8.2047971318915058e-01  4.9011858122264423e-01 -1.0556652943421942e-01  4.7100917551311768e-03
3.930417085427136e+00  6.7552042271754403e-02  9.6838347414655288e-02  9.3158121386676773e-01  2.0530675234563650e-01  9.3158121386676584e-01  2.0530675234563212e-01 -9.2965022466651268e-02  5.9572520674572429e-02
4.015839195979900e+00  7.4200187976810258e-02  8.3995435429567611e-02  9.4737461880458340e-01 -1.0550283335050317e-01  9.4737461880457896e-01 -1.0550283335050606e-01 -4.7317616447984351e-02  9.3484223371720410e-02
4.101261306532663e+00  6.8610973268591766e-02  6.8616436230984984e-02  8.5975117258875178e-01 -4.1173615665185787e-01  8.5975117258875478e-01 -4.1173615665185997e-01  1.2046878920557114e-02  8.9193367726784878e-02
4.186683417085428e+00  5.2219714145161834e-02  6.0666321060150900e-02  6.6978634065550169e-01 -6.7800756266601447e-01  6.6978634065550746e-01 -6.7800756266602424e-01  5.7586702953506930e-02  4.5339071263272968e-02
4.272105527638191e+00  3.4681675891195696e-02  6.6326679255919480e-02  3.9216891658965680e-01 -8.6703042242657891e-01  3.9216891658964803e-01 -8.6703042242659600e-01  6.6199677711115124e-02 -1.9760977178926841e-02
4.357527638190955e+00  2.9098774825948158e-02  8.1197279675416720e-02  5.7439745935917698e-02 -9.4692107031930328e-01  5.7439745935876016e-02 -9.4692107031933115e-01  3.3723546012210552e-02 -7.4826737505089280e-02
4.442949748743718e+00  4.1688419882876047e-02  8.8636619910191880e-02 -2.9194398762940349e-01 -8.9907344342670426e-01 -2.9194398762941193e-01 -8.9907344342671436e-01 -1.8322527798550793e-02 -9.3479432642417690e-02
4.528371859296483e+00  6.1091238949416315e-02  6.7386179275058841e-02 -6.0898376946853727e-01 -7.2009180343792445e-01 -6.0898376946852961e-01 -7.2009180343791468e-01 -5.2025855595044225e-02 -7.4619395569785446e-02
4.613793969849247e+00  5.4489751437141652e-02  8.1828547174997521e-03 -8.4356029590732795e-01 -4.1883421820721212e-01 -8.4356029590731529e-01 -4.1883421820719369e-01 -3.7814247911440391e-02 -5.2532703600483621e-02
4.699216080402010e+00 -2.1190370231513135e-02 -6.4035324767850843e-02 -9.3554594297329197e-01 -2.3227583651247944e-02 -9.3554594297327498e-01 -2.3227583651247753e-02  1.2129373665362578e-02 -8.5269646819606457e-02
4.784638190954774e+00 -1.7982331744222904e-01 -7.7976674911619942e-02 -8.2464454060320969e-01  3.9063949273740373e-01 -8.2464454060321324e-01  3.9063949273734971e-01  2.0860965044218305e-02 -2.0505474271190724e-01
4.870060301507539e+00 -3.5346513045334543e-01  3.8762467400220199e-02 -5.1465742071598375e-01  6.8980491306891734e-01 -5.1465742071602683e-01  6.8980491306893610e-01 -1.0621834847703703e-01 -3.4277578465108366e-01
4.955482412060302e+00 -4.2622457940712177e-01  2.6204233653635173e-01 -1.2189043312919896e-01  7.7829027855876032e-01 -1.2189043312913977e-01  7.7829027855875788e-01 -3.5233811802195542e-01 -3.4805087807672924e-01
5.040904522613066e+00 -3.5925638043785368e-01  4.7910089990527160e-01  2.2656754366025539e-01  6.8425901224697927e-01  2.2656754366022896e-01  6.8425901224697905e-01 -5.6397463590877650e-01 -1.3894733537791093e-01
5.126326633165829e+00 -2.1582052628485390e-01  6.0253102416504833e-01  5.0046787128293779e-01  4.6970949888309393e-01  5.0046787128294312e-01  4.6970949888310187e-01 -5.4564302027978151e-01  2.3780921614080952e-01
5.211748743718593e+00 -1.0974394852474223e-01  6.2521451469183142e-01  6.7738391054471170e-01  8.7328354573916300e-02  6.7738391054471181e-01  8.7328354573892555e-02 -4.8898688741509488e-02  5.1856350666419126e-01
5.297170854271357e+00 -1.0444469270074561e-01  7.1855389195023234e-01  4.2335625308214986e-01 -3.9335405915373767e-01  4.2335625308214980e-01 -3.9335405915373484e-01  5.4239058221664960e-01 -1.5643633142994764e-01
5.382592964824121e+00  7.3570253651722928e-02  8.8610035791721187e-01  5.1338408528438179e-03 -3.2370026862976981e-01  5.1338408528576384e-03 -3.2370026862975410e-01 -1.0578752260784098e-01 -8.0031776938388344e-01
5.468015075376885e+00  3.0567620209842922e-01  8.9496076359034749e-01 -7.5192422736220621e-02 -1.4576002627665993e-01 -7.5192422736209102e-02 -1.4576002627666013e-01 -6.7027766396940280e-01 -6.0951243695661594e-01
5.553437185929649e+00  4.8253607154225781e-01  8.3264771661837933e-01 -6.3473125593558347e-02 -6.2603093228292869e-02 -6.3473125593572835e-02 -6.2603093228297421e-02 -8.8976118729170117e-01 -3.0111899770328937e-01
5.638859296482413e+00  6.1598828025016528e-01  7.4772267391310443e-01 -4.4621891184590180e-02 -2.7149464707558708e-02 -4.4621891184640682e-02 -2.7149464707583951e-02 -9.5270382061937497e-01 -3.8902159696822584e-02
5.724281407035177e+00  7.1918266343168669e-01  6.5387170925097049e-01 -3.0397214538486990e-02 -1.1459508601536427e-02 -3.0397214538525338e-02 -1.1459508601595308e-02 -9.4555185059780189e-01  1.7121923839193193e-01
5.809703517587939e+00  7.9960214743748059e-01  5.5602382449205034e-01 -2.0759970882803701e-02 -4.2666996792006555e-03 -2.0759970882812975e-02 -4.2666996792009920e-03 -9.0363364257902745e-01  3.3998638266496201e-01
5.895125628140703e+00  8.6173105256033211e-01  4.5655704446677792e-01 -1.4362705175751500e-02 -9.1929408309574564e-04 -1.4362705175761988e-02 -9.1929408309972998e-04 -8.4311160674900321e-01  4.7675862306452754e-01
5.980547738693468e+00  9.0851859048367756e-01  3.5687590212874204e-01 -1.0104503029822668e-02  6.2073513832996714e-04 -1.0104503029793222e-02  6.2073513827454912e-04 -7.7228402195145318e-01  5.8832363481682926e-01
6.065969849246232e+00  9.4205360930494975e-01  2.5792083754474865e-01 -7.2406550475927556e-03  1.2937230949259461e-03 -7.2406550476065198e-03  1.2937230949346113e-03 -6.9581975996934131e-01  6.7956263723705179e-01
6.151391959798995e+00  9.6389731123191780e-01  1.6037605395252330e-01 -5.2888271862031452e-03  1.5505772064921147e-03 -5.2888271862287688e-03  1.5505772065030176e-03 -6.1653203432228720e-01  7.5406823061709594e-01
6.236814070351759e+00  9.7526382824896929e-01  6.4771557218243875e-02 -3.9385396851899096e-03  1.6130022926757373e-03 -3.9385396852621045e-03  1.6130022928037230e-03 -5.3620326715819777e-01  8.1455915859640327e-01
6.322236180904524e+00  9.7712729741471449e-01 -2.8459885278868752e-02 -2.9886700204020387e-03  1.5911987482639621e-03 -2.9886700204019520e-03  1.5911987482551987e-03 -4.5600434964721848e-01  8.6314658404287126e-01
6.407658291457287e+00  9.7029022011472232e-01 -1.1894819906585670e-01 -2.3075362870823130e-03  1.5395763904768585e-03 -2.3075362871606176e-03  1.5395763905436245e-03 -3.7672402815637668e-01  9.0150686276262737e-01
6.493080402010050e+00  9.5542979183914245e-01 -2.0636394519478549e-01 -1.8078937590108334e-03  1.4841066181386317e-03 -1.8078937590195300e-03  1.4841066181477513e-03 -2.9890224757245681e-01  9.3099653533660331e-01
6.578502512562814e+00  9.3313085790864869e-01 -2.9040381751651928e-01 -1.4312651138924676e-03  1.4361403601535789e-03 -1.4312651138838096e-03  1.4361403601427210e-03 -2.2291162832512745e-01  9.5273107455388339e-01
6.663924623115578e+00  9.0391030645042691e-01 -3.7078100083140653e-01 -1.1380363648238780e-03  1.3995402582815020e-03 -1.1380363647997044e-03  1.3995402582879051e-03 -1.4900934338483329e-01  9.6764032136025346e-01
6.749346733668342e+00  8.6823573390595576e-01 -4.4721881774829603e-01 -9.0112214705604797e-04  1.3744146173703467e-03 -9.0112214704570436e-04  1.3744146173455642e-03 -7.7371294570339755e-02  9.7650851244720871e-01
6.834768844221106e+00  8.2654013484596212e-01 -5.1944670312806418e-01 -7.0186029104737653e-04  1.3590825451790121e-03 -7.0186029105942570e-04  1.3590825451979844e-03 -8.1152742887109098e-03  9.8000384894236348e-01
6.920190954773870e+00  7.7923373880333791e-01 -5.8719789915133147e-01 -5.2731637875090911e-04  1.3510996144206540e-03 -5.2731637874823482e-04  1.3510996144607422e-03  5.8682964206052256e-02  9.7870078750756817e-01
7.005613065326634e+00  7.2671373264030148e-01 -6.5020847909813517e-01 -3.6849455296051394e-04  1.3477761075625745e-03 -3.6849455298309803e-04  1.3477761075984952e-03  1.2297833973116055e-01  9.7309715088543958e-01
7.091035175879398e+00  6.6937236145441936e-01 -7.0821744278700405e-01 -2.1914293456992603e-04  1.3464185563441557e-03 -2.1914293460145398e-04  1.3464185562985624e-03  1.8474827780199976e-01  9.6362747225243939e-01
7.176457286432161e+00  6.0760373718625593e-01 -7.6096771316992284e-01 -7.4959455129196021e-05  1.3444226574175239e-03 -7.4959455131472818e-05  1.3444226574502458e-03  2.4398677642858710e-01  9.5067354629208856e-01
7.261879396984924e+00  5.4180956953377635e-01 -8.0820791951865389e-01  6.6925127563798988e-05  1.3392937324747010e-03  6.6925127562075879e-05  1.3392937324666582e-03  3.0070005797863714e-01  9.3457286708739706e-01
7.347301507537689e+00  4.7240394936147306e-01 -8.4969488746616417e-01  2.0826941545383146e-04  1.3286451367977581e-03  2.0826941544000729e-04  1.3286451367530258e-03  3.5490336572593834e-01  9.1562543458062140e-01
7.432723618090453e+00  3.9981724911561567e-01 -8.8519677430916777e-01  3.4991065680869125e-04  1.3102107013549689e-03  3.4991065678120694e-04  1.3102107012912540e-03  4.0661859011496870e-01  8.9409927665516775e-01
7.518145728643217e+00  3.2449915230796861e-01 -9.1449679054778776e-01  4.9187534271441654e-04  1.2818951874937600e-03  4.9187534274050938e-04  1.2818951874958530e-03  4.5587248989767237e-01  8.7023494470524687e-01
7.603567839195980e+00  2.4692078467047496e-01 -9.3739743579766166e-01  6.3346273777826524e-04  1.2418709544520026e-03  6.3346273776386216e-04  1.2418709544367934e-03  5.0269532596109456e-01  8.4424918609011257e-01
7.688989949748745e+00  1.6757589656526442e-01 -9.5372515138661940e-01  7.7334708580437692e-04  1.1887087908771066e-03  7.7334708581089709e-04  1.1887087908834860e-03  5.4711976771996584e-01  8.1633796707569106e-01
7.774412060301509e+00  8.6981043794474550e-02 -9.6333525999133918e-01  9.0972857219435836e-04  1.1215110198516079e-03  9.0972857219312996e-04  1.1215110198522485e-03  5.8917997461975902e-01  7.8667900220855436e-01
7.859834170854271e+00  5.6747318302185447e-03 -9.6611703531853643e-01  1.0405373379011446e-03  1.0400047730410086e-03  1.0405373378944492e-03  1.0400047729843260e-03  6.2891080014298006e-01  7.5543392748559990e-01
