# GHz S RI R 50

1.000000000000000e-03  1.9335869414949893e-03 -3.5013572597436377e-03  9.9793881567973208e-01 -9.3647968515015584e-03  9.9793881567974285e-01 -9.3647968515077739e-03  1.9264324289307402e-03 -3.4954266323644367e-03
8.642211055276383e-02 -1.7244059115492566e-01 -2.1173105953807400e-01  6.7823410736362655e-01 -6.7127679626936754e-01  6.7823410736362599e-01 -6.7127679626936665e-01 -2.0415785255823088e-01 -1.7850589729428412e-01
1.718442211055277e-01 -3.7786374652146926e-01 -1.1377161923792763e-01  8.5811901244217378e-02 -9.0161995172014076e-01  8.5811901244217809e-02 -9.0161995172014398e-01 -3.8897249213042623e-01  3.0410895001925533e-02
2.572663316582915e-01 -3.4495725697393476e-01  7.2700678080880266e-02 -5.0515117869623949e-01 -7.6593551893092937e-01 -5.0515117869622939e-01 -7.6593551893091405e-01 -2.0904144369733030e-01  2.7434605659251610e-01
3.426884422110553e-01 -1.7250083383165848e-01  6.7933931904028799e-02 -9.3045724694477949e-01 -2.3580568968532872e-01 -9.3045724694457743e-01 -2.3580568968547566e-01  1.0148273969813788e-01  1.3708643065090981e-01
4.281105527638192e-01 -1.8131073568161404e-01 -8.7395073620081629e-02 -8.2081185824681424e-01  4.8552303833077165e-01 -8.2081185824679326e-01  4.8552303833077637e-01  5.5777263840007564e-04 -1.9177863735867667e-01
5.135326633165830e-01 -3.1347265151416187e-01 -5.7614045526198393e-02 -2.6547229837187081e-01  8.7975711614584740e-01 -2.6547229837212044e-01  8.7975711614577290e-01 -2.8920747384404394e-01 -1.2470476805272912e-01
5.989547738693468e-01 -2.5283905396595191e-01  8.4567858876396257e-02  3.9563296617581661e-01  8.4149219211232640e-01  3.9563296617586247e-01  8.4149219211241622e-01 -2.3292282413082685e-01  1.2365913368406231e-01
6.843768844221106e-01 -4.8983578890040222e-02 -7.7487063864653373e-03  9.0999642259716096e-01  3.0317951304918173e-01  9.0999642259715163e-01  3.0317951304916890e-01  1.2988548330723333e-02  1.7558603305407403e-02
7.697989949748745e-01 -1.5310767830546118e-01 -2.6559816822592974e-01  7.8678208363374635e-01 -4.5714774657465423e-01  7.8678208363373625e-01 -4.5714774657463547e-01 -1.7157607123092825e-01 -2.4463682076154289e-01
8.552211055276383e-01 -4.1624099987894503e-01 -1.8654651799911637e-01  2.2481653019165584e-01 -8.1496393971307790e-01  2.2481653019165881e-01 -8.1496393971307080e-01 -4.4688256549484684e-01 -5.2703894492887364e-02
9.406432160804020e-01 -3.6239494466079131e-01  1.0105382222997669e-01 -4.2609666607124647e-01 -7.6103223617699156e-01 -4.2609666607124252e-01 -7.6103223617699911e-01 -2.9811925444540804e-01  2.2820244381105895e-01
1.026065326633166e+00  1.1587738997055992e-02  2.7830936251899478e-02 -9.2592356562994937e-01 -1.0296706597071598e-01 -9.2592356562984568e-01 -1.0296706597071045e-01 -7.8097770246293621e-02  4.2188453559578502e-02
1.111487437185930e+00 -1.1427505431141785e-01 -3.3552051386574344e-01 -5.2685467499422622e-01  6.8615079131531342e-01 -5.2685467499427696e-01  6.8615079131540657e-01 -3.5326983476653379e-01  1.1844200579882344e-02
1.196909547738694e+00 -2.5664694590540776e-01 -1.1444862609774954e-01  3.4456572758131715e-01  8.0007986996852487e-01  3.4456572758131865e-01  8.0007986996832126e-01 -1.4871241531317586e-01  2.2732316524421167e-01
1.282331658291457e+00  1.4781400959940424e-01 -5.9095803886856646e-01  5.8835703037619558e-01 -2.8157748633074875e-01  5.8835703037637910e-01 -2.8157748633071061e-01 -5.9353700018343025e-01 -6.6139988905055000e-02
1.367753768844221e+00 -4.8659805763347236e-01 -7.8851468175291473e-01  6.0644208684411749e-03 -2.4030708486083380e-01  6.0644208684624149e-03 -2.4030708486093413e-01 -3.8110899118069186e-01  8.0561022295055973e-01
1.453175879396985e+00 -7.6718432262991920e-01 -5.9258436982935514e-01 -6.6609325153034790e-02 -8.5229371195769843e-02 -6.6609325153039980e-02 -8.5229371195776352e-02  4.6890036729725176e-01  7.8668441268433587e-01
1.538597989949749e+00 -8.8930725487706386e-01 -4.1270413735921363e-01 -5.3118999869314232e-02 -1.5660238246605188e-02 -5.3118999869362610e-02 -1.5660238246582730e-02  9.1450327128608477e-01  1.7318041499319498e-02
1.624020100502513e+00 -9.4913751988462747e-01 -2.6221558535797768e-01 -2.7679589034272721e-02  8.1915435854566562e-03 -2.7679589034308696e-02  8.1915435854604101e-03  5.1835885224489975e-01 -7.6149307790533638e-01
1.709442211055276e+00 -9.7761790253046665e-01 -1.3396861589148512e-01 -1.0923397302320701e-02  1.0602076666126798e-02 -1.0923397302328375e-02  1.0602076666144112e-02 -2.1990016069646939e-01 -9.0798579829285309e-01
1.794864321608040e+00 -9.8764639701730506e-01 -2.2222975529682897e-02 -3.3889207494215918e-03  7.7581874520308361e-03 -3.3889207494121718e-03  7.7581874520345397e-03 -7.3872621105515901e-01 -5.8958941384349073e-01
1.880286432160804e+00 -9.8558557695743854e-01  7.6897073870161342e-02 -4.4800218944346121e-04  5.0672930329981845e-03 -4.4800218944289521e-04  5.0672930329987969e-03 -9.4282853963540714e-01 -1.2787668053692369e-01
1.965708542713568e+00 -9.7496752060419212e-01  1.6598232829970486e-01  6.5748555707129716e-04  3.2416269946928364e-03  6.5748555706903313e-04  3.2416269946908389e-03 -8.9881356796650702e-01  3.1866520664675602e-01
2.051130653266332e+00 -9.5795871813288846e-01  2.4681119994760581e-01  1.0453984221247198e-03  2.0553932313927322e-03  1.0453984221272736e-03  2.0553932313994170e-03 -6.6439954651869038e-01  6.8213125174518441e-01
2.136552763819096e+00 -9.3600237555793075e-01  3.2067080586762686e-01  1.1411797572707231e-03  1.2814513009530460e-03  1.1411797572655623e-03  1.2814513009587532e-03 -2.7370258336474046e-01  9.0682607330277265e-01
2.221974874371859e+00 -9.1008816401495796e-01  3.8855701899315304e-01  1.1470483885033169e-03  7.6496890959613581e-04  1.1470483884857957e-03  7.6496890956898218e-04  2.2770015581682149e-01  9.1031620830572080e-01
2.307396984924623e+00 -8.8087241099226787e-01  4.5123551047470034e-01  1.1445327065762441e-03  3.4683088758145848e-04  1.1445327065762905e-03  3.4683088758601078e-04  7.1233058421647921e-01  5.9202139250977415e-01
2.392819095477387e+00 -8.4881181917658910e-01  5.0925407125566835e-01  1.0662903916157341e-03 -7.7975974643080528e-05  1.0662903916265362e-03 -7.7975974650616885e-05  9.1381086688896862e-01 -4.0755944158303352e-02
2.478241206030151e+00 -8.1427143827200477e-01  5.6300806539613057e-01  8.1685375699377060e-04 -4.4214952311374294e-04  8.1685375699117003e-04 -4.4214952310928557e-04  6.0644571870672759e-01 -6.7936648561098556e-01
2.563663316582915e+00 -7.7755947354154975e-01  6.1280538954409103e-01  4.6423767110500457e-04 -6.1383706723267797e-04  4.6423767115320462e-04 -6.1383706724207356e-04 -3.2093248797670240e-02 -9.1549773855938721e-01
2.649085427135678e+00 -7.3893509016347014e-01  6.5889623309010315e-01  1.5668275711503408e-04 -6.0423447020149833e-04  1.5668275743275541e-04 -6.0423447017825412e-04 -5.9765856187344824e-01 -7.0632547895499631e-01
2.734507537688442e+00 -6.9861653321035688e-01  7.0148538160897234e-01 -5.3429711562075930e-05 -5.1195851869015123e-04 -5.3429711393438670e-05 -5.1195851864989947e-04 -8.9178078084658563e-01 -2.7348396022193683e-01
2.819929648241206e+00 -6.5679033234767970e-01  7.4073998352544868e-01 -1.9121087803212203e-04 -4.0015447771610230e-04 -1.9121087784473520e-04 -4.0015447763451631e-04 -9.1595810729579896e-01  1.9530626657177982e-01
2.905351758793970e+00 -6.1361953422630555e-01  7.7679588302924696e-01 -2.9020526990309600e-04 -2.8160296584496568e-04 -2.9020526968423521e-04 -2.8160296600352358e-04 -7.1979230380636394e-01  5.9846762270596932e-01
2.990773869346734e+00 -5.6925065721751644e-01  8.0976307455302199e-01 -3.6326570263058960e-04 -1.4262422090410035e-04 -3.6326570256739742e-04 -1.4262422064044731e-04 -3.4387848159360229e-01  8.6515042252047925e-01
3.076195979899498e+00 -5.2381976880573422e-01  8.3973093271365862e-01 -3.9314184639006498e-04  3.3986827730445630e-05 -3.9314184605241260e-04  3.3986827490153584e-05  1.6243271966067671e-01  9.0618185103873050e-01
3.161618090452261e+00 -4.7745748951689881e-01  8.6677451287712215e-01 -3.3285293519474810e-04  2.3854138785607174e-04 -3.3285293517757120e-04  2.3854138770545589e-04  6.6929274887847645e-01  6.0970828851800696e-01
3.247040201005025e+00 -4.3029060390385721e-01  8.9096277240831057e-01 -1.4417744502209152e-04  3.9721058221760280e-04 -1.4417744500769866e-04  3.9721058221946014e-04  8.8934726899314465e-01 -3.1997730062016616e-02
3.332462311557789e+00 -3.8243664625470308e-01  9.1236523051701646e-01  1.1469765021838787e-04  4.0521118349458649e-04  1.1469765022686294e-04  4.0521118349538246e-04  5.5862518418444029e-01 -6.8507655830991332e-01
3.417884422110553e+00 -3.3399468397056303e-01  9.3104850813588158e-01  3.0962891155183439e-04  2.6323287013548961e-04  3.0962891155731601e-04  2.6323287010899556e-04 -1.2082840062285943e-01 -8.8263959597774599e-01
3.503306532663317e+00 -2.8504612427395526e-01  9.4706340473275219e-01  3.8566734425338965e-04  6.8239161151173455e-05  3.8566734425676748e-04  6.8239161148099119e-05 -6.7967659843072037e-01 -5.9360882875697707e-01
3.588728643216081e+00 -2.3566870615180774e-01  9.6043934668422537e-01  3.6806809399748421e-04 -1.1479885260672244e-04  3.6806809403913926e-04 -1.1479885257779490e-04 -9.0618398924522092e-01 -8.9391338414744004e-02
3.674150753768844e+00 -1.8594762329142839e-01  9.7119263308075443e-01  2.8570576287708922e-04 -2.6468411337604618e-04  2.8570576285225329e-04 -2.6468411338939103e-04 -8.1347674984263918e-01  4.1305653818178301e-01
3.759572864321608e+00 -1.3597588358268867e-01  9.7933661605755251e-01  1.5404152635470147e-04 -3.7173203375299600e-04  1.5404152633559389e-04 -3.7173203375815388e-04 -4.5721879214939121e-01  7.8274242263187821e-01
3.844994974874372e+00 -8.5850519463614772e-02  9.8488676927426499e-01 -1.7861004385905708e-05 -4.2153175451493957e-04 -1.7861004382834303e-05 -4.2153175451325580e-04  9.6134783939263641e-02  8.8688188181432948e-01
3.930417085427136e+00 -3.5670633601278083e-02  9.8786525758097188e-01 -2.0945960260702700e-04 -3.8661166826267683e-04 -2.0945960259947913e-04 -3.8661166826626554e-04  6.6479051575810655e-01  5.6206557514344246e-01
4.015839195979900e+00  1.4482544391367268e-02  9.8835225051225850e-01 -3.7431038407445766e-04 -2.5298709238419668e-04 -3.7431038406710845e-04 -2.5298709239341902e-04  8.3524325257057797e-01 -1.7097341547178971e-01
4.101261306532663e+00  6.4700580703808588e-02  9.8602362070673810e-01 -4.1933668430905904e-04 -5.1954167016090815e-05 -4.1933668430985479e-04 -5.1954167017872308e-05  3.4528443433051764e-01 -7.8089793589373102e-01
4.186683417085428e+00  1.1438696875902918e-01  9.8128490480287522e-01 -3.8332320409895267e-04  1.0422126760256194e-04 -3.8332320410101449e-04  1.0422126759442878e-04 -3.7367462584133782e-01 -7.8518127011701710e-01
4.272105527638191e+00  1.6381862409645104e-01  9.7404512702388046e-01 -3.2284011055593926e-04  2.1968702968262454e-04 -3.2284011055976948e-04  2.1968702968076369e-04 -8.1443405269413927e-01 -3.4081454903640829e-01
4.357527638190955e+00  2.1283114955082791e-01  9.6428693554759359e-01 -2.5592791141971404e-04  3.3620906710070793e-04 -2.5592791141590068e-04  3.3620906710099340e-04 -8.5489024320845342e-01  2.2870769427236479e-01
4.442949748743718e+00  2.6131213308228707e-01  9.5203097530357650e-01 -1.3400724157702478e-04  4.8829965778867388e-04 -1.3400724154273444e-04  4.8829965778980861e-04 -5.1655594390598836e-01  7.0255964059711462e-01
4.528371859296483e+00  3.0915906086907463e-01  9.3730223476046781e-01  1.5247066930952415e-04  6.2896135987514264e-04  1.5247066930496473e-04  6.2896135987767316e-04  1.4094594683203465e-01  8.2968153087295649e-01
4.613793969849247e+00  3.5627697065013875e-01  9.2012626777244255e-01  6.3216084080426995e-04  5.0719217465732805e-04  6.3216084080238409e-04  5.0719217466166269e-04  7.4900247080623705e-01  2.9657746779062810e-01
4.699216080402010e+00  4.0257593120928542e-01  9.0052366949481955e-01  8.9783092445125802e-04 -6.1296450014643175e-05  8.9783092444932423e-04 -6.1296450012439629e-05  5.6899834008238892e-01 -5.6758159689263443e-01
4.784638190954774e+00  4.4796505576678702e-01  8.7850790608117968e-01  6.4050753146747529e-04 -6.1825247506637026e-04  6.4050753146648249e-04 -6.1825247506608859e-04 -1.9639927240301297e-01 -8.0971804683303539e-01
4.870060301507539e+00  4.9234771592361815e-01  8.5408765737869563e-01  1.6964189964686110e-04 -8.5158203853307065e-04  1.6964189964981170e-04 -8.5158203852707360e-04 -7.4646757580020495e-01 -4.0406750187771329e-01
4.955482412060302e+00  5.3561993973226341e-01  8.2727062415562114e-01 -3.2874865590254833e-04 -8.4156872747097062e-04 -3.2874865592311993e-04 -8.4156872746604932e-04 -7.7503750711106567e-01  2.7060491142203563e-01
5.040904522613066e+00  5.7767138692789710e-01  7.9806618320461609e-01 -8.5854864184110467e-04 -5.0079360156375533e-04 -8.5854864183368157e-04 -5.0079360156663388e-04 -1.0876157658245442e-02  7.1211970293551508e-01
5.126326633165829e+00  6.1838668442682232e-01  7.6648620518748323e-01 -8.4188781703415229e-04  2.6105540037504226e-04 -8.4188781703352041e-04  2.6105540037385397e-04  6.4003172135777298e-01 -2.4081260795935708e-01
5.211748743718593e+00  6.5764673111567884e-01  7.3254449112921716e-01 -3.8498393200345053e-04  4.6228002791652150e-04 -3.8498393200274525e-04  4.6228002791842915e-04 -1.0573909444921470e-01 -8.2143881437726896e-01
5.297170854271357e+00  6.9532763512123730e-01  6.9625532268079715e-01 -1.6851271232294472e-04  4.4257602886293231e-04 -1.6851271232242698e-04  4.4257602886776151e-04 -6.3886790079773370e-01 -6.3287525211401852e-01
5.382592964824121e+00  7.3130005484690963e-01  6.5763389823515306e-01  1.8068782209381167e-05  4.9957195146219265e-04  1.8068782216400312e-05  4.9957195146884390e-04 -8.6108872356429567e-01 -3.3749109995806725e-01
5.468015075376885e+00  7.6542751509337159e-01  6.1668624268110850e-01  1.0875952825076514e-03 -2.0933181880254534e-04  1.0875952825136267e-03 -2.0933181880501556e-04 -8.0258555550866495e-01 -7.0963897462117620e-02
5.553437185929649e+00  7.9755497464071623e-01  5.7346150433598797e-01 -2.7191952155586878e-04  6.0572601804981803e-06 -2.7191952155868938e-04  6.0572601684612399e-06 -9.4570849399863388e-01  3.6966006943926086e-02
5.638859296482413e+00  8.2754983512660085e-01  5.2794983248523508e-01 -1.7132754516482808e-04  2.0947870656952576e-04 -1.7132754516338002e-04  2.0947870657399761e-04 -9.3259848933195244e-01  2.2091020941581430e-01
5.724281407035177e+00  8.5524290820551141e-01  4.8017989416969281e-01 -7.5594458032274620e-05  2.8773639929440128e-04 -7.5594458031593917e-05  2.8773639929909436e-04 -8.9145026404412664e-01  3.6513690939728044e-01
5.809703517587939e+00  8.8046741319231914e-01  4.3017023153193396e-01  2.3803214595115602e-05  3.2086903239490126e-04  2.3803214601809517e-05  3.2086903239213346e-04 -8.3669597149995845e-01  4.8369702808377990e-01
5.895125628140703e+00  9.0304398912005879e-01  3.7793229313664478e-01  1.2389290854517829e-04  3.1828664074599335e-04  1.2389290854923456e-04  3.1828664074396817e-04 -7.7389753778926196e-01  5.8261035048744880e-01
5.980547738693468e+00  9.2277349198868885e-01  3.2346778269236248e-01  2.1576621475527286e-04  2.8401577384638691e-04  2.1576621478587165e-04  2.8401577381421055e-04 -7.0615197869012336e-01  6.6559094172217248e-01
6.065969849246232e+00  9.3942751982274741e-01  2.6676869618727095e-01  2.9099906440389716e-04  2.2476260156673527e-04  2.9099906438977456e-04  2.2476260159015241e-04 -6.3538913315709589e-01  7.3523191796354859e-01
6.151391959798995e+00  9.5273890650592263e-01  2.0781945964882084e-01  3.4479720745355985e-04  1.4907041786730077e-04  3.4479720745885011e-04  1.4907041786408514e-04 -5.6289173943837645e-01  7.9345289643088668e-01
6.236814070351759e+00  9.6239183066964185e-01  1.4659907597546301e-01  3.7610499660359852e-04  6.4999889567418932e-05  3.7610499661518268e-04  6.4999889560664041e-05 -4.8955426637501265e-01  8.4172918295232213e-01
6.322236180904524e+00  9.6800910592683931e-01  8.3082333639306422e-02  3.8618329674779768e-04 -2.1181237807577002e-05  3.8618329674866016e-04 -2.1181237810972852e-05 -4.1602494917843569e-01  8.8122717462417399e-01
6.407658291457287e+00  9.6913363293122201e-01  1.7240734565307472e-02  3.7712075265451873e-04 -1.0504943840730634e-04  3.7712075265423938e-04 -1.0504943840338963e-04 -3.4278899130845553e-01  9.1289043885983623e-01
6.493080402010050e+00  9.6520064292765273e-01 -5.0955322995809876e-02  3.5093285931497994e-04 -1.8337359491059571e-04  3.5093285932519573e-04 -1.8337359490354016e-04 -2.7021996122956082e-01  9.3749719301812418e-01
6.578502512562814e+00  9.5549583737229427e-01 -1.2153089684040759e-01  3.0932849472850262e-04 -2.5326557817208873e-04  3.0932849472950844e-04 -2.5326557819287365e-04 -1.9861292478925219e-01  9.5570026853344370e-01
6.663924623115578e+00  9.3909075512834361e-01 -1.9449355146267142e-01  2.5406417117369775e-04 -3.1142815179403338e-04  2.5406417117635681e-04 -3.1142815179316548e-04 -1.2820645200523217e-01  9.6805588027615208e-01
6.749346733668342e+00  9.1473866503765311e-01 -2.6980480604325657e-01  1.8781732518474061e-04 -3.5372510725918541e-04  1.8781732517571985e-04 -3.5372510726560823e-04 -5.9197459027949609e-02  9.7504492404172893e-01
6.834768844221106e+00  8.8069650176192438e-01 -3.4731533797160841e-01  1.1544877574125405e-04 -3.7534207019423744e-04  1.1544877574454366e-04 -3.7534207020659637e-04  8.2488102552526737e-03  9.7708900719781111e-01
6.920190954773870e+00  8.3439453195013169e-01 -4.2660539796630798e-01  4.5291238330832748e-05 -3.7171261137255784e-04  4.5291238331719971e-05 -3.7171261137211570e-04  7.3992174845243050e-02  9.7456246756610765e-01
7.005613065326634e+00  7.7175002077538024e-01 -5.0652911208355156e-01 -1.0034389611706127e-05 -3.3963599431532574e-04 -1.0034389614068914e-05 -3.3963599431392338e-04  1.3791308857830983e-01  9.6780110769050554e-01
7.091035175879398e+00  6.8551780970018650e-01 -5.8351026404260797e-01 -3.2161547031186339e-05 -2.7536729622601620e-04 -3.2161547032378392e-05 -2.7536729622269703e-04  1.9990927547406684e-01  9.5710829833097677e-01
7.176457286432161e+00  5.6208323733361554e-01 -6.4133808333166542e-01  2.5146557485436422e-05 -1.5800643308731414e-04  2.5146557485156555e-05 -1.5800643309207745e-04  2.5989262621416054e-01  9.4275932726368283e-01
7.261879396984924e+00  4.5519776335639472e-01 -6.1784991712983328e-01  4.2818133419175421e-04 -1.2044738867412692e-04  4.2818133419136921e-04 -1.2044738867737756e-04  3.1778580310364796e-01  9.2500429028261588e-01
7.347301507537689e+00  3.2643611376356030e-01 -6.8973312128962116e-01  7.0387079079379069e-04 -4.1095294307043285e-04  7.0387079076152678e-04 -4.1095294309859625e-04  3.7351825757110196e-01  9.0407385755744862e-01
7.432723618090453e+00  1.7084650897074308e-01 -5.4310922300771980e-01  1.8957424376393980e-03 -1.5121667876523081e-03  1.8957424376480230e-03 -1.5121667876418486e-03  4.2702151888036405e-01  8.8017434566267305e-01
7.518145728643217e+00  9.0839449002955125e-02 -6.1073996663635277e-01 -3.8444668460741393e-04 -4.1498243563756884e-03 -3.8444668460211061e-04 -4.1498243563697105e-03  4.7822941138614888e-01  8.5353565961426092e-01
7.603567839195980e+00 -1.3794029321520876e-01 -2.9781615358458918e-01 -3.6343420933210653e-03 -3.7935579135119904e-03 -3.6343420933302004e-03 -3.7935579135178030e-03  5.2711240702969009e-01  8.2431985302887067e-01
7.688989949748745e+00  2.2432135866904715e-01  8.1524150895495345e-04 -5.9047695641064775e-03 -3.3427829948357122e-04 -5.9047695641088697e-03 -3.3427829948387013e-04  5.7358625964689181e-01  7.9271810749951654e-01
7.774412060301509e+00  4.6755408499656359e-01 -3.6999580529740900e-01 -4.1756341156210103e-03  2.7086675453388523e-03 -4.1756341156189572e-03  2.7086675453531941e-03  6.1762388319723982e-01  7.5893068157264099e-01
7.859834170854271e+00  1.1008494523691729e-01 -6.4610928478024410e-01 -2.4834702408247072e-03  2.8979990327759929e-03 -2.4834702408240272e-03  2.8979990327871398e-03  6.5919833370318881e-01  7.2310837480822010e-01
