# GHz S RI R 50

1.000000000000000e-03  7.7646345207364243e-04 -2.2398222827536957e-03  9.9916282320119865e-01 -5.8805753731600678e-03  9.9916282320120497e-01 -5.8805753731781705e-03  7.7536006765924106e-04 -2.2388247071371166e-03
8.642211055276383e-02 -8.5045402534855957e-02 -1.6567959866848758e-01  8.5963909556498019e-01 -4.6868660266041862e-01  8.5963909556498019e-01 -4.6868660266041884e-01 -9.1467021814200480e-02 -1.6190414163490963e-01
1.718442211055277e-01 -2.5550075995380778e-01 -1.9372025351253327e-01  5.3675931817731704e-01 -7.7354444734800010e-01  5.3675931817731837e-01 -7.7354444734800210e-01 -2.6937748959440205e-01 -1.7269449167093753e-01
2.572663316582915e-01 -3.7443889934946345e-01 -8.8216786504476924e-02  1.5462328908706241e-01 -9.0216094347292120e-01  1.5462328908706144e-01 -9.0216094347291576e-01 -3.8125981427752598e-01 -4.3680692230596847e-02
3.426884422110553e-01 -3.7014766378653180e-01  6.6382984652924554e-02 -2.3621476260274404e-01 -8.8591699787465517e-01 -2.3621476260274427e-01 -8.8591699787465594e-01 -3.5432469348684342e-01  1.2285855334251476e-01
4.281105527638192e-01 -2.3948796859189919e-01  1.6564072400306201e-01 -6.1854671291523888e-01 -7.1429289349459202e-01 -6.1854671291523566e-01 -7.1429289349458813e-01 -2.0189181418795696e-01  2.0861014959421537e-01
5.135326633165830e-01 -6.3624297253522200e-02  1.1239884214873791e-01 -9.1506056990966933e-01 -3.4451654744241733e-01 -9.1506056990948981e-01 -3.4451654744229337e-01 -3.4255010962296460e-02  1.2404018666631116e-01
5.989547738693468e-01 -9.0944878826294852e-03 -7.9618616537313822e-02 -9.6649280871691989e-01  1.6838769094332051e-01 -9.6649280871694510e-01  1.6838769094332856e-01 -2.7109704181043536e-02 -7.4946460386805608e-02
6.843768844221106e-01 -1.4323433139225233e-01 -2.2341645253077383e-01 -7.2256957227702323e-01  6.1191125323591733e-01 -7.2256957227702368e-01  6.1191125323591755e-01 -2.0094042364922379e-01 -1.7183266991412954e-01
7.697989949748745e-01 -3.1942323857384552e-01 -1.8567598002541369e-01 -3.2313689770530729e-01  8.5101596439992278e-01 -3.2313689770531095e-01  8.5101596439993321e-01 -3.6129623029898583e-01 -7.0348896846372827e-02
8.552211055276383e-01 -3.6903540577478838e-01 -1.9445777176417055e-02  1.2749325009668147e-01  8.9876264717051635e-01  1.2749325009668441e-01  8.9876264717053456e-01 -3.4940046031554989e-01  1.1596762954914203e-01
9.406432160804020e-01 -2.1902219329280279e-01  1.0986330356555184e-01  6.0805271540217076e-01  7.2230199280117002e-01  6.0805271540212635e-01  7.2230199280117535e-01 -1.5672431389552263e-01  1.8722504071204690e-01
1.026065326633166e+00 -4.2689379621565979e-03 -1.1368146487365217e-02  9.4810252312392218e-01  2.0516435898691304e-01  9.4810252312393084e-01  2.0516435898691859e-01 -1.3021084536881472e-02 -7.9859343494077806e-03
1.111487437185930e+00 -6.5693416031500890e-02 -2.5514652764933043e-01  8.1725818188421240e-01 -4.4663372878461649e-01  8.1725818188420918e-01 -4.4663372878459018e-01 -1.8869503590129766e-01 -1.8155148759047243e-01
1.196909547738694e+00 -2.2552207003397534e-01 -1.9202801216974855e-01  2.8841788833519427e-01 -8.6777218941202805e-01  2.8841788833517562e-01 -8.6777218941200795e-01 -2.9045394967706517e-01  1.1230825879362737e-03
1.282331658291457e+00  1.6718595935563405e-01 -2.3311809937110384e-01 -6.3707789145334970e-01 -6.1927906305599978e-01 -6.3707789145347149e-01 -6.1927906305591063e-01  1.4543798202322852e-01 -2.2473899442207970e-01
1.367753768844221e+00 -2.3859628516577244e-01 -8.4402322621834647e-01 -3.5649349882039028e-01  1.6101415917353903e-01 -3.5649349882038056e-01  1.6101415917353121e-01 -5.6374216793704224e-01 -6.6374932888916183e-01
1.453175879396985e+00 -6.7574403562700858e-01 -6.9129882618232652e-01 -8.3683027101225632e-02  1.2420426580357527e-01 -8.3683027101243757e-02  1.2420426580356819e-01 -9.2256303652703109e-01 -2.7411180532034418e-01
1.538597989949749e+00 -8.5334402706699719e-01 -4.8505398272861061e-01 -1.9299179668450735e-02  6.5801968268849140e-02 -1.9299179668450735e-02  6.5801968268848127e-02 -9.7713543641076150e-01  3.8911061903128888e-02
1.624020100502513e+00 -9.3558274454190826e-01 -3.1064761602067215e-01 -2.5819206412305753e-03  3.5571307852798710e-02 -2.5819206412246712e-03  3.5571307852801853e-02 -9.4552339616280012e-01  2.6680304094605911e-01
1.709442211055276e+00 -9.7401626736653757e-01 -1.6342389557766648e-01  1.8657203110988489e-03  2.0181913037369697e-02  1.8657203110969286e-03  2.0181913037365894e-02 -8.8048740006931892e-01  4.4029618454956587e-01
1.794864321608040e+00 -9.8799832287005895e-01 -3.6434767314048169e-02  2.7938572377052676e-03  1.1978190813182233e-02  2.7938572377116172e-03  1.1978190813185722e-02 -7.9946994532758109e-01  5.7640070414548339e-01
1.880286432160804e+00 -9.8650682499970876e-01  7.5097774081372082e-02  2.6856670320255728e-03  7.3729012872286882e-03  2.6856670320355596e-03  7.3729012872265180e-03 -7.1002061117046933e-01  6.8469330081149637e-01
1.965708542713568e+00 -9.7437697024773340e-01  1.7434781447850597e-01  2.3022095383731346e-03  4.6658890538311421e-03  2.3022095383755997e-03  4.6658890538339316e-03 -6.1608339175906524e-01  7.7104903722530793e-01
2.051130653266332e+00 -9.5450968725266405e-01  2.6349335530206824e-01  1.8858859910876665e-03  3.0148130414878677e-03  1.8858859910876027e-03  3.0148130414883491e-03 -5.2001328243516343e-01  8.3937200999824901e-01
2.136552763819096e+00 -9.2878621445692233e-01  3.4409146601942764e-01  1.5117406595953303e-03  1.9789527150184520e-03  1.5117406596043175e-03  1.9789527150225854e-03 -4.2335432925954070e-01  8.9243344199260588e-01
2.221974874371859e+00 -8.9849841540963815e-01  4.1729538854710618e-01  1.1978500792624580e-03  1.3153832700325946e-03  1.1978500792631868e-03  1.3153832700313131e-03 -3.2718831566398654e-01  9.3230615048538257e-01
2.307396984924623e+00 -8.6457423455321969e-01  4.8398382984750038e-01  9.4285181525287809e-04  8.8410722688279529e-04  9.4285181525704956e-04  8.8410722688746148e-04 -2.3231093632156774e-01  9.6060680749428595e-01
2.392819095477387e+00 -8.2770570159296630e-01  5.4484210198257943e-01  7.3948996926732902e-04  6.0135245774269952e-04  7.3948996926874260e-04  6.0135245774323317e-04 -1.3932899529201442e-01  9.7864001831238767e-01
2.478241206030151e+00 -7.8842590977549221e-01  6.0041549527746485e-01  5.7955142146500795e-04  4.1530775730217736e-04  5.7955142146645688e-04  4.1530775730133651e-04 -4.8717700249757023e-02  9.8748850630771823e-01
2.563663316582915e+00 -7.4715735785428716e-01  6.5114567867332829e-01  4.5552898812322026e-04  2.9293557058392616e-04  4.5552898815008337e-04  2.9293557058168983e-04  3.9143660880359685e-02  9.8807188508973731e-01
2.649085427135678e+00 -7.0424339041758133e-01  6.9739622303768789e-01  3.6102285260457691e-04  2.1254007873776123e-04  3.6102285264242369e-04  2.1254007874764287e-04  1.2394838467683653e-01  9.8118625123362924e-01
2.734507537688442e+00 -6.5996926643823128e-01  7.3947090075338817e-01  2.9067479574695980e-04  1.5945354276574142e-04  2.9067479575688274e-04  1.5945354276769995e-04  2.0544637453398928e-01  9.6753163637415873e-01
2.819929648241206e+00 -6.1457665852409116e-01  7.7762705553884648e-01  2.3995097276884183e-04  1.2347286483876455e-04  2.3995097281133074e-04  1.2347286484164834e-04  2.8343272477819553e-01  9.4773154965650408e-01
2.905351758793970e+00 -5.6827388047065397e-01  8.1208553808711714e-01  2.0489324286319591e-04  9.7312850508958176e-05  2.0489324285885937e-04  9.7312850504459550e-05  3.5773923872786290e-01  9.2234724503569387e-01
2.990773869346734e+00 -5.2124327363920187e-01  8.4303821752013286e-01  1.8188055820113252e-04  7.5676794489618380e-05  1.8188055817776693e-04  7.5676794490875038e-05  4.2822790352185053e-01  8.9188840496797528e-01
3.076195979899498e+00 -4.7364665887270790e-01  8.7065377699203705e-01  1.6741722723288331e-04  5.4729553052390868e-05  1.6741722736460943e-04  5.4729553096368345e-05  4.9478572651910163e-01  8.5682135550321337e-01
3.161618090452261e+00 -4.2562942052691138e-01  8.9508230833913471e-01  1.5797159253960863e-04  3.1861539799576320e-05  1.5797159248753088e-04  3.1861539800999573e-05  5.5732056958577647e-01  8.1757556425375888e-01
3.247040201005025e+00 -3.7732354335502649e-01  9.1645907805778659e-01  1.4991723806788971e-04  5.6780996200161281e-06  1.4991723806030428e-04  5.6780996216205475e-06  6.1575777425831890e-01  7.7454892553162547e-01
3.332462311557789e+00 -3.2884973421874841e-01  9.3490768823015613e-01  1.3966376183451463e-04 -2.3864749327289661e-05  1.3966376184082677e-04 -2.3864749328603890e-05  6.7003747090487042e-01  7.2811214581023542e-01
3.417884422110553e+00 -2.8031865685068152e-01  9.5054265493030088e-01  1.2406085530171503e-04 -5.5334386950215131e-05  1.2406085531251594e-04 -5.5334386952795465e-05  7.2011250218297240e-01  6.7861237263467911e-01
3.503306532663317e+00 -2.3183138032685513e-01  9.6347120156220889e-01  1.0104787387473098e-04 -8.5956452396020413e-05  1.0104787387569591e-04 -8.5956452396324044e-05  7.6594683246555373e-01  6.2637608140284684e-01
3.588728643216081e+00 -1.8347943574922659e-01  9.7379399691984903e-01  7.0287095764610190e-05 -1.1223339300464758e-04  7.0287095758708756e-05 -1.1223339300227289e-04  8.0751417837463313e-01  5.7171123085365882e-01
3.674150753768844e+00 -1.3534517182327749e-01  9.8160488587947958e-01  3.3339302542267267e-05 -1.3098303541853477e-04  3.3339302543318320e-05 -1.3098303541908597e-04  8.4479652268239203e-01  5.1490888351147224e-01
3.759572864321608e+00 -8.7502938708924435e-02  9.8699023840131939e-01 -6.8891265057982673e-06 -1.4032854849531314e-04 -6.8891265054425575e-06 -1.4032854849557679e-04  8.7778235501070578e-01  4.5624471857856286e-01
3.844994974874372e+00 -4.0020889214400120e-02  9.9002874138905195e-01 -4.7188952641149169e-05 -1.4008481062594493e-04 -4.7188952638185380e-05 -1.4008481062784600e-04  9.0646485259768561e-01  3.9598083764142156e-01
3.930417085427136e+00  7.0375615675001071e-03  9.9079177246225569e-01 -8.4984758854533720e-05 -1.3139611418200824e-04 -8.4984758850352224e-05 -1.3139611418483673e-04  9.3084040893861664e-01  3.3436791129612120e-01
4.015839195979900e+00  5.3613822310126791e-02  9.8934243425226065e-01 -1.1869405750871160e-04 -1.1590441469723092e-04 -1.1869405751241844e-04 -1.1590441469437193e-04  9.5090773448748322e-01  2.7164736530299766e-01
4.101261306532663e+00  9.9641860723159434e-02  9.8572918321163416e-01 -1.4512677905590887e-04 -9.5759070890211577e-05 -1.4512677905592308e-04 -9.5759070890129503e-05  9.6666718259512419e-01  2.0805314802700248e-01
4.186683417085428e+00  1.4514906689152171e-01  9.7989247269089652e-01 -1.7158046459063884e-04 -7.4622258741097400e-05 -1.7158046459231184e-04 -7.4622258739419502e-05  9.7811758422157336e-01  1.4381481872427745e-01
4.272105527638191e+00  1.8953870129955289e-01  9.7240771939242332e-01 -1.9506780659413203e-04 -4.6675511876352621e-05 -1.9506780659752382e-04 -4.6675511872515887e-05  9.8527744751111335e-01  7.9162254941244611e-02
4.357527638190955e+00  2.3366504698789162e-01  9.6278427327688587e-01 -2.1146148281254279e-04 -1.8706006376792530e-05 -2.1146148281075202e-04 -1.8706006379117531e-05  9.8813681821570931e-01  1.4305476812456549e-02
4.442949748743718e+00  2.7695560904607464e-01  9.5121223390871423e-01 -2.2498914068344190e-04  1.1047674728203583e-05 -2.2498914068587702e-04  1.1047674731515598e-05  9.8670946914407287e-01 -5.0527399123469291e-02
4.528371859296483e+00  3.1941732953740787e-01  9.3777302280868835e-01 -2.3541270733100215e-04  4.2451785561541669e-05 -2.3541270732920457e-04  4.2451785558515925e-05  9.8100538687762651e-01 -1.1511750244365986e-01
4.613793969849247e+00  3.6101386313234524e-01  9.2251646367746720e-01 -2.4273062395347369e-04  7.5494307938211598e-05 -2.4273062395307820e-04  7.5494307937653044e-05  9.7103662244202094e-01 -1.7924436241618030e-01
4.699216080402010e+00  4.0170381548469880e-01  9.0548823054743421e-01 -2.4685758550985556e-04  1.1021268814692691e-04 -2.4685758550921496e-04  1.1021268814555236e-04  9.5681771038190855e-01 -2.4268551734155291e-01
4.784638190954774e+00  4.4144544390321266e-01  8.8673118656539751e-01 -2.4760161408405793e-04  1.4666008509286313e-04 -2.4760161408323073e-04  1.4666008509052101e-04  9.3836607317070952e-01 -3.0521544930133793e-01
4.870060301507539e+00  4.8019747937843688e-01  8.6628549607726058e-01 -2.4465595464233191e-04  1.8488441280645142e-04 -2.4465595464356822e-04  1.8488441280937071e-04  9.1570255138293921e-01 -3.6660446039000782e-01
4.955482412060302e+00  5.1791915122968435e-01  8.4418859940447544e-01 -2.3758450995624200e-04  2.2490546329056858e-04 -2.3758450995689265e-04  2.2490546328790298e-04  8.8885206307089870e-01 -4.2661753640532013e-01
5.040904522613066e+00  5.5456997996795721e-01  8.2047516619339234e-01 -2.2580102204378705e-04  2.6667843902825370e-04 -2.2580102204504242e-04  2.6667843903326218e-04  8.5784440266680839e-01 -4.8501319871332060e-01
5.126326633165829e+00  5.9010948715423095e-01  7.9517704426403391e-01 -2.0855078064033346e-04  3.1003394018060945e-04 -2.0855078064136926e-04  3.1003394018657348e-04  8.2271519828747464e-01 -5.4154233835541754e-01
5.211748743718593e+00  6.2449687601910542e-01  7.6832320135713639e-01 -1.8491163225306038e-04  3.5458900267348821e-04 -1.8491163225303915e-04  3.5458900267322128e-04  7.8350705701994294e-01 -5.9594702820923273e-01
5.297170854271357e+00  6.5769070885360792e-01  7.3993964449513350e-01 -1.5383786611856403e-04  3.9963419291686581e-04 -1.5383786611843637e-04  3.9963419291508609e-04  7.4027093809236366e-01 -6.4795931970938836e-01
5.382592964824121e+00  6.8964859163762793e-01  7.1004928704396253e-01 -1.1427093142753978e-04  4.4401924709308252e-04 -1.1427093142740665e-04  4.4401924709191928e-04  6.9306779871000457e-01 -6.9730005006726647e-01
5.468015075376885e+00  7.2032685610242797e-01  6.7867171967358852e-01 -6.5327723898879960e-05  4.8607971108669982e-04 -6.5327723898736100e-05  4.8607971108967536e-04  6.4197054702956613e-01 -7.4367771142088368e-01
5.553437185929649e+00  7.4968019964536814e-01  6.4582283689239817e-01 -6.5469782498907004e-06  5.2365798950912358e-04 -6.5469782503366514e-06  5.2365798950502758e-04  5.8706630436591523e-01 -7.8678745086980717e-01
5.638859296482413e+00  7.7766121099083263e-01  6.1151428496499283e-01  6.1864839993913012e-05  5.5425852307892682e-04  6.1864839993802870e-05  5.5425852307855656e-04  5.2845893024750346e-01 -8.2631025872121733e-01
5.724281407035177e+00  8.0421969032094165e-01  5.7575273136194993e-01  1.3887256023665441e-04  5.7533261204763850e-04  1.3887256023669453e-04  5.7533261204832740e-04  4.6627172506488057e-01 -8.6191234758143498e-01
5.809703517587939e+00  8.2930168263350257e-01  5.3853899426031926e-01  2.2260806184986527e-04  5.8462916683055689e-04  2.2260806184926825e-04  5.8462916682905180e-04  4.0065023363497332e-01 -8.9324463854933422e-01
5.895125628140703e+00  8.5284817922128242e-01  4.9986708517262929e-01  3.1053891758050302e-04  5.8050943428899593e-04  3.1053891758171673e-04  5.8050943429234004e-04  3.3176514341804791e-01 -9.1994219681690526e-01
5.980547738693468e+00  8.7479347707067912e-01  4.5972318963593362e-01  3.9975580862064078e-04  5.6213551249607353e-04  3.9975580862131087e-04  5.6213551249737642e-04  2.5981537817577816e-01 -9.4162343882911137e-01
6.065969849246232e+00  8.9506318500406767e-01  4.1808454969615999e-01  4.8728281096995256e-04  5.2949968784021340e-04  4.8728281096906823e-04  5.2949968783752468e-04  1.8503157809993431e-01 -9.5788896994645989e-01
6.151391959798995e+00  9.1357181381551933e-01  3.7491814726106620e-01  5.7032323407521025e-04  4.8332718311692280e-04  5.7032323407662784e-04  4.8332718312019059e-04  1.0768019839738517e-01 -9.6831996122259445e-01
6.236814070351759e+00  9.3021979571722557e-01  3.3017904343052640e-01  6.4639834601388168e-04  4.2492235973373883e-04  6.4639834601634629e-04  4.2492235973088863e-04  2.8068465899009819e-02 -9.7247598203630392e-01
6.322236180904524e+00  9.4488966255946993e-01  2.8380820571780807e-01  7.1338440697918902e-04  3.5602733766770914e-04  7.1338440698101710e-04  3.5602733766811946e-04 -5.3449542994959499e-02 -9.6989214415376346e-01
6.407658291457287e+00  9.5744097170401976e-01  2.3572963378757530e-01  7.6948097885574495e-04  2.7873688656151221e-04  7.6948097885607108e-04  2.7873688656229463e-04 -1.3646534958441156e-01 -9.6007528434733846e-01
6.493080402010050e+00  9.6770337467106904e-01  1.8584655250514931e-01  8.1314490821633040e-04  1.9548524618851333e-04  8.1314490821707849e-04  1.9548524619264325e-04 -2.2050649430876065e-01 -9.4249872391346257e-01
6.578502512562814e+00  9.7546691820150877e-01  1.3403636026066779e-01  8.4300352265900325e-04  1.0910286725917059e-04  8.4300352266036512e-04  1.0910286726051281e-04 -3.0502403005287193e-01 -9.1659488183460447e-01
6.663924623115578e+00  9.8046814859105758e-01  8.0143885131826159e-02  8.5771685211420506e-04  2.2941563360806782e-05  8.5771685211499869e-04  2.2941563361244146e-05 -3.8937559253649556e-01 -8.8174463551825766e-01
6.749346733668342e+00  9.8236967228238492e-01  2.3972290871063364e-02  8.5567192556991782e-04 -5.8901713236475622e-05  8.5567192556783951e-04 -5.8901713241104650e-05 -4.7280153346672438e-01 -8.3726171807417127e-01
6.834768844221106e+00  9.8072913580591514e-01 -3.4729340865225278e-02  8.3419950644021896e-04 -1.3112141314144447e-04  8.3419950643962720e-04 -1.3112141314265802e-04 -5.5438976426965658e-01 -7.8236941918867908e-01
6.920190954773870e+00  9.7495031454322256e-01 -9.6283182560146022e-02  7.8753855808168856e-04 -1.8600341277717620e-04  7.8753855808178733e-04 -1.8600341277655766e-04 -6.3302143886591389e-01 -7.1616502397746695e-01
7.005613065326634e+00  9.6420221620371172e-01 -1.6110661753459252e-01  7.0159005775106617e-04 -2.0981673103611314e-04  7.0159005775438611e-04 -2.0981673103480863e-04 -7.0728235602935385e-01 -6.3756390788116502e-01
7.091035175879398e+00  9.4727672479417635e-01 -2.2974548490864694e-01  5.4035269898483498e-04 -1.7099566006011614e-04  5.4035269898396524e-04 -1.7099566006047100e-04 -7.7530854644009384e-01 -5.4520785678237882e-01
7.176457286432161e+00  9.2231586640671748e-01 -3.0291755832436817e-01  2.1027194591863335e-04  2.1664986158254325e-05  2.1027194592087385e-04  2.1664986158611282e-05 -8.3449205878680266e-01 -4.3730506796703555e-01
7.261879396984924e+00  8.8621936144450697e-01 -3.8155057258662073e-01 -5.3403446934782391e-04  6.8372378196273676e-04 -5.3403446934648623e-04  6.8372378196323940e-04 -8.8083945394646823e-01 -3.1132458165535343e-01
7.347301507537689e+00  8.3307189698129325e-01 -4.6665278001421412e-01 -2.3015993474855474e-03  3.1238568866697940e-03 -2.3015993474849346e-03  3.1238568866698516e-03 -9.0721066736047673e-01 -1.6335495145169140e-01
7.432723618090453e+00  7.4843406734268436e-01 -5.5697481817822203e-01 -5.4128174151114646e-03  1.4278160659502015e-02 -5.4128174151107863e-03  1.4278160659502742e-02 -8.9599461485122067e-01  1.2634079192864784e-02
7.518145728643217e+00  6.0021348827027043e-01 -6.0353128422565927e-01  3.3624662553319785e-02  6.4901420235916135e-02  3.3624662553321347e-02  6.4901420235916635e-02 -7.8153529996863069e-01  1.8331059309290998e-01
7.603567839195980e+00  5.4735151716871522e-01 -6.4180777739406991e-01  1.1612819807541408e-01 -6.1213864878816873e-02  1.1612819807541473e-01 -6.1213864878817387e-02 -7.4625251443400920e-01  2.7668987376280857e-01
7.688989949748745e+00  3.1907518643103983e-01 -7.1383514818489135e-01  4.4624245468786912e-02 -1.7048537177197784e-01  4.4624245468786489e-02 -1.7048537177197845e-01 -5.5264941926968281e-01  4.8886251869884706e-01
7.774412060301509e+00  1.8171809646331138e-02 -5.3640265496398487e-01 -1.7871116417677327e-01 -2.4838846334297590e-01 -1.7871116417677310e-01 -2.4838846334297432e-01 -1.8039249194817683e-01  4.7581874962296461e-01
7.859834170854271e+00  4.9061771035055324e-02 -1.7419209810326006e-01 -4.4667111549085120e-01  8.2367010112421021e-02 -4.4667111549085209e-01  8.2367010112419883e-02 -4.2718309743944319e-02  1.7346676145200696e-01
