# GHz S RI R 50

1.000000000000000e-03  1.9335869414949893e-03 -3.5013572597436377e-03  9.9793881567973208e-01 -9.3647968515015584e-03  9.9793881567974285e-01 -9.3647968515077739e-03  1.9264324289307402e-03 -3.4954266323644367e-03
4.368717948717949e-01 -1.9542366673000439e-01 -9.6058167477715992e-02 -7.7696131475299612e-01  5.4641146698599330e-01 -7.7696131475301777e-01  5.4641146698600496e-01 -3.2700876160805269e-02 -2.0683707143259453e-01
8.727435897435898e-01 -4.4077164977710526e-01 -1.3088643389923843e-01  9.6968308858773972e-02 -8.3661863147686433e-01  9.6968308858779412e-02 -8.3661863147687476e-01 -4.5378372999140942e-01  1.9433468040890450e-02
1.308615384615385e+00 -6.3997037907693885e-02 -7.8171050399537934e-01  3.0781355051827225e-01 -3.6859343742427031e-01  3.0781355051809112e-01 -3.6859343742413769e-01 -7.2112151947236036e-01  2.5163126294085247e-01
1.744487179487180e+00 -9.8351155852266459e-01 -8.6384246745190435e-02 -6.9996528437895672e-03  9.5809427323454571e-03 -6.9996528437905560e-03  9.5809427323462135e-03 -4.7230827336541076e-01 -8.1185434561750969e-01
2.180358974358974e+00 -9.2315968883146449e-01  3.5617674252961701e-01  1.1469168436230735e-03  9.9409173846938753e-04  1.1469168436230501e-03  9.9409173847453663e-04 -2.5355288870733746e-02  9.4283242461117189e-01
2.616230769230769e+00 -7.5400224225262591e-01  6.4159366943785712e-01  2.6369733396364718e-04 -6.2306443581471450e-04  2.6369733409070889e-04 -6.2306443578559706e-04 -4.0768106402738635e-01 -8.2663306311637541e-01
3.052102564102564e+00 -5.3673349984653584e-01  8.3157759889073013e-01 -3.9139944826698138e-04 -1.9990454628640466e-05 -3.9139944808146756e-04 -1.9990454492100527e-05  1.1411200412454744e-02  9.2403247339402095e-01
3.487974358974359e+00 -2.9386565961565914e-01  9.4438386629218696e-01  3.7996466747863031e-04  1.0344001124994545e-04  3.7996466747587058e-04  1.0344001123972089e-04 -6.0205153863019611e-01 -6.6955132095475078e-01
3.923846153846154e+00 -3.9530215159343567e-02  9.8772661269554718e-01 -1.9529816092959468e-04 -3.9291687870373964e-04 -1.9529816094177155e-04 -3.9291687869717919e-04  6.2879013124323779e-01  6.0458684025822762e-01
4.359717948717949e+00  2.1408134528853132e-01  9.6400378221177496e-01 -2.5384124837730601e-04  3.3960315586973770e-04 -2.5384124837708830e-04  3.3960315587077522e-04 -8.5083423194060614e-01  2.4289327951022877e-01
4.795589743589744e+00  4.5371349941801009e-01  8.7551132211045557e-01  5.8464953301363249e-04 -6.6591828550054881e-04  5.8464953301361688e-04 -6.6591828550090605e-04 -2.8958072825787684e-01 -7.8500602920650997e-01
5.231461538461539e+00  6.6648711117453863e-01  7.2437787943279541e-01 -3.1818034099994924e-04  4.5771634346352601e-04 -3.1818034099930702e-04  4.5771634346459286e-04 -2.6713506586073027e-01 -8.0795579112248628e-01
5.667333333333334e+00  8.3704463970182896e-01  5.1227641322303241e-01 -1.3950068047684439e-04  2.4223633914352352e-04 -1.3950068047119835e-04  2.4223633913955910e-04 -9.2093006947088052e-01  2.7239221899756377e-01
6.103205128205129e+00  9.4565822480434714e-01  2.4135064942469536e-01  3.1722015660336466e-04  1.9328257753175080e-04  3.1722015660601380e-04  1.9328257755268016e-04 -6.0394135881672373e-01  7.6191911581790817e-01
6.539076923076924e+00  9.6074538293319955e-01 -8.8660755072010891e-02  3.3034331448471375e-04 -2.2224887024661867e-04  3.3034331448197326e-04 -2.2224887024944670e-04 -2.3152647408224578e-01  9.4805716038134713e-01
6.974948717948719e+00  7.9647575370797474e-01 -4.7789956669698297e-01  7.1310182457902453e-06 -3.5457229250460034e-04  7.1310182480493000e-06 -3.5457229251196224e-04  1.1518357409920912e-01  9.7069577158982578e-01
7.410820512820513e+00  1.7272054889643523e-01 -6.0042378249788420e-01  1.5200559899695178e-03 -8.5589196616127350e-04  1.5200559899960933e-03 -8.5589196617859395e-04  4.1352076870116616e-01  8.8657436530818656e-01
7.846692307692308e+00  1.8927284436886949e-01 -6.3616489444566671e-01 -2.6147862999986319e-03  2.9582490377284732e-03 -2.6147862999998080e-03  2.9582490377290712e-03  6.5296464708021407e-01  7.2874585438886152e-01
8.282564102564102e+00  2.6881005892658971e-02 -4.9120142066002775e-01  8.7656999532685579e-03  9.7309002276848113e-04  8.7656999532447072e-03  9.7309002278251255e-04  8.2744658036948848e-01  5.2146211755023064e-01
8.718435897435898e+00  6.3527997457378027e-01 -3.1035860334428483e-01  1.4219032135523355e-03  4.4082637376467070e-04  1.4219032135537057e-03  4.4082637376102545e-04  9.3422468659930513e-01  2.8542708512272452e-01
9.154307692307691e+00  6.3397053407816151e-01 -4.4299304340938067e-01 -9.0496544425458742e-04 -1.5324698059645968e-03 -9.0496544424586100e-04 -1.5324698059234934e-03  9.7477918142451170e-01  3.8811506215486340e-02
9.590179487179487e+00  1.2267934624388468e-01  9.5624823661050865e-02  5.1181016206555693e-05  1.7775022897177893e-03  5.1181016206026216e-05  1.7775022897257946e-03  9.5192765935361567e-01 -2.0288845604946329e-01
1.002605128205128e+01  3.5200467106993139e-01  5.3860443619607679e-02  7.6280403601666346e-04  2.9588498830345217e-03  7.6280403599472018e-04  2.9588498830294459e-03  8.7282572886657017e-01 -4.2502835794085353e-01
1.046192307692308e+01  4.8522099873043001e-01 -6.0129749365840879e-01  3.9970941039889547e-04 -3.3663732332935025e-04  3.9970941037671226e-04 -3.3663732332638306e-04  7.4509349896868105e-01 -6.1814018132671467e-01
1.089779487179487e+01  2.5206291404431302e-01 -6.4236070611604690e-01  2.3973354505899078e-03  9.9267698885468830e-04  2.3973354505836008e-03  9.9267698884563304e-04  5.7930155228274993e-01 -7.7039262737708958e-01
1.133366666666667e+01  6.0447677324850256e-02 -8.2626168058847194e-01  1.0449016428245857e-03 -1.6728513169529608e-03  1.0449016428055837e-03 -1.6728513169164509e-03  3.8577397041099287e-01 -8.7941161940101253e-01
1.176953846153846e+01 -2.4764941023145984e-01 -8.2769650232347491e-01 -1.5817345365140602e-03 -1.9263131730818267e-03 -1.5817345365263268e-03 -1.9263131730866661e-03  1.7513863901130755e-01 -9.3965914486863167e-01
1.220541025641026e+01 -5.0544519854025682e-01 -6.9523085315937683e-01 -2.1014049175670773e-03  7.1922530522419280e-04 -2.1014049175685514e-03  7.1922530520827899e-04 -3.9593547457389286e-02 -9.4930252806517801e-01
1.264128205128205e+01 -6.8916786618528869e-01 -4.8624095974680970e-01 -6.4829834045250490e-04  2.7683101481253544e-03 -6.4829834045024575e-04  2.7683101481247212e-03 -2.4860238564449202e-01 -9.1137621265677704e-01
1.307715384615385e+01 -7.7833450822725136e-01 -2.0566175864119549e-01  3.3349281943636489e-03  2.0206919910747819e-03  3.3349281943643636e-03  2.0206919910721859e-03 -4.4197053544056186e-01 -8.2742075480869082e-01
1.351302564102564e+01 -7.3022161659834395e-01 -2.8507949801845796e-02  1.0232810911449835e-03 -2.2693465635068061e-03  1.0232810911450408e-03 -2.2693465635091449e-03 -6.0921052521841335e-01 -7.0372489261706128e-01
1.394889743589744e+01 -6.2267544558310362e-01  1.7953168814041540e-01 -1.2354171576069155e-03 -3.4821700419328254e-03 -1.2354171576070706e-03 -3.4821700419301106e-03 -7.4500719050797215e-01 -5.4686169756693070e-01
1.438476923076923e+01 -4.7541961809304462e-01  3.9629533559633651e-01 -4.4308418842096253e-03  4.4848925150186675e-04 -4.4308418842156786e-03  4.4848925150154490e-04 -8.4171814142160517e-01 -3.6264619957289906e-01
1.482064102564103e+01 -2.4158561951593011e-01  4.1180700312108370e-01 -5.8837772623758326e-04  4.6536836159231975e-03 -5.8837772624909153e-04  4.6536836159280460e-03 -8.9406566296585499e-01 -1.6107695254044060e-01
1.525651282051282e+01 -2.0334195813544242e-01  3.7623536444449934e-01  3.9527655084939245e-03  4.8137513855357517e-04  3.9527655084923381e-03  4.8137513856776060e-04 -8.9904371853237186e-01  4.9453105517797656e-02
1.569238461538462e+01  9.5746586277508886e-02  5.6062918306137488e-01  2.0283019873243635e-03 -1.8744332358911880e-04  2.0283019873275718e-03 -1.8744332358648213e-04 -8.5247334224928162e-01  2.5835805759119046e-01
1.612825641025641e+01  3.0218885567259385e-01 -1.3736872245147885e-01 -3.4316030420574791e-03 -5.9918191592505761e-03 -3.4316030420613181e-03 -5.9918191592580527e-03 -7.5513973651439470e-01  4.5364476239169554e-01
1.656412820512821e+01 -1.2573445334857414e-01  2.9365185007758104e-01 -1.9807063957392665e-03  3.4695624737869145e-03 -1.9807063957447751e-03  3.4695624737889675e-03 -6.0521136758692762e-01  6.2409845462829494e-01
1.700000000000000e+01  4.5585411494121636e-01  1.9627027908859856e-01  2.4995310566863571e-03  6.7271578187531541e-04  2.4995310566821687e-03  6.7271578187141424e-04 -4.0375347221181540e-01  7.4822349985531611e-01
