# GHz S RI R 50

1.000000000000000e-03  1.7988805130531216e-03 -3.4616976000446582e-03  9.9808067172304726e-01 -8.9426127093980342e-03  9.9808067172303594e-01 -8.9426127094015991e-03  1.7932598652026354e-03 -3.4571016095027709e-03
4.368717948717949e-01 -9.9124585747262628e-02 -8.0715658061955908e-02 -8.8145336671475705e-01  3.9346951719754270e-01 -8.8145336671475716e-01  3.9346951719753659e-01 -7.2948179896149814e-03 -1.1895641952230074e-01
8.727435897435898e-01 -2.9712237374551564e-01 -1.5965921643774958e-01  4.0765848194329241e-01 -7.9965732610876050e-01  4.0765848194328269e-01 -7.9965732610874063e-01 -2.9495942230723893e-01 -1.3371953374441664e-01
1.308615384615385e+00  7.9680156364715041e-03 -7.4505953533501501e-01  5.0290907507586302e-01 -1.7089509184220347e-01  5.0290907507586557e-01 -1.7089509184220911e-01 -5.7819739386679936e-01 -4.3880602098792554e-01
1.744487179487180e+00 -9.8356465643331736e-01 -9.1818864902340272e-02 -1.6787070363781222e-02  1.1645334217552123e-03 -1.6787070363786200e-02  1.1645334217528045e-03  8.6158266594079447e-01 -2.9084903462957296e-01
2.180358974358974e+00 -9.2456026948463355e-01  3.5379914992424621e-01  5.9781370819090890e-04  1.6991916325611676e-03  5.9781370819325360e-04  1.6991916325713060e-03 -8.7167825248109077e-01  3.6283277098114775e-01
2.616230769230769e+00 -7.5542175044533655e-01  6.4008695304340868e-01  6.7388248419836217e-04 -1.2091442261487766e-04  6.7388248418900963e-04 -1.2091442261149948e-04  9.0132476041029141e-01 -1.1475283437253790e-02
3.052102564102564e+00 -5.3830931676586613e-01  8.3090169043974771e-01 -1.4255516381205519e-04 -2.1572493380026220e-04 -1.4255516393404808e-04 -2.1572493386737268e-04 -9.1714704408708125e-01  1.2285378618555688e-01
3.487974358974359e+00 -2.9505028963185254e-01  9.4443826262117292e-01 -2.8169640804006633e-05  2.5379944355259263e-04 -2.8169640805268577e-05  2.5379944354940058e-04  8.5953973182392374e-01  2.0552500825763703e-01
3.923846153846154e+00 -4.0467920879430345e-02  9.8793995254578193e-01  2.1174590837349242e-04 -2.6731625034455241e-04  2.1174590836704551e-04 -2.6731625034883902e-04 -8.9086426792608253e-01  1.4162907112294690e-01
4.359717948717949e+00  2.1337723239955020e-01  9.6488873068563918e-01 -3.8944837699355852e-04  1.4651552167385405e-04 -3.8944837698919499e-04  1.4651552167619164e-04  6.5306223943150732e-01 -5.2238205379223779e-01
4.795589743589744e+00  4.5394914459185892e-01  8.7665265884171939e-01  2.9871062092381599e-04  1.1906270849488450e-04  2.9871062092433126e-04  1.1906270849539036e-04 -4.8408612791190769e-03  8.0072219718497328e-01
5.231461538461539e+00  6.6753184416864098e-01  7.2538093529694914e-01 -4.3109096224132023e-04  6.7233478582724596e-05 -4.3109096224389673e-04  6.7233478589989672e-05  3.4136361525615067e-01  9.8440062851054338e-04
5.667333333333334e+00  8.3954247201833510e-01  5.1307561938420942e-01 -2.7121473377840179e-04  6.8352959171713774e-05 -2.7121473377630381e-04  6.8352959172024642e-05 -9.2030413820254831e-01  2.7311716508761508e-01
6.103205128205129e+00  9.5065219070310558e-01  2.4036206660139373e-01 -9.5376227676249466e-05  3.5295342114777603e-04 -9.5376227665049603e-05  3.5295342113873010e-04 -6.0317000412067401e-01  7.6115302086021952e-01
6.539076923076924e+00  9.6882049185800945e-01 -9.4871680863281238e-02  3.2677341617371326e-04  2.8987551709685035e-04  3.2677341617089954e-04  2.8987551709767933e-04 -2.3153305980073613e-01  9.4681096579678881e-01
6.974948717948719e+00  8.0657573285666118e-01 -5.0308522109256992e-01  3.3652713314607667e-04 -9.0624633036990942e-05  3.3652713314049482e-04 -9.0624633029889770e-05  1.1444726556521151e-01  9.6974084058974785e-01
7.410820512820513e+00  2.2248192317174109e-01 -6.9368985232489278e-01  1.6346615336234023e-03  1.9182015002632100e-03  1.6346615336297152e-03  1.9182015002625664e-03  4.1250493998524390e-01  8.8597915599016241e-01
7.846692307692308e+00 -1.6472568829496861e-01 -5.6590217566718148e-01 -9.3562010022772300e-04 -5.3285578467403552e-03 -9.3562010025488129e-04 -5.3285578466997652e-03  6.5173815942438340e-01  7.2846709299782086e-01
8.282564102564102e+00 -1.1804246525774904e-01 -4.9025010131374147e-01 -2.0712535581521503e-03  1.0425624313938550e-02 -2.0712535581538247e-03  1.0425624313935145e-02  8.2626005133381841e-01  5.2150303131520159e-01
8.718435897435898e+00  7.2748678765962382e-01 -2.5782794664414677e-01  2.3011527986914823e-04  3.2484501901469634e-05  2.3011527987909326e-04  3.2484501908014122e-05  9.3358767650575303e-01  2.8557333471049284e-01
9.154307692307691e+00  7.0764203654686642e-01 -2.7654926264988733e-01  9.8089036731589113e-04  3.6047886887115955e-04  9.8089036731468572e-04  3.6047886886728326e-04  9.7390962494656286e-01  3.8291758494273395e-02
9.590179487179487e+00 -1.9870654062993717e-01 -7.3938428932996403e-02 -9.5888307430469619e-04 -2.5599739983476299e-03 -9.5888307430132172e-04 -2.5599739983456125e-03  9.5113635024255150e-01 -2.0344116806726872e-01
1.002605128205128e+01  2.3417848049036136e-01 -1.5174119220170004e-01 -2.1629321970270516e-03 -2.8623611234828350e-03 -2.1629321970265919e-03 -2.8623611234833727e-03  8.7159058742431039e-01 -4.2709197106783220e-01
1.046192307692308e+01  5.3089368338555953e-01 -6.0693837890628255e-01 -2.3009078853379394e-04  8.5550427819549213e-04 -2.3009078854112775e-04  8.5550427818857394e-04  7.4224955347195476e-01 -6.2016517797438953e-01
1.089779487179487e+01  2.2788294410198831e-01 -6.6709922639031449e-01 -2.0817487863342677e-03  5.8194772947761664e-04 -2.0817487863284100e-03  5.8194772947959053e-04  5.7488290578228729e-01 -7.7355874076513087e-01
1.133366666666667e+01  6.2851201113670416e-02 -8.3990193170648764e-01 -1.4535351710821498e-05  1.9650225947683035e-03 -1.4535351677725909e-05  1.9650225947557519e-03  3.7908613147239517e-01 -8.8209795995497398e-01
1.176953846153846e+01 -2.5280511317754317e-01 -8.3840135862345200e-01  2.4794610389014681e-03  7.0794295773911006e-04  2.4794610389100580e-03  7.0794295772164193e-04  1.6633742335984472e-01 -9.4044536426220748e-01
1.220541025641026e+01 -5.0764289756012249e-01 -7.0783934278485761e-01  1.8822975666317949e-03 -1.7908158913625448e-03  1.8822975666359489e-03 -1.7908158913678136e-03 -5.0052052126827340e-02 -9.4839949152663361e-01
1.264128205128205e+01 -6.9710272519265215e-01 -4.9604907944838950e-01 -6.4460980429127364e-04 -3.2355033926824554e-03 -6.4460980428844431e-04 -3.2355033926782517e-03 -2.6071430580591559e-01 -9.0747471600361940e-01
1.307715384615385e+01 -7.8955988209677330e-01 -2.1797512926629722e-01 -4.1871384483134055e-03 -9.3412568735812859e-04 -4.1871384483185836e-03 -9.3412568736294321e-04 -4.5408141580510991e-01 -8.1995297896135921e-01
1.351302564102564e+01 -7.4761225386425256e-01  8.8246836248427104e-03  1.0369049827338756e-04  3.6629925352525731e-03  1.0369049827303970e-04  3.6629925352525154e-03 -6.2097180406584451e-01 -6.9290744038766139e-01
1.394889743589744e+01 -6.2945982110609799e-01  1.8102107455823827e-01 -1.6234385428919376e-04  3.9779877075692797e-03 -1.6234385427323639e-04  3.9779877075719365e-03 -7.5546554974689684e-01 -5.3205660111726261e-01
1.438476923076923e+01 -4.7701373501329380e-01  4.0386287851143404e-01  5.5253861388690866e-03 -9.0073878503988628e-04  5.5253861388602169e-03 -9.0073878502298802e-04 -8.4842697235478559e-01 -3.4450483229490708e-01
1.482064102564103e+01 -2.2650018841135638e-01  4.2391344216285476e-01  6.5024229072087119e-04 -5.8984592762924212e-03  6.5024229069084931e-04 -5.8984592762999334e-03 -8.9708713373403148e-01 -1.4087497315772116e-01
1.525651282051282e+01 -1.5942275160172131e-01  3.4069708172910462e-01 -5.1357775406332207e-03 -9.7596984896577261e-04 -5.1357775406550444e-03 -9.7596984894424642e-04 -8.9730168997922832e-01  7.1329206443511192e-02
1.569238461538462e+01  7.3896045215175413e-02  4.8150383267210617e-01 -1.2447958208469606e-03  1.7083058694029145e-03 -1.2447958208048112e-03  1.7083058694123687e-03 -8.4536506495114416e-01  2.7985378481655970e-01
1.612825641025641e+01  2.6244600565212506e-01 -1.3237313618611454e-01  1.4473049103560622e-03  7.1984807074011526e-03  1.4473049103742646e-03  7.1984807073594472e-03 -7.4241462116054513e-01  4.7332843276632142e-01
1.656412820512821e+01 -1.4487646178725663e-01  3.2629598630283146e-01  3.8984311266754405e-03 -3.0728840749914871e-03  3.8984311266590933e-03 -3.0728840750023872e-03 -5.8803317755594064e-01  6.3943168327640987e-01
1.700000000000000e+01  4.4074431725312402e-01  2.4160458057687556e-01 -2.2201639015466258e-03 -1.9741628275119776e-03 -2.2201639015395494e-03 -1.9741628275310331e-03 -3.8358851270961603e-01  7.5981711329503032e-01
