# GHz S RI R 50

1.000000000000000e-03  5.1713724252479677e-04 -3.6720904366004971e-04  9.9946749484021058e-01 -2.8582349147857336e-03  9.9946749484020692e-01 -2.8582349147704025e-03  5.1713783000012666e-04 -3.6718311974534199e-04
4.368717948717949e-01 -1.4359892514730960e-01 -5.2876184979328791e-02  3.3715639728686259e-01 -9.2298342200360406e-01  3.3715639728686359e-01 -9.2298342200360683e-01 -1.4333764397460824e-01 -5.3322785975053043e-02
8.727435897435898e-01 -1.1687855430449745e-01  1.3412816089733026e-01 -7.3163176900452775e-01 -6.4420140650826041e-01 -7.3163176900454541e-01 -6.4420140650827606e-01 -1.1793273121325688e-01  1.3291430763291331e-01
1.308615384615385e+00  2.5328239525452965e-02  4.4455871035732904e-02 -8.6330140946722278e-01  4.7664171816784123e-01 -8.6330140946722744e-01  4.7664171816784495e-01  2.2892369417819129e-02  4.5531048146835673e-02
1.744487179487180e+00 -1.1697430072529449e-01  2.2268028668788756e-02  1.8568456057543148e-01  9.5901104862054265e-01  1.8568456057543528e-01  9.5901104862055275e-01 -1.1610158742842672e-01  2.7048834732573256e-02
2.180358974358974e+00 -2.4157217983860647e-02  1.6620926551912432e-01  9.5975182604434828e-01  1.1410931843125775e-01  9.5975182604434883e-01  1.1410931843125767e-01 -1.2067872911278104e-02  1.6732534239706151e-01
2.616230769230769e+00  5.6377661608050050e-02  3.8222342364994062e-02  3.6370576524687215e-01 -9.0469427248056999e-01  3.6370576524686044e-01 -9.0469427248058554e-01  6.5875235594533343e-02  1.2940454216552308e-02
3.052102564102564e+00  3.3516452304583680e-03  3.3301996288010678e-02 -8.1145368686164343e-01 -5.3675384529952885e-01 -8.1145368686166741e-01 -5.3675384529954773e-01 -2.9096835506679210e-02  1.2214078160758195e-02
3.487974358974359e+00 -2.4923897529769107e-02 -3.0384081527812558e-02 -6.3424399302053347e-01  7.3058552193914605e-01 -6.3424399302046242e-01  7.3058552193910287e-01 -3.6133236710769512e-02 -1.9138282426985672e-02
3.923846153846154e+00 -4.3207067287496723e-02  1.0677921284493944e-01  7.0378733076149447e-01  6.4593180483260570e-01  7.0378733076151367e-01  6.4593180483261425e-01 -1.0160410693727710e-01  5.7476598573833630e-02
4.359717948717949e+00  7.5669687909914685e-02 -7.3084826813125364e-02  5.2825449400839208e-01 -7.8733953491904130e-01  5.2825449400836488e-01 -7.8733953491901909e-01 -3.5205039155727376e-02  9.6410093257909071e-02
4.795589743589744e+00 -2.5436471137906928e-02 -2.7082349849875198e-01 -8.9761224509871762e-01 -7.3448569032014729e-02 -8.9761224509871507e-01 -7.3448569032030148e-02  5.0541237210419386e-02 -2.5331513420078461e-01
5.231461538461539e+00 -4.5941681983810340e-01 -5.9440078215534276e-01  5.2553668055139147e-01 -2.1700190173280356e-02  5.2553668055137026e-01 -2.1700190173285290e-02  2.1527765919205535e-01 -6.6129479438601579e-01
5.667333333333334e+00 -9.0249244351840152e-01  3.5043873276851872e-01 -5.7019721071737963e-03 -3.0552867759787002e-02 -5.7019721071752969e-03 -3.0552867759788212e-02 -9.5056609347868859e-01  1.5139232692490565e-01
6.103205128205129e+00 -5.5650277539351667e-01  8.0144756484124036e-01 -3.5868932964300397e-03 -3.1813438045825071e-03 -3.5868932964089411e-03 -3.1813438045651355e-03 -6.3808554043234367e-01  7.3546969866534628e-01
6.539076923076924e+00 -1.7623168460866501e-01  9.6327151362542462e-01 -1.1921794025004390e-03 -1.7146070153427345e-04 -1.1921794025345526e-03 -1.7146070148314960e-04 -2.4419166430462280e-01  9.4727649652507728e-01
6.974948717948719e+00  1.6031423116940330e-01  9.6826648523322567e-01 -4.0348967331302961e-04  2.2359638764295295e-04 -4.0348967332239105e-04  2.2359638764461135e-04  1.0648137013965649e-01  9.7506772454150326e-01
7.410820512820513e+00  4.3773116054695727e-01  8.7998028478578816e-01 -1.7525998124857703e-04  2.6281631160982391e-04 -1.7525998121385500e-04  2.6281631160036831e-04  3.9519752227272231e-01  8.9950271602374787e-01
7.846692307692308e+00  6.5504857224355673e-01  7.3377910629969667e-01 -1.1704175912884552e-04  3.3950214652310798e-04 -1.1704175913776378e-04  3.3950214653031722e-04  6.2193779683823058e-01  7.6179218739134369e-01
8.282564102564102e+00  8.1482031551657574e-01  5.5139280160008664e-01 -1.7651521758673909e-05  4.9766193352293261e-04 -1.7651521777071420e-05  4.9766193357053527e-04  7.9033791359227334e-01  5.8581956251603140e-01
8.718435897435898e+00  9.2007563276629567e-01  3.4748914328903519e-01  2.2303370024486725e-04  6.4257044783920200e-04  2.2303370022908568e-04  6.4257044788308183e-04  9.0420298652399822e-01  3.8701805169511549e-01
9.154307692307691e+00  9.7352405644488249e-01  1.3297642026861001e-01  5.7906751461657218e-04  6.6359820510034041e-04  5.7906751461839548e-04  6.6359820509051992e-04  9.6675222633055558e-01  1.7646180437392411e-01
9.590179487179487e+00  9.7740828514991684e-01 -8.3174271640047703e-02  9.8615363230470537e-04  5.1727052550722390e-04  9.8615363230480685e-04  5.1727052550807132e-04  9.8053046081200901e-01 -3.7014530590838660e-02
1.002605128205128e+01  9.3364020244521173e-01 -2.9272516090657230e-01  1.3662896621533466e-03  1.9306305299644460e-04  1.3662896621532002e-03  1.9306305299617870e-04  9.4754884472162249e-01 -2.4544654417606446e-01
1.046192307692308e+01  8.4377570316257688e-01 -4.8729587719793138e-01  2.4005695329950625e-03 -8.9401104513976172e-04  2.4005695329943218e-03 -8.9401104514143963e-04  8.6950435092259204e-01 -4.4087181605836478e-01
1.089779487179487e+01  7.1206167105332752e-01 -6.5914131738264636e-01  1.8491863485166657e-03 -1.5959768974778612e-03  1.8491863485170297e-03 -1.5959768974773776e-03  7.5289344787277912e-01 -6.1428406688767390e-01
1.133366666666667e+01  5.4846519149993056e-01 -7.9386512023250977e-01  1.4054717334473193e-03 -2.8834875720491022e-03  1.4054717334466232e-03 -2.8834875720496408e-03  5.9778825890392973e-01 -7.5948527314541536e-01
1.176953846153846e+01  3.4855452756844824e-01 -8.9367297520015510e-01 -1.8120898051998739e-04 -4.1812091707436093e-03 -1.8120898051847246e-04 -4.1812091707428816e-03  4.1018643152922130e-01 -8.6894537536431382e-01
1.220541025641026e+01  1.2729731079533321e-01 -9.4313256741106344e-01 -2.8995277525250382e-03 -4.4747710512033374e-03 -2.8995277525252316e-03 -4.4747710512033590e-03  1.9900374262194001e-01 -9.3256430206829899e-01
1.264128205128205e+01 -1.0322591073405889e-01 -9.3721717955925554e-01 -5.9624111809636398e-03 -2.7825490489453374e-03 -5.9624111809641871e-03 -2.7825490489453786e-03 -2.4790924773143899e-02 -9.4464272360973889e-01
1.307715384615385e+01 -3.2840786544249301e-01 -8.7362877299919184e-01 -7.7690335900512204e-03  1.1112632998323596e-03 -7.7690335900505517e-03  1.1112632998322900e-03 -2.4802440308108456e-01 -9.0204272244282357e-01
1.351302564102564e+01 -5.3284618145739748e-01 -7.5446120815112072e-01 -6.7049781956870129e-03  6.0476737957650883e-03 -6.7049781956866963e-03  6.0476737957649565e-03 -4.5654746204769731e-01 -8.0542452513746687e-01
1.394889743589744e+01 -7.0196354435713726e-01 -5.8628415209237161e-01 -2.3763870576808265e-03  9.7119060933389244e-03 -2.3763870576809739e-03  9.7119060933391031e-03 -6.3654144433077919e-01 -6.5938470998578191e-01
1.438476923076923e+01 -8.2330663539943771e-01 -3.7968240144024823e-01  3.6760342647607193e-03  1.0006502095571607e-02  3.6760342647609258e-03  1.0006502095571451e-02 -7.7558145951875490e-01 -4.7219609876828511e-01
1.482064102564103e+01 -8.8756258866995030e-01 -1.4861435535230003e-01  8.8093957551126575e-03  6.5716930178958801e-03  8.8093957551127824e-03  6.5716930178958046e-03 -8.6349979302570479e-01 -2.5545441360125343e-01
1.525651282051282e+01 -8.8961915512258583e-01  9.0308752591297614e-02  1.0979756166875188e-02  9.3050094796201315e-04  1.0979756166875160e-02  9.3050094796206660e-04 -8.9339427194990573e-01 -2.3739621280815307e-02
1.569238461538462e+01 -8.2981358487886847e-01  3.1923886387319600e-01  9.7698485385205834e-03 -4.6259833479134439e-03  9.7698485385206441e-03 -4.6259833479133615e-03 -8.6304969236059470e-01  2.0634050718165989e-01
1.612825641025641e+01 -7.1423210373630042e-01  5.2164158210898448e-01  6.2874780002571866e-03 -8.4191516787873559e-03  6.2874780002569056e-03 -8.4191516787869673e-03 -7.7573053696786687e-01  4.1841215324275527e-01
1.656412820512821e+01 -5.5300526800150451e-01  6.8440398012359382e-01  2.0197152894421738e-03 -1.0138920174944227e-02  2.0197152894420060e-03 -1.0138920174943855e-02 -6.3898475772447971e-01  5.9857915254130123e-01
1.700000000000000e+01 -3.5827406222587060e-01  7.9787751338222090e-01 -2.2252101912082017e-03 -1.0281136954802267e-02 -2.2252101912083205e-03 -1.0281136954802744e-02 -4.6281261404378671e-01  7.3575478778762660e-01
