!
! C:\Users\LSO\Desktop\2_1_5G_7red.S2P
!
! Touchstone 1.1 file saved by VNA.EXE V1.65 (www.ke5fx.com/gpib/readme.htm)
! 2. 04. 2024 10:02:51
!
!    Source: HP8510C.07.14: Aug 26  1998 
!  Min freq: 4.500000E+007 Hz
!  Max freq: 1.700000E+010 Hz
!    Points: 801
!    Params: S11 S21 S12 S22
!
!!!!!
# GHZ S DB R 50
0.0450000000000000 -14.903843 -173.494961 -0.097867 -45.326358 0.873830 -125.161971 -14.809410 -156.156916 
0.0661937500000000 -12.173519 150.289241 -0.270345 -66.566455 0.667831 -161.025375 -12.137613 168.230627 
0.0873875000000000 -10.347815 112.881945 -0.496934 -86.175702 0.382969 165.431360 -10.378456 128.888018 
0.1085812500000000 -9.551696 72.772366 -0.575849 -104.650270 0.235574 133.181486 -9.847575 88.133382 
0.1297750000000000 -9.164042 38.206870 -0.607586 -123.887703 0.148023 100.262100 -9.212293 52.295308 
0.1509687500000000 -8.173001 5.708593 -0.763157 -142.833808 -0.044535 67.299423 -8.106703 18.217713 
0.1721625000000000 -7.366932 -27.460811 -0.889728 -161.340851 -0.190946 34.722739 -7.314791 -14.794281 
0.1933562500000000 -6.819712 -59.567212 -1.025254 -179.376259 -0.359655 2.369862 -6.965218 -48.119580 
0.2145500000000000 -6.589840 -92.035416 -1.022074 162.936023 -0.394433 -29.543344 -7.076741 -82.452990 
0.2357437500000000 -6.700847 -124.234462 -0.965572 144.354644 -0.388332 -62.429923 -7.244727 -116.284149 
0.2569375000000000 -6.696982 -154.834889 -0.981326 125.638041 -0.442673 -95.807627 -7.028788 -149.288827 
0.2781312500000000 -6.469855 166.662690 -1.033525 105.971637 -0.353563 -141.009407 -6.591361 173.895508 
0.2993250000000000 -6.496396 133.791847 -1.098101 86.927041 -0.473973 -174.900363 -6.847433 139.235796 
0.3205187500000000 -7.090695 99.812175 -0.997948 68.506366 -0.384921 151.835910 -7.631401 103.466021 
0.3417125000000000 -7.983059 66.253150 -0.939729 49.013671 -0.351789 117.903048 -7.993333 67.397865 
0.3629062500000000 -8.070627 31.357880 -0.950574 30.488686 -0.368070 84.696734 -7.870752 30.539265 
0.3841000000000000 -7.929156 -4.845762 -0.883632 11.855858 -0.326525 51.759259 -8.001423 -0.138374 
0.4052937500000000 -7.813488 -36.974790 -0.887415 -6.952064 -0.377977 18.438989 -7.994299 -28.741469 
0.4264875000000000 -8.393470 -68.526295 -0.797106 -25.211527 -0.323330 -14.361970 -9.117056 -61.859935 
0.4476812500000000 -10.057165 -96.475720 -0.654368 -44.442736 -0.250699 -48.230303 -11.344548 -96.416814 
0.4688750000000000 -11.839703 -125.857432 -0.574637 -63.960452 -0.254999 -82.179040 -13.572002 -131.368370 
0.4900687500000000 -14.155967 -161.475464 -0.539085 -83.547220 -0.301428 -116.008864 -14.777079 -164.001629 
0.5112625000000000 -16.952142 158.827280 -0.505329 -102.972253 -0.297022 -149.380060 -16.379416 158.484828 
0.5324562500000000 -22.816345 109.233128 -0.424660 -122.743831 -0.243988 176.683806 -22.187830 119.031663 
0.5536500000000000 -35.833675 -55.581967 -0.411331 -142.671400 -0.210404 142.182050 -38.582730 -36.953909 
0.5748437500000000 -23.441675 -128.203481 -0.442182 -162.813132 -0.252183 107.578238 -21.306895 -123.537870 
0.5960375000000000 -19.095940 -166.866174 -0.515515 177.319757 -0.301382 73.095978 -17.401196 -168.422476 
0.6172312500000000 -15.782621 154.782393 -0.597115 157.225397 -0.388824 38.461333 -14.349270 155.912220 
0.6384250000000000 -11.924612 118.659479 -0.754049 137.313357 -0.548012 3.680773 -11.675312 122.250436 
0.6596187500000000 -9.066043 83.553430 -0.950665 117.577100 -0.747545 -30.875514 -9.541241 93.164265 
0.6808125000000000 -7.799568 53.099635 -1.135948 98.728436 -0.973450 -64.394545 -8.050986 58.940397 
0.7020062500000001 -7.627993 24.158387 -1.116674 79.817516 -0.979842 -97.778827 -8.019119 22.230133 
0.7232000000000000 -7.798731 -4.984428 -1.167844 59.805330 -1.084174 -132.801654 -7.959756 -11.976139 
0.7443937500000000 -7.340488 -40.403700 -1.389288 40.679632 -1.283866 -166.348706 -7.476034 -46.858449 
0.7655875000000000 -7.009035 -79.039727 -1.394140 22.020230 -1.326891 160.109659 -7.116386 -79.396547 
0.7867812500000000 -6.690431 -111.381938 -1.446030 2.650674 -1.410111 126.373806 -6.884257 -113.055306 
0.8079750000000000 -6.638931 -142.833451 -1.449327 -15.886080 -1.389017 92.801750 -7.165496 -149.720152 
0.8291687500000000 -7.161430 -173.445562 -1.303603 -35.363849 -1.302820 58.489254 -7.580436 172.447252 
0.8503625000000000 -7.374652 152.468932 -1.294813 -55.622037 -1.239116 23.706744 -7.874782 138.998163 
0.8715562500000000 -7.668373 106.104794 -1.245519 -76.603017 -1.067386 -23.890218 -7.474737 103.909896 
0.8927500000000000 -8.296421 71.307803 -1.152649 -97.905901 -0.985246 -60.797586 -8.429347 69.385084 
0.9139437500000001 -9.521959 39.791842 -1.014346 -118.864689 -0.887782 -97.106518 -10.560229 33.939505 
0.9351375000000000 -11.596759 8.954319 -0.878594 -140.235796 -0.789209 -132.953672 -13.595465 -9.156365 
0.9563312500000000 -14.517273 -31.228951 -0.786308 -161.614080 -0.699755 -169.371381 -16.098372 -45.434919 
0.9775250000000000 -18.512851 -76.286713 -0.711406 176.730268 -0.650831 154.461545 -17.012841 -77.574071 
0.9987187500000000 -23.753690 -111.750448 -0.673768 154.665416 -0.601531 118.014173 -22.793578 -91.631238 
1.0199125000000000 -32.152131 -34.436702 -0.708034 132.541795 -0.618457 81.081252 -24.223779 -33.051734 
1.0411062499999999 -23.668748 -14.891894 -0.776448 110.004179 -0.692061 43.765403 -16.873439 -24.030001 
1.0623000000000000 -14.027020 -48.729107 -0.910929 87.663291 -0.826291 6.862403 -13.409821 -55.032481 
1.0834937499999999 -11.907664 -83.657515 -1.031664 65.304760 -0.939749 -30.394714 -12.079041 -91.932137 
1.1046875000000000 -10.825267 -117.212242 -1.190779 42.861059 -1.114691 -67.690259 -10.587983 -133.152580 
1.1258812499999999 -9.350136 -155.177916 -1.368927 20.532088 -1.288805 -104.967480 -9.321788 -171.008493 
1.1470750000000001 -8.444506 168.556801 -1.448737 -2.008468 -1.476715 -142.251712 -8.534411 154.611057 
1.1682687500000000 -8.121697 134.267713 -1.510077 -24.611665 -1.565647 -179.453484 -8.868407 120.858457 
1.1894625000000001 -9.508887 98.374710 -1.397381 -48.197955 -1.546541 142.268864 -9.871108 83.599038 
1.2106562500000000 -12.242016 64.284849 -1.255244 -73.650253 -1.443988 102.523211 -12.303842 42.252724 
1.2318499999999999 -16.311536 25.012746 -1.176621 -101.019758 -1.380505 60.567321 -16.631582 15.971051 
1.2530437500000000 -27.929179 30.774640 -1.284843 -130.906721 -1.512102 16.036869 -20.293691 55.143553 
1.2742374999999999 -14.009402 86.868725 -1.900590 -163.646567 -2.114594 -30.997415 -12.638912 57.314179 
1.2954312500000000 -6.413412 45.366087 -3.229081 164.326301 -3.434630 -78.068280 -5.661852 20.936807 
1.3166249999999999 -3.293328 3.184790 -5.032973 134.033279 -5.265338 -122.398043 -3.236848 -20.070932 
1.3378187500000001 -1.948411 -36.858518 -7.151885 106.645251 -7.328276 -164.761279 -1.946638 -61.283903 
1.3590125000000000 -1.347170 -76.103904 -9.401356 81.927195 -9.690968 155.925901 -1.193849 -100.296770 
1.3802062500000001 -0.850455 -114.226425 -11.840773 59.763849 -12.047035 119.441913 -0.843090 -135.217988 
1.4014000000000000 -0.457608 -149.413341 -14.024081 41.532096 -14.322438 85.689525 -0.753582 -167.026679 
1.4225937500000001 -0.250155 178.821168 -15.888534 23.721665 -16.148080 53.923538 -0.661537 160.897935 
1.4437875000000000 -0.268827 147.806698 -17.651836 5.314947 -17.908739 20.211195 -0.581409 126.842228 
1.4649812499999999 -0.428821 117.089203 -19.490493 -11.746092 -19.855166 -11.425016 -0.575230 93.179519 
1.4861750000000000 -0.415071 85.626895 -21.224768 -28.212976 -21.517561 -42.119260 -0.503269 62.426476 
1.5073687499999999 -0.229144 53.675515 -22.839605 -43.584319 -23.218109 -72.547201 -0.463591 33.582131 
1.5285625000000000 -0.137442 24.364712 -24.307308 -58.482312 -24.666508 -101.356875 -0.448101 4.439652 
1.5497562499999999 -0.084901 -3.252409 -25.667843 -73.576355 -25.944382 -131.992847 -0.494879 -27.515423 
1.5709500000000001 -0.181542 -31.573110 -26.983701 -89.858362 -27.310258 -162.699676 -0.651462 -60.638037 
1.5921437500000000 -0.370760 -61.215505 -28.598402 -104.560493 -28.661095 167.416569 -0.612504 -91.664496 
1.6133375000000001 -0.332583 -92.189751 -29.455135 -118.919357 -29.865224 137.102130 -0.436782 -121.391038 
1.6345312500000000 -0.238799 -123.479710 -30.850907 -135.324760 -30.985425 107.269504 -0.416699 -150.333167 
1.6557249999999999 -0.221773 -151.737267 -32.213154 -148.699790 -32.407563 78.694099 -0.455212 179.561454 
1.6769187500000000 -0.155397 -178.573998 -33.087996 -164.883703 -33.257580 49.215439 -0.542001 147.467286 
1.6981124999999999 -0.244240 152.767393 -34.076557 -179.720959 -34.553036 19.537003 -0.611384 116.089337 
1.7193062500000000 -0.388067 122.878152 -35.263918 166.805010 -35.797529 -10.311784 -0.578451 86.832402 
1.7404999999999999 -0.380217 91.414062 -36.379482 155.318182 -36.959613 -40.332350 -0.494991 59.482272 
1.7616937500000001 -0.386328 61.065068 -37.796572 137.879325 -38.070075 -65.993302 -0.472425 31.971327 
1.7828875000000000 -0.353864 34.332087 -38.709487 127.071947 -38.951359 -94.233984 -0.384833 3.421735 
1.8040812500000001 -0.106276 7.217886 -39.487466 110.236816 -39.610332 -123.249569 -0.369165 -27.286342 
1.8252750000000000 -0.074991 -23.388722 -40.016606 92.406799 -40.564008 -156.771932 -0.601055 -56.007983 
1.8464687500000001 -0.321881 -54.818597 -42.475055 81.638448 -42.409876 175.885999 -0.643173 -82.231781 
1.8676625000000000 -0.402565 -84.980837 -42.243692 66.997418 -43.185182 148.429429 -0.560750 -109.513182 
1.8888562499999999 -0.330411 -112.795767 -43.333382 59.992243 -43.515152 121.850419 -0.546392 -138.935991 
1.9100500000000000 -0.169203 -139.146338 -44.177464 37.434267 -44.858258 90.609433 -0.487192 -170.085866 
1.9312437499999999 -0.051440 -166.632679 -44.573665 22.795288 -44.416433 58.660337 -0.586796 159.320029 
1.9524375000000000 -0.238690 163.955609 -46.584500 15.957015 -45.541899 33.792612 -0.692039 132.015501 
1.9736312499999999 -0.430258 134.767443 -47.948355 1.152986 -47.142254 10.333209 -0.661864 105.297651 
1.9948250000000001 -0.395166 106.527303 -47.644832 -7.109897 -47.060089 -23.398742 -0.721004 76.933759 
2.0160187500000002 -0.327901 79.961831 -48.178748 -21.418624 -48.065544 -55.328463 -0.717618 46.806477 
2.0372124999999999 -0.251404 54.293263 -47.938330 -45.538458 -48.801087 -75.258733 -0.619019 15.253635 
2.0584062500000000 -0.215760 26.838412 -49.035610 -51.060655 -49.913711 -103.787273 -0.609504 -14.450668 
2.0796000000000001 -0.428300 -2.487957 -49.825317 -57.436099 -50.458756 -137.913937 -0.689851 -41.308271 
2.1007937499999998 -0.584545 -30.526894 -50.950618 -77.993939 -51.420509 -162.260859 -0.660427 -67.831780 
2.1219874999999999 -0.367979 -57.142238 -51.651570 -79.465719 -51.843743 167.241181 -0.634680 -97.747292 
2.1431812500000000 -0.166791 -84.005456 -52.001782 -103.956419 -52.559156 142.313749 -0.719969 -129.843028 
2.1643750000000002 -0.251592 -111.015932 -53.121162 -121.932923 -52.150910 110.875008 -0.687997 -160.640908 
2.1855687499999998 -0.435515 -139.005871 -52.780155 -132.163437 -54.494070 80.162675 -0.638925 171.301916 
2.2067625000000000 -0.561672 -168.750796 -55.476722 -148.927344 -55.267429 66.902828 -0.599023 145.488968 
2.2279562500000001 -0.454399 161.817329 -52.816642 -170.862303 -54.813065 21.497402 -0.558653 117.988688 
2.2491500000000002 -0.277937 133.103904 -52.776962 -170.198912 -56.346071 0.358779 -0.733787 87.381022 
2.2703437499999999 -0.300669 105.874286 -53.233850 164.939782 -54.458901 -29.517484 -0.845541 56.502902 
2.2915375000000000 -0.409350 78.490927 -54.884145 168.412823 -55.525678 -66.167812 -0.789063 27.067720 
2.3127312500000001 -0.525222 48.677603 -54.021207 135.935449 -55.589108 -92.125584 -0.710124 0.362425 
2.3339249999999998 -0.591675 17.428058 -56.003492 143.449132 -54.332384 -113.968264 -0.605386 -25.267080 
2.3551187499999999 -0.489021 -12.361678 -56.540968 96.014768 -55.251834 -154.847907 -0.677485 -52.996641 
2.3763125000000000 -0.334258 -40.598735 -59.304656 85.601292 -57.273756 -175.519199 -0.905223 -82.751984 
2.3975062500000002 -0.414053 -67.555624 -57.679781 79.126425 -57.020121 148.428219 -0.994066 -112.581260 
2.4186999999999999 -0.263443 -67.969661 -56.826324 91.654376 -56.352362 159.966087 -0.652616 -99.095416 
2.4398937500000000 -0.561486 -95.061522 -58.002853 94.332314 -56.488651 138.464319 -0.699934 -128.737061 
2.4610875000000001 -0.522733 -124.603781 -58.777985 65.472071 -56.582477 80.980895 -0.391282 -158.420386 
2.4822812500000002 -0.366251 -154.936721 -61.747071 44.565926 -58.101929 63.147719 -0.346485 174.068144 
2.5034749999999999 -0.333026 174.847680 -57.552525 31.420656 -61.582904 24.615731 -0.501924 147.076548 
2.5246687500000000 -0.471886 148.061349 -56.705898 -1.519363 -59.255790 2.477165 -0.617595 119.314087 
2.5458625000000001 -0.569336 123.463271 -58.853401 19.710788 -54.501623 -5.902038 -0.585192 89.891518 
2.5670562499999998 -0.506511 98.248848 -58.538848 -11.136150 -60.684270 -65.228987 -0.477033 60.772256 
2.5882499999999999 -0.400739 70.523299 -60.019417 -18.609750 -57.397244 -50.425145 -0.462724 32.771903 
2.6094437500000001 -0.330830 41.976410 -58.016641 -28.438453 -58.445159 -125.887034 -0.506631 5.983003 
2.6306375000000002 -0.385085 14.481770 -61.166907 -29.112840 -60.340071 -153.559626 -0.519452 -22.105096 
2.6518312499999999 -0.532885 -11.277844 -57.654086 -56.569490 -60.682637 -158.454816 -0.642955 -51.953599 
2.6730250000000000 -0.622934 -36.499447 -60.730599 -80.861962 -60.296868 168.869221 -0.589180 -81.866460 
2.6942187500000001 -0.591573 -63.603204 -59.961874 -90.081603 -59.340749 150.428857 -0.465585 -111.342015 
2.7154124999999998 -0.407838 -92.098780 -61.398395 -71.776275 -61.593838 96.529587 -0.466206 -139.480551 
2.7366062499999999 -0.215999 -121.452256 -58.185157 -148.873244 -62.025949 85.264111 -0.667440 -167.412417 
2.7578000000000000 -0.385486 -149.752245 -58.022030 -146.890732 -59.872400 61.501405 -0.861677 164.064419 
2.7789937500000002 -0.704277 -175.200772 -55.831291 171.603303 -59.386953 9.050053 -0.665885 133.887948 
2.8001874999999998 -0.702863 158.660851 -64.867042 169.030213 -63.321645 -22.175106 -0.497182 102.682640 
2.8213812500000000 -0.470809 128.548818 -60.551112 -171.894857 -59.294234 -44.393299 -0.610644 75.147974 
2.8425750000000001 -0.403121 97.056638 -60.048608 -151.914281 -63.108790 -113.733843 -0.754132 50.293811 
2.8637687500000002 -0.434136 68.163774 -58.842695 138.000568 -61.830196 -106.314590 -0.867745 24.269326 
2.8849624999999999 -0.552326 41.569629 -65.990259 142.263960 -62.478542 -169.573459 -0.832244 -5.336248 
2.9061562500000000 -0.687203 15.516211 -62.834243 141.694974 -58.055076 -176.257290 -0.743385 -37.871475 
2.9273500000000001 -0.667076 -13.420311 -63.776029 92.485201 -59.862481 163.159736 -0.738049 -68.076285 
2.9485437499999998 -0.668177 -45.340495 -61.439170 115.005693 -62.163439 116.973562 -0.757022 -93.940725 
2.9697374999999999 -0.654614 -75.513336 -75.617883 63.056870 -64.030043 99.416783 -0.791054 -118.287783 
2.9909312500000000 -0.557938 -102.847737 -62.622999 39.907887 -67.997792 79.257723 -0.780127 -144.895936 
3.0121250000000002 -0.639212 -128.460817 -59.190093 18.284432 -67.552037 57.450539 -0.780789 -175.509450 
3.0333187499999998 -0.762131 -153.914722 -64.468963 9.440247 -65.945292 -55.279792 -0.743764 153.229650 
3.0545125000000000 -0.734185 177.525652 -63.414999 -8.977756 -66.147791 -40.022990 -0.752442 124.862055 
3.0757062500000001 -0.750239 146.404573 -63.323759 -33.585911 -59.258792 -20.099113 -0.828686 100.237749 
3.0969000000000002 -0.785437 117.758365 -58.698606 -23.393539 -61.336351 -83.507614 -0.710591 75.505823 
3.1180937499999999 -0.646199 92.353248 -65.300297 -80.351644 -80.818418 40.534391 -0.708875 45.578207 
3.1392875000000000 -0.557922 67.382145 -68.340220 -64.709737 -61.565203 -133.261843 -0.858848 13.265166 
3.1604812500000001 -0.684888 41.579805 -60.871306 -9.832247 -59.203190 -157.190068 -0.808811 -17.312124 
3.1816749999999998 -0.726239 13.644800 -56.856776 -44.135614 -61.473289 177.012416 -0.796873 -44.148904 
3.2028687499999999 -0.705926 -16.163706 -73.725772 -143.309620 -62.785020 134.367731 -0.772567 -68.671317 
3.2240625000000001 -0.687503 -44.009656 -59.272894 -114.345177 -61.019469 124.549663 -0.750224 -95.793482 
3.2452562500000002 -0.598371 -69.507317 -57.557119 -107.131343 -66.599780 85.783424 -0.817570 -127.623760 
3.2664499999999999 -0.618008 -94.582159 -60.756160 -148.277779 -60.733732 51.274322 -0.899698 -160.458629 
3.2876437500000000 -0.627903 -120.713612 -63.151268 -133.977743 -60.528035 24.290629 -0.966014 170.395032 
3.3088375000000001 -0.604484 -150.044464 -64.367150 168.848969 -61.704174 -19.691281 -0.952516 145.838578 
3.3300312500000002 -0.731457 179.659515 -63.410324 126.970537 -62.650788 -53.209805 -0.874560 120.562803 
3.3512249999999999 -0.798338 152.255297 -57.579876 140.555475 -62.068746 -55.855607 -0.864959 89.845471 
3.3724187500000000 -0.654215 125.918150 -65.328544 148.996497 -62.152334 -94.419177 -1.068453 55.892023 
3.3936125000000001 -0.587759 97.656213 -63.095089 147.625502 -65.549775 -156.857686 -1.205892 25.746558 
3.4148062499999998 -0.761152 68.380770 -60.156613 66.142544 -64.145692 -161.732140 -0.983006 0.397489 
3.4359999999999999 -0.836298 39.244027 -61.578352 75.682640 -62.756731 166.335776 -0.866546 -24.399341 
3.4571937500000001 -0.809541 10.812308 -61.619564 123.230106 -60.495257 115.784876 -0.964725 -51.069826 
3.4783875000000002 -0.806198 -16.204719 -67.657793 84.347871 -61.576806 78.487690 -1.105999 -82.194851 
3.4995812499999999 -0.797708 -43.300176 -62.616383 98.160129 -62.077729 80.882139 -1.151730 -114.556644 
3.5207750000000000 -0.897782 -72.361549 -60.799976 23.325442 -62.842676 36.585183 -0.965996 -143.253221 
3.5419687500000001 -0.963075 -102.888604 -67.000625 8.742676 -62.329065 13.445455 -0.863030 -168.586672 
3.5631624999999998 -0.913907 -133.146722 -59.771407 5.152868 -61.220427 4.699992 -0.912917 167.290433 
3.5843562499999999 -0.897199 -160.400688 -58.541103 9.115364 -61.391702 -56.293257 -0.978178 139.277076 
3.6055500000000000 -0.859738 174.575044 -62.446354 -28.952176 -60.706261 -66.079075 -1.107055 106.748896 
3.6267437500000002 -0.867463 148.730720 -64.940086 -84.818128 -64.263762 -121.035999 -1.050215 75.872824 
3.6479374999999998 -0.951378 119.772223 -56.678163 -65.316951 -62.240470 -150.678362 -0.866026 49.287863 
3.6691312500000000 -1.034749 89.344057 -64.589912 -82.432732 -59.331398 150.059602 -0.771944 25.370173 
3.6903250000000001 -0.949547 60.093027 -63.705072 -42.295596 -59.586530 162.523794 -0.880739 -0.241892 
3.7115187500000002 -0.816319 33.275590 -61.249660 -115.865764 -73.926897 149.356434 -1.136888 -30.239795 
3.7327124999999999 -0.806830 7.771648 -62.560359 -138.486424 -66.552929 126.235197 -1.267747 -62.647707 
3.7539062500000000 -0.866582 -18.291986 -63.517753 160.697147 -57.364259 100.727445 -1.117974 -92.637960 
3.7751000000000001 -0.990682 -47.061086 -60.824366 -146.285982 -63.140820 5.346905 -0.885136 -118.496271 
3.7962937499999998 -1.029841 -76.389180 -63.410369 171.592393 -63.765927 6.748924 -0.843453 -143.560946 
3.8174874999999999 -0.814593 -104.145238 -69.899238 54.277722 -65.970895 -15.624269 -1.120029 -171.852735 
3.8386812500000000 -0.578695 -130.663729 -64.434691 160.509621 -64.693021 -18.971625 -1.475636 155.726520 
3.8598750000000002 -0.662142 -156.946113 -63.941670 148.907617 -59.733810 -62.469917 -1.483468 123.382295 
3.8810687499999998 -1.022731 177.065888 -63.767416 143.470516 -66.450590 -142.680828 -1.055475 94.627222 
3.9022625000000000 -1.141095 150.142581 -67.278577 61.149166 -62.488255 -120.423228 -0.843898 67.984614 
3.9234562500000001 -0.915312 121.331942 -67.459013 111.156287 -74.263060 167.356126 -1.124916 42.226430 
3.9446500000000002 -0.647707 92.097252 -65.298178 135.584426 -61.718471 -160.762791 -1.449685 13.507067 
3.9658437499999999 -0.681905 64.426308 -63.101506 79.372546 -62.762697 150.193112 -1.572209 -19.862442 
3.9870375000000000 -1.011415 38.957399 -62.987065 80.129857 -57.394130 115.716456 -1.276986 -52.432516 
