!
! C:\Users\LSO\Desktop\2_8G_13red.S2P
!
! Touchstone 1.1 file saved by VNA.EXE V1.65 (www.ke5fx.com/gpib/readme.htm)
! 2. 04. 2024 10:16:10
!
!    Source: HP8510C.07.14: Aug 26  1998 
!  Min freq: 4.500000E+007 Hz
!  Max freq: 1.700000E+010 Hz
!    Points: 801
!    Params: S11 S21 S12 S22
!
!!!!!
# GHZ S DB R 50
0.0450000000000000 -20.961636 -161.412947 -0.059921 -35.758518 1.162861 -115.679956 -21.589641 -141.182792 
0.0661937500000000 -18.552284 169.147244 -0.106091 -53.150282 1.068543 -147.893335 -18.960396 -166.810331 
0.0873875000000000 -16.625168 133.751808 -0.184712 -69.464023 0.908127 -178.125478 -16.859006 156.856181 
0.1085812500000000 -16.434840 89.788338 -0.209057 -85.318168 0.794056 152.269479 -17.127553 112.759029 
0.1297750000000000 -17.069321 54.317442 -0.184659 -101.298724 0.747559 122.527304 -17.450255 76.790642 
0.1509687500000000 -15.949236 25.364432 -0.233467 -117.382004 0.657176 92.565461 -15.856042 45.178412 
0.1721625000000000 -14.455874 -6.025813 -0.283583 -133.148686 0.585282 62.480204 -14.214134 14.380455 
0.1933562500000000 -13.326888 -35.543807 -0.345468 -148.931396 0.477149 32.508890 -13.177819 -15.545987 
0.2145500000000000 -12.624469 -66.823014 -0.363621 -164.299041 0.409255 2.863573 -13.110287 -49.008110 
0.2357437500000000 -12.788267 -98.306892 -0.345231 -179.828971 0.381226 -27.071716 -13.621649 -81.692222 
0.2569375000000000 -12.774155 -125.791119 -0.351362 164.126881 0.347627 -57.597867 -13.279177 -112.199068 
0.2781312500000000 -12.040860 -160.786527 -0.363107 147.660668 0.525618 -99.527266 -12.245972 -145.192186 
0.2993250000000000 -11.250040 171.450458 -0.436883 131.067781 0.394592 -131.306485 -11.563802 -174.782803 
0.3205187500000000 -11.151595 140.608098 -0.466302 115.349598 0.344677 -161.656457 -11.969646 152.082260 
0.3417125000000000 -12.160605 111.162117 -0.430499 99.146663 0.357235 167.527617 -12.657925 120.010774 
0.3629062500000000 -12.250239 80.630137 -0.474578 83.193606 0.276001 137.257100 -11.970176 82.710214 
0.3841000000000000 -11.482945 44.465502 -0.506087 67.421769 0.250088 107.067007 -11.306382 48.749529 
0.4052937500000000 -10.193379 12.778715 -0.562131 51.495764 0.144750 76.418788 -10.094144 24.621123 
0.4264875000000000 -8.973880 -17.398577 -0.669686 36.076251 -0.011187 46.473369 -9.054360 -3.153007 
0.4476812500000000 -8.836404 -45.068398 -0.680870 20.863043 -0.097825 16.523264 -9.254090 -33.405072 
0.4688750000000000 -8.868526 -70.235652 -0.670295 5.127398 -0.182100 -13.450729 -9.813551 -64.516873 
0.4900687500000000 -8.860172 -98.851244 -0.699134 -11.023383 -0.294296 -43.843700 -9.958945 -94.368308 
0.5112625000000000 -8.625471 -129.300031 -0.837763 -26.782923 -0.478673 -73.828480 -9.108153 -124.606953 
0.5324562500000000 -8.272840 -162.497411 -0.944809 -41.729865 -0.594736 -102.951253 -8.519625 -156.243932 
0.5536500000000000 -8.495856 164.821762 -0.932344 -56.791533 -0.587925 -132.386205 -8.360553 172.982306 
0.5748437500000000 -8.653902 134.172892 -0.892868 -72.089001 -0.537829 -162.078014 -8.453403 140.264048 
0.5960375000000000 -8.409717 102.460390 -0.891376 -87.839176 -0.517691 167.532185 -8.607227 109.152902 
0.6172312500000000 -7.704510 71.842274 -0.929192 -103.425042 -0.588157 137.333125 -8.224628 79.667736 
0.6384250000000000 -7.069046 41.936469 -0.999789 -118.688741 -0.625859 107.335528 -7.982507 51.487032 
0.6596187500000000 -7.259374 14.577182 -1.020304 -133.738711 -0.680462 77.441657 -7.780322 22.560074 
0.6808125000000000 -8.031062 -10.630900 -0.926948 -148.678243 -0.600993 47.808743 -8.322674 -11.851678 
0.7020062500000001 -9.016281 -37.375484 -0.795122 -164.898993 -0.505216 16.831313 -9.408014 -43.950835 
0.7232000000000000 -9.123199 -68.710021 -0.863562 178.960898 -0.626712 -14.002971 -9.334511 -73.835466 
0.7443937500000000 -8.805601 -106.036413 -0.920364 163.854333 -0.656492 -43.731770 -9.135614 -105.074898 
0.7655875000000000 -8.874695 -136.753700 -0.838418 148.402467 -0.633075 -74.051248 -9.132106 -133.694348 
0.7867812500000000 -8.720045 -162.593464 -0.868025 132.701201 -0.664750 -104.233103 -9.294645 -166.343353 
0.8079750000000000 -9.222214 169.511554 -0.822350 117.433299 -0.614398 -134.413450 -9.832045 158.988189 
0.8291687500000000 -9.595213 141.636918 -0.756835 101.535537 -0.588962 -165.156814 -10.049049 126.819294 
0.8503625000000000 -9.421298 107.168710 -0.807933 85.416441 -0.610734 163.980133 -9.852165 100.996503 
0.8715562500000000 -9.388703 65.728791 -0.809417 69.168772 -0.408364 121.482994 -9.064300 70.214764 
0.8927500000000000 -9.484213 37.133038 -0.805978 52.614009 -0.425739 89.259922 -9.936671 37.418819 
0.9139437500000001 -10.160729 9.158138 -0.777209 36.481338 -0.445278 57.888485 -11.173227 2.814373 
0.9351375000000000 -10.831107 -21.786715 -0.730358 20.595225 -0.428609 27.224746 -11.988576 -36.250469 
0.9563312500000000 -11.282323 -59.599285 -0.726103 4.576727 -0.444263 -3.531908 -11.619004 -65.541149 
0.9775250000000000 -11.297077 -93.404533 -0.719938 -11.092735 -0.483012 -33.636236 -10.398868 -93.870098 
0.9987187500000000 -10.999990 -121.952784 -0.699379 -26.587085 -0.414407 -63.943466 -10.795673 -121.809478 
1.0199125000000000 -11.315302 -147.017877 -0.691790 -42.195230 -0.411985 -94.152761 -11.706931 -148.997863 
1.0411062499999999 -11.985469 -174.267632 -0.670654 -57.928944 -0.385454 -124.386142 -13.072232 174.076833 
1.0623000000000000 -13.291421 154.067069 -0.619503 -73.574322 -0.314220 -154.902609 -13.967484 138.193358 
1.0834937499999999 -13.533723 124.354639 -0.608301 -89.621169 -0.336704 174.425598 -13.456146 106.108503 
1.1046875000000000 -13.202291 90.443688 -0.621202 -105.150521 -0.328531 144.012681 -13.657305 78.956887 
1.1258812499999999 -14.191139 62.638678 -0.572109 -120.760694 -0.342628 113.385358 -14.366728 53.493942 
1.1470750000000001 -15.530552 36.650394 -0.543704 -136.825968 -0.363128 82.705834 -16.163472 21.870295 
1.1682687500000000 -18.506656 4.159309 -0.516044 -152.319588 -0.405438 52.104446 -17.539417 -13.859730 
1.1894625000000001 -19.671950 -24.556996 -0.507109 -168.396695 -0.451053 21.565770 -18.308516 -52.738298 
1.2106562500000000 -18.003687 -62.157086 -0.492658 175.602432 -0.493492 -8.687346 -19.425684 -72.608631 
1.2318499999999999 -18.243474 -92.203835 -0.494908 159.878989 -0.512573 -39.177173 -19.681799 -92.803483 
1.2530437500000000 -20.371189 -111.716694 -0.480535 143.745864 -0.514776 -69.544059 -24.154991 -118.174650 
1.2742374999999999 -27.683730 -106.064652 -0.476049 127.899123 -0.504174 -100.204740 -31.666935 -143.224736 
1.2954312500000000 -26.435445 -74.389985 -0.488429 112.008180 -0.519374 -130.818343 -37.693703 70.402970 
1.3166249999999999 -29.870218 -89.897863 -0.479078 95.941693 -0.510311 -161.310559 -35.784183 -12.853472 
1.3378187500000001 -31.497546 -104.668645 -0.493609 79.847285 -0.521223 168.007687 -30.941212 -61.471919 
1.3590125000000000 -28.144777 -135.312835 -0.491525 63.897521 -0.549623 137.280606 -24.131579 -103.803381 
1.3802062500000001 -20.357432 -152.752527 -0.546268 47.913691 -0.588818 106.672539 -20.243930 -128.990161 
1.4014000000000000 -16.278272 175.167072 -0.566659 32.150400 -0.655411 76.103238 -17.547046 -151.278796 
1.4225937500000001 -15.946204 149.493186 -0.588920 16.340963 -0.675558 45.594707 -17.639715 176.249729 
1.4437875000000000 -16.670893 127.649988 -0.601176 0.397255 -0.688037 14.749152 -17.611588 143.340950 
1.4649812499999999 -16.926048 103.231723 -0.604592 -15.675030 -0.750048 -15.754516 -16.044954 99.413114 
1.4861750000000000 -14.894178 68.617958 -0.654783 -31.491145 -0.791521 -46.228496 -15.089830 68.349396 
1.5073687499999999 -13.091200 31.718413 -0.707469 -47.255333 -0.862499 -76.719232 -13.469742 45.437227 
1.5285625000000000 -12.503831 4.874524 -0.727357 -62.765774 -0.875027 -106.981165 -13.224329 14.983426 
1.5497562499999999 -12.763044 -16.772769 -0.723019 -78.533166 -0.852819 -137.629257 -13.876547 -18.969777 
1.5709500000000001 -13.132322 -37.043983 -0.745484 -94.787690 -0.900426 -168.449671 -13.870802 -60.760065 
1.5921437500000000 -12.802497 -70.174252 -0.823041 -110.489448 -0.944127 161.050330 -13.214464 -96.564966 
1.6133375000000001 -12.530995 -109.253985 -0.810981 -126.171899 -0.984360 130.407363 -12.214590 -124.985897 
1.6345312500000000 -11.531676 -140.269368 -0.885829 -142.382296 -1.038603 99.574414 -11.680719 -151.526891 
1.6557249999999999 -10.953976 -167.942105 -0.899450 -157.731151 -1.094863 69.113152 -11.337410 175.930015 
1.6769187500000000 -11.143039 171.179510 -0.876811 -173.774937 -1.106645 38.585366 -11.696254 137.032351 
1.6981124999999999 -10.751413 144.098405 -0.944733 170.108221 -1.174917 7.687902 -11.420163 105.233411 
1.7193062500000000 -10.650288 107.264618 -1.012163 154.433100 -1.282080 -22.649332 -10.416427 76.164245 
1.7404999999999999 -9.858223 70.597384 -1.091442 138.327274 -1.322566 -53.229056 -9.911162 52.478795 
1.7616937500000001 -9.076979 36.177791 -1.180163 123.140084 -1.460760 -83.379721 -8.943203 25.531551 
1.7828875000000000 -9.095981 9.006037 -1.128223 107.936278 -1.389392 -113.127464 -9.082110 -8.978955 
1.8040812500000001 -8.949632 -16.851297 -1.111074 91.874200 -1.313423 -144.485258 -9.641365 -37.902435 
1.8252750000000000 -8.757074 -50.130313 -1.189216 75.588327 -1.468490 -175.454400 -9.292730 -63.618445 
1.8464687500000001 -8.442083 -87.776525 -1.368804 60.319104 -1.586466 154.502271 -8.741303 -89.918682 
1.8676625000000000 -8.260042 -122.417220 -1.366873 45.457294 -1.612897 124.856798 -8.404816 -120.966130 
1.8888562499999999 -8.228479 -147.845250 -1.323532 29.947446 -1.559744 94.967476 -8.724071 -156.021274 
1.9100500000000000 -8.052037 -171.505286 -1.281877 14.308054 -1.533270 64.053498 -8.880774 169.371686 
1.9312437499999999 -8.068472 161.655336 -1.290694 -2.004719 -1.598497 33.231287 -8.852076 137.959487 
1.9524375000000000 -7.980120 128.511651 -1.460583 -17.440533 -1.724022 2.875717 -8.457638 111.220664 
1.9736312499999999 -8.218099 93.815269 -1.411525 -32.138613 -1.739986 -26.930972 -8.374354 80.347708 
1.9948250000000001 -8.349215 66.785197 -1.345014 -47.698845 -1.657596 -57.073542 -9.026613 46.854600 
2.0160187500000002 -8.400303 41.843797 -1.302751 -63.067001 -1.640850 -87.380078 -9.128631 9.871802 
2.0372124999999999 -8.858393 18.291596 -1.209091 -79.083808 -1.555791 -117.936416 -9.357733 -26.322766 
2.0584062500000000 -8.787990 -10.947282 -1.285869 -95.079519 -1.604591 -148.833161 -9.305177 -52.186793 
2.0796000000000001 -9.144615 -47.459696 -1.325464 -110.283804 -1.692682 -178.608156 -9.007994 -80.710802 
2.1007937499999998 -9.601624 -77.951527 -1.231313 -125.409792 -1.551176 151.441428 -9.866566 -113.836712 
2.1219874999999999 -9.787704 -102.595241 -1.088541 -141.484437 -1.468123 120.419039 -10.767565 -150.555546 
2.1431812500000000 -10.079561 -124.851678 -1.064378 -157.926258 -1.459429 89.325673 -11.108207 173.566498 
2.1643750000000002 -10.385302 -155.367561 -1.120985 -173.670794 -1.484560 58.619997 -10.698337 145.922700 
2.1855687499999998 -11.313762 165.285907 -1.085269 170.698904 -1.479014 28.362116 -10.783346 119.604153 
2.2067625000000000 -11.709357 127.538727 -1.020786 155.027898 -1.411861 -2.061707 -11.652868 96.380438 
2.2279562500000001 -11.867800 96.965579 -0.960927 138.951507 -1.367180 -33.023096 -12.628583 65.249161 
2.2491500000000002 -11.972769 75.285487 -0.958274 122.650292 -1.365170 -64.059942 -13.576155 29.026445 
2.2703437499999999 -12.172288 46.247762 -0.983920 106.907070 -1.397238 -94.753577 -13.039911 -4.290075 
2.2915375000000000 -13.438241 7.685170 -0.945593 90.947561 -1.375934 -125.286903 -13.148965 -31.078898 
2.3127312500000001 -13.710348 -34.819114 -0.941547 74.888452 -1.369174 -156.199844 -13.135807 -47.777943 
2.3339249999999998 -13.845812 -72.050323 -0.892991 59.232324 -1.331016 173.119184 -13.861807 -75.933952 
2.3551187499999999 -14.318059 -90.504508 -0.865660 42.900037 -1.280309 142.285133 -15.948187 -109.035810 
2.3763125000000000 -14.306136 -112.037841 -0.867235 27.022147 -1.311799 111.534804 -16.328276 -152.562572 
2.3975062500000002 -16.542416 -140.567140 -0.860634 11.305770 -1.271617 81.014220 -16.577219 165.432577 
2.4186999999999999 -15.403827 -138.695369 -0.900724 17.819747 -1.049345 84.270557 -16.006318 178.962119 
2.4398937500000000 -18.053863 -168.815120 -0.789330 1.656593 -1.066785 53.062096 -16.809766 147.059387 
2.4610875000000001 -19.337209 150.660777 -0.786541 -15.460789 -0.978291 20.334553 -18.340142 124.395639 
2.4822812500000002 -20.085889 125.372681 -0.780110 -31.876431 -0.962811 -10.927581 -21.291039 109.013952 
2.5034749999999999 -20.455608 109.964016 -0.785987 -47.912624 -0.972206 -41.870487 -22.770546 58.828426 
2.5246687500000000 -22.652078 120.300420 -0.793413 -64.067250 -0.976392 -72.817433 -22.369460 -32.720909 
2.5458625000000001 -20.239775 122.591991 -0.822677 -80.269063 -0.990056 -103.617991 -22.466310 -98.532486 
2.5670562499999998 -20.951328 112.188596 -0.794835 -96.299355 -1.028056 -134.404318 -23.080116 -163.026481 
2.5882499999999999 -19.292094 100.015100 -0.830567 -112.474530 -1.039754 -165.530197 -20.958124 128.601492 
2.6094437500000001 -17.437630 73.595050 -0.845232 -128.650178 -1.076952 163.424364 -19.066934 100.043232 
2.6306375000000002 -15.035907 48.870724 -0.892327 -145.049567 -1.138707 132.330678 -16.046725 78.820568 
2.6518312499999999 -13.968717 21.531847 -0.949926 -160.987685 -1.184598 101.673873 -15.034768 46.799558 
2.6730250000000000 -13.888380 1.455777 -0.992209 -176.760155 -1.261008 71.031207 -14.311562 6.787590 
2.6942187500000001 -13.716674 -24.691764 -1.013826 167.491867 -1.289567 40.628357 -13.617067 -40.618348 
2.7154124999999998 -13.957459 -52.193472 -0.996546 151.579706 -1.300553 9.818918 -13.258514 -76.492131 
2.7366062499999999 -12.617319 -79.422575 -0.999509 135.345411 -1.328538 -21.230460 -13.009693 -103.472989 
2.7578000000000000 -11.462370 -109.680667 -1.068655 118.773804 -1.404587 -52.449332 -13.290129 -127.585814 
2.7789937500000002 -11.364098 -135.882953 -1.174546 103.016670 -1.543724 -83.174978 -12.207080 -162.623549 
2.8001874999999998 -12.068096 -159.530176 -1.154727 87.384833 -1.539320 -113.363055 -11.342176 149.101815 
2.8213812500000000 -11.915440 177.193181 -1.148956 70.994500 -1.550916 -144.504845 -11.282762 114.049038 
2.8425750000000001 -10.446073 139.618887 -1.211800 54.735749 -1.633477 -175.481361 -10.790293 91.759559 
2.8637687500000002 -9.704131 100.607175 -1.271689 38.955706 -1.693370 153.754248 -10.749645 71.223853 
2.8849624999999999 -9.550097 70.807949 -1.339764 23.050182 -1.769115 123.540846 -10.465279 43.090814 
2.9061562500000000 -10.125207 45.609879 -1.329164 7.324933 -1.735076 92.954208 -10.620631 1.666093 
2.9273500000000001 -10.328828 22.390604 -1.318142 -9.250880 -1.766245 61.584154 -10.390969 -35.576505 
2.9485437499999998 -9.410863 -14.707924 -1.458411 -25.693734 -1.885137 30.433603 -9.562118 -63.377342 
2.9697374999999999 -8.682987 -55.555478 -1.597199 -41.374726 -2.018833 -0.209577 -8.891256 -84.770757 
2.9909312500000000 -7.984165 -88.776742 -1.666260 -56.707677 -2.113734 -30.307007 -8.442538 -110.632853 
3.0121250000000002 -8.051033 -116.506757 -1.640843 -72.201575 -2.095728 -60.718629 -8.667910 -143.569326 
3.0333187499999998 -8.444108 -139.133467 -1.637780 -88.300105 -2.135897 -91.558672 -8.404426 178.923201 
3.0545125000000000 -8.161184 -169.152068 -1.739869 -104.116038 -2.177379 -121.954421 -8.210494 144.422566 
3.0757062500000001 -7.866933 153.035508 -1.807349 -119.835674 -2.291959 -152.864808 -7.967280 121.732199 
3.0969000000000002 -7.549073 117.257851 -1.920802 -134.868895 -2.406894 177.921084 -7.419545 96.052335 
3.1180937499999999 -7.718871 89.613045 -1.761730 -149.861961 -2.229105 147.601957 -7.972462 63.361525 
3.1392875000000000 -7.789898 69.284135 -1.718739 -166.414994 -2.231161 116.459909 -8.294070 25.907743 
3.1604812500000001 -7.785047 43.566769 -1.761740 177.602730 -2.245580 86.022802 -8.179354 -12.347167 
3.1816749999999998 -8.038450 12.391478 -1.751390 162.150201 -2.259584 55.267550 -8.068390 -40.872344 
3.2028687499999999 -8.039783 -23.808371 -1.767660 146.627346 -2.249639 25.401885 -8.151773 -66.210414 
3.2240625000000001 -8.640435 -55.964381 -1.626078 131.298387 -2.103932 -5.251509 -8.914418 -95.081556 
3.2452562500000002 -9.013025 -76.241470 -1.520543 114.560839 -2.041452 -36.412933 -9.594438 -133.775052 
3.2664499999999999 -8.896425 -98.359082 -1.565919 98.554163 -2.021105 -67.517965 -9.967801 -175.784663 
3.2876437500000000 -9.173426 -126.197217 -1.513393 82.729127 -2.035534 -98.219498 -9.942607 153.030853 
3.3088375000000001 -9.654453 -163.923221 -1.430331 66.992245 -1.958041 -128.604728 -10.525048 128.876520 
3.3300312500000002 -11.380794 159.008098 -1.333221 50.706287 -1.850876 -160.010239 -11.497075 106.300931 
3.3512249999999999 -12.311154 138.563292 -1.244122 33.955338 -1.783921 168.602900 -12.570361 64.453092 
3.3724187500000000 -11.804613 115.323842 -1.258690 17.429507 -1.767952 136.935657 -13.922383 18.551004 
3.3936125000000001 -11.834751 83.614553 -1.243277 1.063342 -1.821944 105.854158 -13.197158 -8.455806 
3.4148062499999998 -12.808395 42.235649 -1.234018 -14.933756 -1.790815 75.255453 -12.819126 -31.020182 
3.4359999999999999 -14.678437 4.728817 -1.142054 -31.131682 -1.745640 44.186729 -13.858973 -48.906526 
3.4571937500000001 -15.674243 -20.137234 -1.112523 -47.775242 -1.683843 12.986500 -16.154112 -82.884391 
3.4783875000000002 -16.991410 -39.520967 -1.080124 -64.424113 -1.646248 -18.702277 -18.981135 -134.134072 
3.4995812499999999 -17.778356 -59.505269 -1.063987 -81.266158 -1.659207 -50.254594 -17.929557 -173.992606 
3.5207750000000000 -19.642869 -109.335779 -1.066607 -97.671852 -1.656246 -81.719383 -18.202299 168.358634 
3.5419687500000001 -21.970963 -165.466232 -1.043377 -114.340660 -1.660687 -113.075175 -18.323956 166.559504 
3.5631624999999998 -23.337058 161.224033 -1.044765 -130.881502 -1.631621 -144.353913 -22.031939 147.575409 
3.5843562499999999 -27.608933 -171.943375 -1.013745 -147.336205 -1.604546 -175.981515 -36.162200 86.562586 
3.6055500000000000 -21.144108 -162.044447 -1.004343 -164.395407 -1.648016 152.470656 -24.919531 -41.105867 
3.6267437500000002 -23.847662 -170.583560 -1.024949 179.081127 -1.645957 121.077922 -27.687906 -96.134312 
3.6479374999999998 -22.841759 -147.234448 -1.046257 162.233689 -1.661243 89.184899 -29.257441 119.100667 
3.6691312500000000 -21.164698 -164.868949 -1.073174 145.478026 -1.706667 57.435607 -20.095290 107.146272 
3.6903250000000001 -18.177445 148.039134 -1.165627 128.602657 -1.761901 25.747048 -16.246666 95.065975 
3.7115187500000002 -15.427258 96.263783 -1.191974 112.112409 -1.822017 -5.871968 -14.464597 87.315692 
3.7327124999999999 -14.166086 69.646000 -1.242258 95.509855 -1.864094 -36.928408 -14.065970 60.056608 
3.7539062500000000 -12.884231 49.303814 -1.299817 78.891192 -1.896167 -68.549591 -14.809769 19.113332 
3.7751000000000001 -12.607831 26.236184 -1.346851 62.272460 -2.005943 -100.045371 -13.027222 -25.064351 
3.7962937499999998 -11.738270 -6.804152 -1.478573 45.628856 -2.078084 -131.216850 -11.204896 -54.983647 
3.8174874999999999 -11.124208 -48.691677 -1.546138 29.960482 -2.192846 -162.330186 -9.826933 -75.861871 
3.8386812500000000 -10.357371 -78.947124 -1.547908 13.487361 -2.163404 166.686783 -10.182159 -102.811157 
3.8598750000000002 -9.297257 -104.509959 -1.580180 -3.307342 -2.198982 134.523810 -11.437599 -133.465802 
3.8810687499999998 -9.173136 -127.934728 -1.690540 -19.818867 -2.382639 103.397397 -10.835842 -176.933298 
3.9022625000000000 -9.244339 -153.959709 -1.816679 -35.700784 -2.424516 72.663766 -9.402983 143.635986 
3.9234562500000001 -9.441042 174.607719 -1.809272 -51.422590 -2.505425 41.830788 -8.541686 114.745912 
3.9446500000000002 -8.914339 141.844693 -1.759621 -67.583874 -2.418837 11.386949 -9.339833 89.085209 
3.9658437499999999 -8.526074 109.836199 -1.726738 -84.265209 -2.392060 -20.743372 -10.643309 62.913010 
3.9870375000000000 -8.644923 87.039682 -1.748890 -101.339709 -2.511847 -52.289048 -10.722966 18.900520 
