!
! C:\Users\LSO\Desktop\2_full_15mm.S2P
!
! Touchstone 1.1 file saved by VNA.EXE V1.65 (www.ke5fx.com/gpib/readme.htm)
! 2. 04. 2024 12:51:21
!
!    Source: HP8510C.07.14: Aug 26  1998 
!  Min freq: 4.500000E+007 Hz
!  Max freq: 1.700000E+010 Hz
!    Points: 801
!    Params: S11 S21 S12 S22
!
!!!!!
# GHZ S DB R 50
0.0450000000000000 -7.987207 169.246987 -0.611907 -55.669369 0.999599 -135.020937 -8.552268 -171.705419 
0.0661937500000000 -5.673635 127.893108 -1.098942 -81.820508 0.430045 -176.113092 -6.141998 145.393218 
0.0873875000000000 -4.536022 88.475892 -1.635341 -104.717132 -0.202201 147.068418 -5.024702 103.322293 
0.1085812500000000 -4.080506 50.375640 -1.813352 -126.393756 -0.489012 111.529700 -4.551182 62.109021 
0.1297750000000000 -3.767282 14.415769 -1.938720 -148.692497 -0.709216 75.178699 -4.082515 22.911690 
0.1509687500000000 -3.328008 -20.650611 -2.175003 -170.398100 -0.998516 39.687030 -3.648992 -14.469384 
0.1721625000000000 -3.192481 -54.775250 -2.249995 168.865123 -1.107482 4.780635 -3.524968 -50.775948 
0.1933562500000000 -3.315004 -87.850755 -2.177121 148.081063 -1.096763 -30.322412 -3.842189 -87.484682 
0.2145500000000000 -3.811092 -121.276728 -1.901231 126.927789 -0.864903 -65.787845 -4.520232 -125.618741 
0.2357437500000000 -4.646241 -154.694010 -1.607549 104.340896 -0.635216 -102.869975 -5.318592 -164.827774 
0.2569375000000000 -5.563064 171.693481 -1.395760 81.386687 -0.460734 -140.328284 -6.180597 156.287605 
0.2781312500000000 -6.605875 130.008889 -1.185949 57.761551 0.054132 170.901622 -7.363261 112.790194 
0.2993250000000000 -9.086581 95.511002 -0.896107 33.112611 0.278350 131.166651 -10.026358 65.713713 
0.3205187500000000 -13.598620 70.003674 -0.648000 7.531152 0.486877 90.995285 -14.431918 10.423460 
0.3417125000000000 -18.082706 62.470759 -0.567389 -17.985167 0.547952 50.787170 -19.070233 -57.024541 
0.3629062500000000 -19.512347 76.994700 -0.573149 -43.405670 0.510625 11.065482 -20.721079 -166.243687 
0.3841000000000000 -14.049502 66.533490 -0.683056 -68.592005 0.376110 -28.655493 -15.097481 105.912262 
0.4052937500000000 -9.820600 36.876404 -0.903712 -93.774583 0.110665 -68.359847 -10.326554 62.102283 
0.4264875000000000 -6.774557 3.901104 -1.290842 -117.848017 -0.352509 -107.142089 -7.146537 23.091172 
0.4476812500000000 -5.400877 -28.986765 -1.602602 -140.604212 -0.721956 -144.319634 -5.941963 -16.019425 
0.4688750000000000 -4.736961 -59.821085 -1.770164 -163.105481 -1.000768 178.583252 -5.626737 -55.268494 
0.4900687500000000 -4.436577 -93.548705 -1.949903 174.027422 -1.249498 141.372040 -5.513333 -94.001244 
0.5112625000000000 -4.356104 -128.577070 -2.197082 151.641141 -1.555452 105.031515 -5.086607 -131.813888 
0.5324562500000000 -4.462592 -164.632347 -2.298351 130.811085 -1.663024 70.034803 -4.925645 -169.653239 
0.5536500000000000 -5.120078 159.663505 -2.079646 109.577313 -1.458289 34.295810 -5.285158 152.130788 
0.5748437500000000 -5.959278 124.760600 -1.758128 86.965047 -1.142796 -2.675466 -6.172589 111.123362 
0.5960375000000000 -6.995325 88.252860 -1.466296 63.117409 -0.828945 -41.074092 -7.588717 71.044448 
0.6172312500000000 -8.356163 52.683479 -1.180970 38.758042 -0.572386 -80.138830 -9.452498 31.335913 
0.6384250000000000 -11.347980 23.054015 -0.936980 13.461341 -0.317475 -120.207613 -13.325766 -10.206208 
0.6596187500000000 -16.339109 28.380184 -0.798878 -12.953813 -0.191489 -161.493831 -22.749280 -79.582479 
0.6808125000000000 -13.644434 52.721687 -0.893450 -39.335356 -0.325638 157.087447 -16.704261 120.565177 
0.7020062500000001 -10.190337 36.832606 -1.074148 -65.064271 -0.540939 116.776432 -11.433295 61.405415 
0.7232000000000000 -8.458332 10.897683 -1.299180 -91.423619 -0.801864 75.780974 -9.172317 16.451517 
0.7443937500000000 -6.613103 -24.681921 -1.756245 -116.479860 -1.281177 36.180083 -7.182605 -26.803723 
0.7655875000000000 -5.447489 -64.151628 -2.090561 -139.496658 -1.630073 -1.841894 -5.918123 -66.336484 
0.7867812500000000 -4.614799 -99.173810 -2.367542 -163.462206 -1.946819 -40.161330 -5.100820 -105.054823 
0.8079750000000000 -4.252162 -132.795583 -2.574537 174.563902 -2.127946 -77.083743 -4.903821 -145.510322 
0.8291687500000000 -4.399987 -165.433085 -2.479854 151.529712 -2.084396 -114.988291 -4.978163 172.425648 
0.8503625000000000 -4.575035 157.939066 -2.396665 127.846893 -1.971897 -153.277948 -5.229002 133.363161 
0.8715562500000000 -4.983732 110.108529 -2.216663 103.016437 -1.476111 156.083806 -5.215083 93.581698 
0.8927500000000000 -6.126067 72.475139 -1.928715 76.879870 -1.195341 114.080447 -6.670082 53.408227 
0.9139437500000001 -8.499161 39.002357 -1.532034 49.751635 -0.854471 71.848138 -10.053859 10.923675 
0.9351375000000000 -13.218988 10.285690 -1.232549 21.563420 -0.590508 28.937719 -16.196760 -40.638781 
0.9563312500000000 -24.391292 22.238126 -1.095386 -7.491355 -0.491106 -14.967888 -33.529699 -51.522517 
0.9775250000000000 -15.928032 62.484400 -1.209826 -36.745690 -0.589846 -59.121614 -18.970254 27.872645 
0.9987187500000000 -10.584005 24.798068 -1.501663 -66.115808 -0.910972 -102.607161 -10.938405 -6.565696 
1.0199125000000000 -7.426282 -15.753108 -1.927030 -94.129161 -1.285313 -145.369729 -7.455795 -45.088972 
1.0411062499999999 -5.652324 -53.072114 -2.333423 -121.465887 -1.740192 172.427946 -6.060168 -82.393048 
1.0623000000000000 -5.095598 -89.129135 -2.579306 -147.764145 -1.962006 131.700336 -5.917855 -124.552753 
1.0834937499999999 -5.719312 -125.759535 -2.475764 -175.069138 -1.868670 89.123999 -6.419229 -169.085708 
1.1046875000000000 -7.091384 -164.596909 -2.271192 155.467707 -1.683020 45.108056 -7.625828 146.351351 
1.1258812499999999 -11.180386 158.524988 -1.913338 122.171486 -1.345093 -3.384560 -11.724060 110.711914 
1.1470750000000001 -16.018892 -158.514768 -1.989845 82.669360 -1.502772 -57.551927 -16.760879 158.117524 
1.1682687500000000 -5.911281 -167.103741 -3.368280 40.617222 -2.953467 -114.109909 -6.768307 142.822517 
1.1894625000000001 -2.406148 150.776692 -5.872929 3.257635 -5.507134 -166.465036 -3.242733 95.854390 
1.2106562500000000 -1.292002 111.182748 -8.732695 -28.363703 -8.439230 147.852843 -1.738510 48.274754 
1.2318499999999999 -0.755832 72.924199 -11.586910 -54.961758 -11.225941 106.535790 -1.040265 5.634304 
1.2530437500000000 -0.341315 36.303212 -14.157387 -78.211427 -13.961203 68.724303 -0.746980 -32.196866 
1.2742374999999999 0.037224 2.779810 -16.515810 -98.554792 -16.199845 34.313164 -0.654355 -68.029140 
1.2954312500000000 0.245411 -27.637732 -18.218156 -117.959282 -18.061629 -0.573515 -0.613491 -104.810421 
1.3166249999999999 0.236418 -57.487960 -20.060739 -138.971846 -19.730741 -35.208834 -0.583496 -143.357498 
1.3378187500000001 0.090828 -88.307481 -21.671390 -158.536588 -21.454052 -70.027046 -0.613287 178.761447 
1.3590125000000000 0.049454 -119.410414 -23.150833 -176.611590 -22.979023 -103.516336 -0.713431 142.485459 
1.3802062500000001 0.155543 -150.138805 -24.403402 164.407997 -24.106591 -136.602092 -0.853000 105.648634 
1.4014000000000000 0.269703 -178.972730 -25.429590 143.608726 -25.277977 -170.800587 -0.924545 65.165227 
1.4225937500000001 0.286562 153.546168 -26.596062 123.544339 -26.356720 153.288646 -0.952175 21.666631 
1.4437875000000000 0.139509 125.541076 -27.765863 102.292025 -27.650507 117.305616 -1.062686 -20.501924 
1.4649812499999999 -0.078415 96.860433 -29.084586 82.978367 -28.904400 83.905042 -1.086221 -61.087814 
1.4861750000000000 -0.024580 67.244172 -29.699705 62.948229 -29.609557 46.821400 -1.197620 -104.218788 
1.5073687499999999 0.118510 37.818252 -30.987541 39.002671 -30.775479 10.468091 -1.301141 -151.153525 
1.5285625000000000 0.172473 10.588484 -32.519958 17.965349 -32.125031 -27.164132 -1.273550 162.310321 
1.5497562499999999 0.203083 -15.546053 -33.687005 -0.871767 -33.619399 -59.622423 -1.159313 119.788255 
1.5709500000000001 0.059617 -42.941530 -34.929722 -22.148369 -34.847183 -95.115171 -1.039360 78.055413 
1.5921437500000000 -0.124686 -71.890952 -36.143163 -42.343482 -35.913242 -133.218462 -1.216926 33.788817 
1.6133375000000001 -0.061357 -101.985791 -37.734791 -62.859786 -37.546279 -168.793883 -1.328282 -10.593874 
1.6345312500000000 0.015624 -132.005766 -39.454164 -85.157950 -38.875672 155.049669 -1.186506 -52.789742 
1.6557249999999999 0.037232 -159.082866 -40.832315 -105.502224 -40.885408 121.510094 -1.066705 -91.848819 
1.6769187500000000 0.077499 174.769485 -42.270993 -126.071463 -41.381118 92.874242 -1.026204 -130.428408 
1.6981124999999999 -0.008860 146.796360 -43.510537 -141.134054 -42.749723 57.980305 -1.069122 -171.084844 
1.7193062500000000 -0.159986 117.256433 -44.397752 -161.916243 -44.333849 18.693210 -1.090229 148.932891 
1.7404999999999999 -0.150792 86.649732 -46.016782 178.918506 -46.421221 -10.466578 -0.993774 112.080272 
1.7616937500000001 -0.163921 57.131804 -47.637202 162.366406 -48.099827 -41.732696 -0.890696 77.851119 
1.7828875000000000 -0.132499 31.022220 -49.347934 142.562251 -48.766325 -78.474702 -0.794151 44.622012 
1.8040812500000001 0.120626 4.539955 -49.420766 138.187747 -48.717624 -110.394657 -0.639355 9.804534 
1.8252750000000000 0.129314 -25.434016 -50.429479 121.668606 -53.380983 -132.764525 -0.729583 -25.265397 
1.8464687500000001 -0.124818 -56.365524 -52.427990 98.630628 -50.572682 -179.183260 -0.906590 -56.730892 
1.8676625000000000 -0.187823 -85.976503 -54.990678 80.771062 -53.563982 147.731314 -0.851242 -87.140674 
1.8888562499999999 -0.124657 -113.339501 -55.028907 65.112089 -54.700251 132.950387 -0.827716 -119.805238 
1.9100500000000000 0.040672 -139.105165 -54.001144 42.750425 -54.952119 83.659597 -0.792635 -154.378196 
1.9312437499999999 0.144166 -166.030074 -56.412995 36.317615 -55.376308 73.414667 -0.825788 170.493737 
1.9524375000000000 -0.045199 164.843389 -56.651050 8.943046 -54.820893 50.276565 -0.943503 138.102611 
1.9736312499999999 -0.236564 135.999959 -57.815141 10.562557 -56.895219 4.411531 -0.940295 107.648098 
1.9948250000000001 -0.192220 108.247831 -57.766757 -10.468300 -61.279350 -36.282663 -0.991515 75.190798 
2.0160187500000002 -0.134972 81.914099 -57.864368 -29.766421 -56.909614 -51.202668 -1.048293 40.503505 
2.0372124999999999 -0.056657 56.688233 -59.030570 -32.065445 -58.724528 -70.102792 -0.955464 4.503644 
2.0584062500000000 -0.026839 29.772509 -58.499142 -67.675189 -59.106768 -100.849451 -0.953081 -29.956414 
2.0796000000000001 -0.225155 0.556284 -59.159134 -117.994532 -60.080655 -166.253020 -1.035451 -61.657753 
2.1007937499999998 -0.405463 -27.416369 -62.572841 -123.819992 -58.855021 -147.564046 -1.072074 -93.989351 
2.1219874999999999 -0.198635 -53.692206 -59.993375 -90.081899 -60.084134 138.379059 -1.087817 -130.258005 
2.1431812500000000 0.017654 -80.153553 -67.737250 -105.141981 -59.687793 97.759232 -1.182684 -168.635446 
2.1643750000000002 -0.058220 -106.872236 -62.130639 -176.346618 -68.368039 52.590874 -1.159888 155.701914 
2.1855687499999998 -0.239338 -134.537373 -59.716273 -156.010833 -69.141684 53.561547 -1.132264 122.650250 
2.2067625000000000 -0.382297 -163.832981 -67.640070 -169.595598 -60.648895 40.729822 -1.205413 89.329033 
2.2279562500000001 -0.302199 166.678620 -68.076537 -176.302065 -56.675504 31.309673 -1.356989 51.429899 
2.2491500000000002 -0.128264 138.232795 -61.246536 123.620642 -64.659051 -29.029650 -1.596184 11.263776 
2.2703437499999999 -0.131608 111.086708 -60.297883 -167.985835 -59.612765 -76.564226 -1.540433 -26.883443 
2.2915375000000000 -0.232166 84.174862 -61.602082 115.383098 -80.365291 -156.778900 -1.484399 -63.335684 
2.3127312500000001 -0.341389 54.805655 -61.022208 105.152522 -61.997562 -99.946356 -1.582901 -100.084916 
2.3339249999999998 -0.427563 23.719302 -61.674010 98.424085 -65.199528 -136.833724 -1.819014 -141.742874 
2.3551187499999999 -0.343558 -5.853046 -78.569038 41.503353 -66.462648 120.143793 -2.008295 173.973694 
2.3763125000000000 -0.199442 -34.154036 -64.003932 28.021841 -60.846202 154.424090 -1.831989 131.873273 
2.3975062500000002 -0.231441 -61.048303 -63.565839 15.041526 -87.621215 -38.253800 -1.609600 92.412488 
2.4186999999999999 0.045146 -63.601423 -67.322481 -22.188188 -59.444868 40.782684 -1.309102 97.915048 
2.4398937500000000 -0.280464 -90.415360 -66.575220 -1.818626 -64.863002 78.971440 -1.378702 57.561031 
2.4610875000000001 -0.244524 -119.856417 -72.075844 -49.446118 -69.731846 32.085302 -1.620362 13.392302 
2.4822812500000002 -0.093571 -150.011118 -68.220375 15.507277 -61.178410 -28.781838 -1.579817 -29.174386 
2.5034749999999999 -0.047294 179.885728 -61.958478 -112.702479 -58.352561 -82.400873 -1.319157 -69.785795 
2.5246687500000000 -0.176402 152.876334 -80.676936 -147.216808 -65.784006 -11.099413 -1.240726 -107.563632 
2.5458625000000001 -0.292347 128.342083 -65.004895 -60.856577 -64.752374 -153.746424 -1.341086 -143.954477 
2.5670562499999998 -0.231606 103.143347 -85.161693 59.529650 -76.696545 -147.837464 -1.399551 179.087881 
2.5882499999999999 -0.126675 75.528707 -73.215240 -104.511748 -70.294953 148.503575 -1.287249 141.148905 
2.6094437500000001 -0.050930 47.033822 -71.597117 -127.831729 -62.540315 91.599269 -1.149915 105.446114 
2.6306375000000002 -0.086613 19.658099 -69.604565 7.138454 -85.364893 -33.609927 -1.070808 72.410104 
2.6518312499999999 -0.258282 -6.063693 -65.542723 -159.485573 -69.491305 12.713307 -1.129172 39.278059 
2.6730250000000000 -0.348163 -31.183499 -66.072015 131.342825 -66.980930 -15.289407 -1.242401 4.681546 
2.6942187500000001 -0.333946 -57.966689 -66.236578 88.557399 -61.980772 -55.069484 -1.162868 -30.790285 
2.7154124999999998 -0.154375 -86.450425 -71.047784 110.869779 -64.344375 -48.544290 -0.989035 -65.758588 
2.7366062499999999 0.050864 -115.679558 -68.441603 38.249617 -66.655064 -22.348565 -0.937987 -99.277548 
2.7578000000000000 -0.087769 -144.001976 -65.743420 18.175528 -67.304017 -135.685853 -1.222293 -132.326221 
2.7789937500000002 -0.419837 -169.439752 -68.197311 83.527530 -63.872855 -143.784588 -1.348920 -166.014774 
2.8001874999999998 -0.458260 164.690883 -64.083619 52.894560 -81.093497 -164.014701 -1.098415 157.050751 
2.8213812500000000 -0.242878 134.884297 -75.252591 -136.926167 -75.112635 -177.944623 -1.014961 120.939152 
2.8425750000000001 -0.142982 103.403776 -63.992744 80.410095 -59.687659 130.340438 -1.099465 89.525705 
2.8637687500000002 -0.170320 74.162623 -70.124006 66.419868 -67.827284 58.319088 -1.255991 59.713018 
2.8849624999999999 -0.278075 47.754733 -68.191944 -82.382758 -64.215459 140.825467 -1.361491 27.231854 
2.9061562500000000 -0.430154 21.798000 -61.381004 -91.854003 -60.442298 78.451513 -1.318579 -10.209461 
2.9273500000000001 -0.419500 -6.728061 -61.428504 -99.370996 -73.088034 95.593092 -1.289134 -47.371433 
2.9485437499999998 -0.427608 -38.554822 -72.820048 -65.851286 -64.258104 -30.488020 -1.267526 -79.832504 
2.9697374999999999 -0.415501 -69.254180 -68.389117 -94.677029 -72.194682 -58.697657 -1.326875 -109.582978 
2.9909312500000000 -0.307466 -96.767302 -67.606907 160.365205 -78.706153 153.070605 -1.396572 -141.428704 
3.0121250000000002 -0.369488 -122.528145 -64.512749 121.783540 -71.618982 -134.675656 -1.480653 -178.434306 
3.0333187499999998 -0.504151 -147.579970 -65.199979 -170.356332 -62.384603 -167.568928 -1.462793 143.343236 
3.0545125000000000 -0.508120 -175.823244 -66.298342 -108.332927 -65.357680 160.612441 -1.480061 108.415937 
3.0757062500000001 -0.509436 152.847863 -67.322818 -144.425198 -65.909699 63.534468 -1.583672 76.919515 
3.0969000000000002 -0.557240 123.755224 -66.750416 63.608542 -65.128987 -170.594927 -1.615474 41.850405 
3.1180937499999999 -0.426092 97.996091 -81.854553 143.835657 -73.545174 89.082231 -1.857525 -0.060633 
3.1392875000000000 -0.314741 72.894737 -73.479299 -119.241515 -70.471588 -34.906095 -1.988049 -42.149627 
3.1604812500000001 -0.445428 47.094508 -66.036056 80.930266 -65.711119 24.499046 -1.896003 -80.216926 
3.1816749999999998 -0.481703 19.511595 -67.204201 73.076962 -68.731260 -144.131457 -2.000196 -116.184063 
3.2028687499999999 -0.478088 -10.147533 -62.375174 69.232739 -68.286531 -148.698303 -2.187535 -156.264755 
3.2240625000000001 -0.463997 -38.557833 -76.305667 -36.689093 -66.777233 -34.674413 -2.393388 157.521520 
3.2452562500000002 -0.382763 -64.436883 -66.300608 -69.553141 -81.345203 -81.014546 -2.348896 114.213537 
3.2664499999999999 -0.389922 -89.667155 -79.381066 96.479571 -61.250628 179.355144 -2.192869 76.855747 
3.2876437500000000 -0.420496 -115.708975 -65.092426 27.678206 -75.221175 153.100148 -2.158697 40.458315 
3.3088375000000001 -0.379652 -144.714376 -69.789442 -82.234005 -66.716011 42.580670 -2.200369 -1.966935 
3.3300312500000002 -0.505518 -175.246365 -70.491295 175.807926 -65.101051 43.976814 -2.202610 -47.188084 
3.3512249999999999 -0.586497 156.996932 -64.914803 -94.771384 -66.324044 -94.444543 -2.096402 -86.211095 
3.3724187500000000 -0.466265 130.425194 -68.552104 -134.140274 -72.339304 100.950530 -1.868238 -119.298464 
3.3936125000000001 -0.374174 102.187450 -70.207132 9.286863 -67.922848 53.643653 -1.787430 -155.238362 
3.4148062499999998 -0.537400 72.746289 -68.702425 -90.520863 -70.059639 33.526454 -2.085157 163.157458 
3.4359999999999999 -0.620131 43.500636 -67.500135 -4.148080 -70.505413 -67.831390 -2.086970 121.749670 
3.4571937500000001 -0.585566 14.788878 -67.037241 -117.631323 -66.454448 -138.239600 -1.796749 85.373861 
3.4783875000000002 -0.593766 -12.364522 -61.249252 -119.222744 -65.100099 169.747355 -1.683933 52.951802 
3.4995812499999999 -0.585024 -39.295723 -69.514422 29.084612 -71.928992 -120.231187 -1.827836 18.572116 
3.5207750000000000 -0.693514 -68.627997 -68.822683 54.338708 -62.919318 159.228597 -2.081675 -20.777628 
3.5419687500000001 -0.764311 -99.339902 -76.957572 -26.248984 -70.502393 126.586416 -1.957146 -60.410527 
3.5631624999999998 -0.712182 -129.901558 -73.670236 13.931321 -81.505384 40.950954 -1.730805 -95.278668 
3.5843562499999999 -0.693011 -157.563829 -78.964556 -48.835638 -75.631233 -94.763207 -1.646136 -125.439404 
3.6055500000000000 -0.653285 177.256113 -70.374321 103.044895 -69.511434 34.721460 -1.724910 -157.622764 
3.6267437500000002 -0.661786 151.537574 -71.095678 44.351339 -64.339702 45.958206 -1.954533 164.553017 
3.6479374999999998 -0.749510 122.668113 -65.105683 91.002071 -65.325959 46.337662 -1.908723 125.933203 
3.6691312500000000 -0.839717 91.845434 -72.113845 -3.742612 -73.609549 -32.770993 -1.614834 92.068334 
3.6903250000000001 -0.768111 62.299554 -65.661498 33.481037 -82.743723 132.030401 -1.449038 62.704097 
3.7115187500000002 -0.610993 35.015382 -71.285260 11.187144 -70.214040 -114.432267 -1.602299 32.093648 
3.7327124999999999 -0.589599 9.404482 -66.191517 -8.995083 -73.570407 -172.641104 -1.958635 -4.065170 
3.7539062500000000 -0.666238 -16.769044 -77.273398 84.192288 -69.254121 154.066559 -2.095152 -43.106526 
3.7751000000000001 -0.792666 -45.422620 -61.870359 -4.239520 -62.613250 -108.966042 -1.861210 -78.888478 
3.7962937499999998 -0.833830 -75.306010 -67.640840 -125.053045 -67.109792 114.442830 -1.687616 -110.830931 
3.8174874999999999 -0.644182 -103.411425 -71.644457 -169.915470 -73.274713 -32.455793 -1.934991 -144.213413 
3.8386812500000000 -0.387342 -130.272110 -68.426376 -90.979877 -66.264527 55.645057 -2.539117 176.259149 
3.8598750000000002 -0.431399 -156.642404 -69.220479 -45.006980 -65.830932 74.983138 -2.815545 132.875994 
3.8810687499999998 -0.804284 177.033184 -66.368401 -128.674522 -66.151885 -5.866181 -2.376376 92.893054 
3.9022625000000000 -0.978406 149.996849 -68.976250 101.820564 -65.489621 -48.135286 -2.194293 56.160089 
3.9234562500000001 -0.769724 121.032239 -74.685620 -28.844581 -65.048972 -38.251818 -2.705509 19.040469 
3.9446500000000002 -0.488040 91.183823 -63.400162 96.980597 -68.619541 164.273214 -3.211137 -24.244359 
3.9658437499999999 -0.488540 62.993212 -74.219593 174.382415 -69.867778 -109.075716 -3.051120 -71.273577 
3.9870375000000000 -0.812259 36.940552 -60.744195 76.943332 -72.191112 178.436264 -2.500259 -112.355657 
