!
! C:\Users\LSO\Desktop\2_full_25mm.S2P
!
! Touchstone 1.1 file saved by VNA.EXE V1.65 (www.ke5fx.com/gpib/readme.htm)
! 2. 04. 2024 10:50:49
!
!    Source: HP8510C.07.14: Aug 26  1998 
!  Min freq: 4.500000E+007 Hz
!  Max freq: 1.700000E+010 Hz
!    Points: 801
!    Params: S11 S21 S12 S22
!
!!!!!
# GHZ S DB R 50
0.0450000000000000 -12.595495 178.848117 -0.273644 -51.948077 1.210693 -132.189586 -13.069852 -165.272471 
0.0661937500000000 -10.067097 138.758644 -0.453739 -77.230604 0.905057 -172.221492 -10.542933 152.661037 
0.0873875000000000 -8.672639 98.336815 -0.737053 -100.268412 0.571464 150.682380 -9.162459 108.371442 
0.1085812500000000 -8.352570 57.996806 -0.764435 -122.556717 0.440279 114.783035 -8.775602 62.916279 
0.1297750000000000 -8.106058 22.545315 -0.786797 -145.492262 0.323334 77.874656 -8.267278 22.392698 
0.1509687500000000 -7.390648 -12.471957 -0.921470 -167.807338 0.149767 41.540483 -7.509433 -16.386138 
0.1721625000000000 -7.064785 -47.184051 -0.982507 170.058712 0.054222 5.488929 -7.279709 -54.437179 
0.1933562500000000 -7.141511 -80.089286 -0.979865 148.437379 0.005641 -30.603842 -7.629762 -93.944678 
0.2145500000000000 -7.767709 -112.731711 -0.853760 126.405356 0.083356 -66.845524 -8.462153 -135.802500 
0.2357437500000000 -8.546787 -143.337777 -0.748261 103.562448 0.122051 -104.230272 -9.286015 -176.904503 
0.2569375000000000 -9.064364 -173.954226 -0.732827 80.630567 0.108327 -141.487982 -9.878515 143.139361 
0.2781312500000000 -9.547022 147.167335 -0.703740 57.509031 0.398915 169.839750 -10.708510 97.914176 
0.2993250000000000 -11.136933 115.722254 -0.628153 33.772960 0.420315 130.833309 -12.405989 46.804204 
0.3205187500000000 -13.652007 92.615081 -0.541604 9.788162 0.466726 92.343729 -14.201577 -10.809062 
0.3417125000000000 -14.966251 68.864739 -0.523602 -13.966427 0.459501 54.081752 -14.880181 -59.966421 
0.3629062500000000 -16.603827 39.222002 -0.511365 -37.265662 0.442224 16.083268 -16.142617 -112.490252 
0.3841000000000000 -16.388725 21.610743 -0.514834 -60.823762 0.433293 -21.844038 -19.211762 -178.596640 
0.4052937500000000 -14.421172 5.999364 -0.548960 -84.509959 0.343404 -60.228227 -16.510657 111.503758 
0.4264875000000000 -11.454583 -11.481086 -0.682329 -107.986351 0.144293 -98.106268 -12.105633 57.991805 
0.4476812500000000 -9.723119 -38.818737 -0.799437 -130.861843 -0.035139 -135.348836 -10.472625 14.165109 
0.4688750000000000 -9.246103 -65.849110 -0.836639 -153.763001 -0.169420 -172.905279 -10.198676 -26.566320 
0.4900687500000000 -8.831179 -96.171805 -0.927181 -177.074640 -0.334130 149.667309 -10.058286 -66.771442 
0.5112625000000000 -8.445784 -130.055678 -1.087546 160.011308 -0.545391 112.510876 -9.120045 -107.336742 
0.5324562500000000 -8.064975 -167.356963 -1.208167 138.029364 -0.685172 76.518102 -8.551859 -148.409365 
0.5536500000000000 -8.570467 154.305456 -1.150446 116.123159 -0.619544 40.007772 -8.771535 172.219161 
0.5748437500000000 -9.408922 117.729425 -1.013379 93.505610 -0.481519 2.832592 -9.654622 131.466732 
0.5960375000000000 -10.125457 79.638453 -0.916521 70.072339 -0.373029 -35.033742 -10.934798 93.071039 
0.6172312500000000 -10.760768 43.100519 -0.816369 46.668154 -0.300709 -73.068951 -12.042327 57.138371 
0.6384250000000000 -12.641905 7.352076 -0.745042 23.008220 -0.211737 -111.493658 -14.457104 24.972394 
0.6596187500000000 -18.988641 -16.843842 -0.644292 -1.258050 -0.136483 -150.586029 -19.860197 -6.297203 
0.6808125000000000 -25.281978 61.934598 -0.635580 -25.993776 -0.155786 169.933034 -27.211868 94.635392 
0.7020062500000001 -16.666543 63.097978 -0.695827 -50.657948 -0.253984 130.635469 -16.760653 58.447126 
0.7232000000000000 -13.959174 41.579589 -0.792878 -75.305383 -0.379877 91.099740 -14.098736 19.497317 
0.7443937500000000 -11.087729 6.834680 -1.006374 -99.883212 -0.637259 51.975828 -11.195346 -19.027892 
0.7655875000000000 -9.168237 -38.697089 -1.235931 -123.480401 -0.854308 13.631028 -9.188579 -56.968530 
0.7867812500000000 -7.634611 -77.199193 -1.442057 -147.409273 -1.120251 -25.053425 -7.703963 -93.268251 
0.8079750000000000 -6.459793 -112.648439 -1.710507 -170.440719 -1.347237 -62.777457 -6.916605 -133.753885 
0.8291687500000000 -6.144621 -145.997560 -1.772560 166.798524 -1.456533 -100.547130 -6.506653 -175.915443 
0.8503625000000000 -5.722796 177.715061 -1.885444 143.405131 -1.542362 -138.475200 -6.188518 145.037186 
0.8715562500000000 -5.329554 128.033607 -1.970775 119.345683 -1.348445 171.363607 -5.409171 106.963985 
0.8927500000000000 -5.350125 88.666129 -1.973002 94.903962 -1.377045 131.266684 -5.519110 69.293095 
0.9139437500000001 -5.762711 52.894846 -1.868879 70.749762 -1.322954 91.967357 -6.567978 30.681102 
0.9351375000000000 -6.820678 16.786839 -1.688080 46.847319 -1.188125 53.495789 -7.881416 -12.103982 
0.9563312500000000 -8.379305 -27.047254 -1.480831 22.295434 -0.976349 13.741085 -8.988934 -50.645314 
0.9775250000000000 -10.321314 -74.756456 -1.303394 -3.014284 -0.848371 -25.995995 -9.373702 -83.622888 
0.9987187500000000 -12.305728 -121.310614 -1.126290 -28.699428 -0.656390 -66.358420 -11.387410 -111.346058 
1.0199125000000000 -16.706378 -171.111667 -1.031069 -55.266869 -0.537749 -107.581956 -14.438253 -125.731069 
1.0411062499999999 -22.743048 85.914168 -1.019232 -82.195513 -0.524047 -149.198369 -17.017421 -124.311454 
1.0623000000000000 -15.361296 -9.561755 -1.127696 -109.239591 -0.618561 168.951509 -14.230600 -136.476472 
1.0834937499999999 -11.767486 -56.716881 -1.287106 -136.184469 -0.795753 127.161174 -11.541112 -171.604229 
1.1046875000000000 -9.471418 -99.650063 -1.566635 -162.924061 -1.095049 85.560526 -9.053400 151.934662 
1.1258812499999999 -7.974627 -145.831373 -1.794434 171.113764 -1.340699 44.647965 -7.681305 116.460910 
1.1470750000000001 -7.009650 173.356439 -1.915677 144.922792 -1.557503 3.914963 -7.258430 80.524420 
1.1682687500000000 -6.930709 134.902516 -1.936719 118.712660 -1.598891 -37.145671 -7.713917 41.132553 
1.1894625000000001 -8.393665 99.033557 -1.806986 91.156178 -1.564374 -79.477184 -8.440309 -1.231451 
1.2106562500000000 -10.725545 59.543444 -1.644315 61.948393 -1.434764 -122.822227 -10.405038 -42.291228 
1.2318499999999999 -16.434914 9.376032 -1.478685 30.176603 -1.299444 -169.462302 -14.670421 -61.219174 
1.2530437500000000 -26.723618 132.146639 -1.641689 -4.739084 -1.478805 141.168603 -15.098481 -31.554739 
1.2742374999999999 -11.069445 86.238750 -2.468487 -41.164502 -2.313981 90.346913 -8.356321 -48.399527 
1.2954312500000000 -4.727403 34.641599 -3.835693 -76.350902 -3.728616 40.147240 -4.881005 -92.294773 
1.3166249999999999 -2.373007 -5.726596 -5.746359 -109.908416 -5.635249 -7.518377 -2.943084 -141.043969 
1.3378187500000001 -1.377027 -44.984063 -7.869331 -139.463468 -7.733263 -51.842415 -1.973740 172.399701 
1.3590125000000000 -0.939889 -83.460784 -9.972138 -165.996504 -9.878534 -92.912917 -1.557373 129.530497 
1.3802062500000001 -0.570736 -120.666257 -11.844664 169.531558 -11.723204 -132.114252 -1.398848 86.507972 
1.4014000000000000 -0.254442 -154.929592 -13.501966 144.224966 -13.489798 -172.293828 -1.226895 40.869746 
1.4225937500000001 -0.038836 174.134041 -15.445309 120.246201 -15.373566 148.994860 -1.104715 -5.325307 
1.4437875000000000 -0.059404 143.239605 -17.250303 97.683259 -17.222972 111.504819 -1.080080 -47.843388 
1.4649812499999999 -0.233248 112.619591 -18.888551 76.306114 -18.878484 75.775996 -1.034816 -88.971728 
1.4861750000000000 -0.212873 80.965422 -20.235505 53.845162 -20.229339 38.449521 -1.078669 -132.732999 
1.5073687499999999 -0.039926 49.581995 -21.948989 30.263325 -21.967041 -0.021931 -1.072900 -178.462583 
1.5285625000000000 0.060005 20.223745 -23.780400 9.439004 -23.860232 -35.279513 -0.995502 138.561544 
1.5497562499999999 0.124388 -7.234478 -25.291587 -10.074224 -25.380610 -69.611497 -0.879155 99.281022 
1.5709500000000001 0.015758 -35.678084 -26.729341 -30.224341 -26.655851 -104.066474 -0.826028 59.136169 
1.5921437500000000 -0.192709 -65.459726 -28.091170 -51.901665 -27.993131 -140.360892 -1.050016 16.611359 
1.6133375000000001 -0.145131 -96.498250 -29.676868 -71.987808 -29.503368 -176.034606 -1.113800 -25.832538 
1.6345312500000000 -0.052122 -127.667480 -31.113648 -92.053121 -31.067955 149.280529 -0.990061 -66.475651 
1.6557249999999999 -0.024974 -155.909140 -33.014682 -111.515837 -32.742131 115.595479 -0.906835 -104.243376 
1.6769187500000000 0.034739 177.128723 -33.710402 -128.443469 -33.955640 81.974313 -0.896181 -142.883516 
1.6981124999999999 -0.052658 148.485040 -35.079122 -150.411849 -34.986687 46.555649 -0.958825 176.514404 
1.7193062500000000 -0.208309 118.200802 -36.518743 -168.416607 -37.100957 14.679326 -0.998203 136.781161 
1.7404999999999999 -0.189980 86.861909 -37.935080 171.610359 -38.361019 -18.015728 -0.900413 100.410318 
1.7616937500000001 -0.199658 56.536214 -39.767552 154.034497 -39.966064 -53.062611 -0.801391 66.233374 
1.7828875000000000 -0.168247 29.733382 -40.854006 142.866347 -40.792701 -80.270484 -0.727050 32.440281 
1.8040812500000001 0.066424 2.582866 -41.460858 122.071171 -42.155767 -111.587478 -0.591406 -3.247318 
1.8252750000000000 0.095665 -28.021521 -43.322563 106.826228 -42.992927 -148.457925 -0.734078 -38.258647 
1.8464687500000001 -0.167490 -59.550455 -45.129083 87.721213 -44.306750 -178.245820 -0.893853 -69.990402 
1.8676625000000000 -0.224191 -89.535282 -45.557561 69.857784 -46.804330 150.934937 -0.822202 -101.519898 
1.8888562499999999 -0.131970 -117.281200 -47.197639 58.818404 -46.886713 117.015936 -0.793332 -135.375240 
1.9100500000000000 0.009699 -143.417238 -47.800429 37.873961 -47.613300 95.133223 -0.767964 -170.988942 
1.9312437499999999 0.122741 -170.921435 -49.875272 29.152010 -47.997563 56.991158 -0.830516 153.396232 
1.9524375000000000 -0.070768 159.500898 -47.851741 4.409835 -49.968165 23.290142 -0.936685 121.440735 
1.9736312499999999 -0.262219 130.577641 -50.476779 -3.324126 -50.432756 -5.769327 -0.914314 90.095191 
1.9948250000000001 -0.219365 102.201843 -51.725623 -28.637993 -51.391912 -42.593455 -0.966594 56.397200 
2.0160187500000002 -0.156920 75.648101 -50.880766 -41.664901 -51.786504 -71.106107 -0.973197 20.681262 
2.0372124999999999 -0.084724 50.162102 -52.642065 -63.898458 -52.246650 -101.131089 -0.876168 -15.647310 
2.0584062500000000 -0.055721 22.638005 -53.208181 -81.831895 -53.167645 -140.312513 -0.891715 -49.387145 
2.0796000000000001 -0.259268 -6.974636 -54.538681 -75.959339 -53.777875 -160.309819 -0.981637 -80.584022 
2.1007937499999998 -0.424299 -35.013677 -53.581657 -105.904611 -55.010725 159.266613 -0.975081 -114.197863 
2.1219874999999999 -0.209498 -61.738066 -54.871914 -119.490220 -56.011791 137.134991 -0.995744 -151.209564 
2.1431812500000000 -0.013593 -88.530529 -53.845774 -156.936089 -57.784193 104.070264 -1.051784 171.288499 
2.1643750000000002 -0.092102 -115.850600 -57.584100 -142.155169 -56.834134 75.913705 -1.013045 137.127575 
2.1855687499999998 -0.269367 -144.038797 -58.669725 -160.842284 -56.738965 42.414455 -1.013115 105.097093 
2.2067625000000000 -0.399649 -173.759081 -56.420440 177.685704 -55.945936 13.905362 -1.070898 71.536277 
2.2279562500000001 -0.286851 156.481761 -56.769963 164.417157 -59.851672 1.269155 -1.254794 33.533738 
2.2491500000000002 -0.117490 127.892236 -58.270944 129.801092 -53.856047 -54.024731 -1.411649 -5.358320 
2.2703437499999999 -0.141067 100.394658 -56.768208 111.975395 -61.113128 -89.262392 -1.306548 -41.623754 
2.2915375000000000 -0.260818 73.165794 -57.386478 120.592677 -58.810878 -118.226134 -1.268395 -76.400538 
2.3127312500000001 -0.366808 43.050843 -59.179798 90.978870 -55.511240 -129.085743 -1.357943 -112.484775 
2.3339249999999998 -0.429171 11.747681 -58.127362 80.816003 -57.183547 175.303005 -1.586341 -153.660225 
2.3551187499999999 -0.327464 -18.018668 -58.123365 34.973762 -59.315606 143.419857 -1.741072 163.667490 
2.3763125000000000 -0.187554 -45.854080 -56.932245 36.958649 -62.078190 121.615890 -1.537306 123.727692 
2.3975062500000002 -0.263161 -72.767144 -59.182422 -1.989717 -59.045120 77.729372 -1.370462 84.985741 
2.4186999999999999 -0.031141 -77.032083 -59.368439 -0.447765 -58.295161 87.622237 -1.073652 93.119795 
2.4398937500000000 -0.337418 -104.121335 -60.164406 -34.007163 -58.409530 26.827016 -1.172780 53.473529 
2.4610875000000001 -0.264021 -133.819677 -57.118537 -38.783454 -68.528944 -25.133798 -1.447315 9.675573 
2.4822812500000002 -0.092863 -164.378445 -59.919653 -69.545535 -61.696145 -49.443059 -1.423252 -32.829658 
2.5034749999999999 -0.090014 165.993750 -60.759078 -92.941879 -58.143409 -71.165616 -1.183811 -74.077723 
2.5246687500000000 -0.243541 139.733020 -59.617914 -72.173778 -59.687213 -108.988127 -1.158345 -112.385027 
2.5458625000000001 -0.310487 115.149908 -63.014068 -125.594691 -57.806728 -147.741248 -1.277972 -149.416648 
2.5670562499999998 -0.226287 89.474148 -57.497165 -135.501452 -64.731170 -177.891648 -1.333872 172.272115 
2.5882499999999999 -0.127204 61.498433 -58.923899 -166.717497 -61.724650 159.479541 -1.218768 133.427778 
2.6094437500000001 -0.069204 33.104922 -62.909778 -155.902752 -69.470882 102.904358 -1.096748 97.044555 
2.6306375000000002 -0.146932 5.807387 -64.660254 158.955566 -61.481372 63.638718 -1.036337 63.027014 
2.6518312499999999 -0.306967 -19.870596 -59.780474 167.094487 -59.689859 77.409713 -1.117635 28.604749 
2.6730250000000000 -0.376310 -45.409296 -63.519488 147.886047 -57.635362 21.769039 -1.207377 -7.384455 
2.6942187500000001 -0.311624 -72.963630 -62.617049 105.513607 -57.497646 19.493996 -1.087570 -44.009221 
2.7154124999999998 -0.124457 -101.784426 -63.237714 52.495491 -61.048288 -81.142958 -0.910334 -79.431518 
2.7366062499999999 0.026984 -131.276280 -65.921556 73.954196 -67.130142 16.032813 -0.921295 -113.558800 
2.7578000000000000 -0.184565 -159.319367 -68.244450 44.747321 -62.150897 -170.329832 -1.215166 -147.320115 
2.7789937500000002 -0.481187 175.304197 -61.909709 40.260470 -58.637805 -150.467317 -1.240036 177.669892 
2.8001874999999998 -0.432780 148.541075 -63.716383 42.781491 -63.494538 162.943449 -0.962130 140.125649 
2.8213812500000000 -0.208196 117.817011 -61.653093 -14.028227 -62.236330 70.839949 -0.949016 104.813946 
2.8425750000000001 -0.168560 86.433899 -71.024873 50.909385 -68.653691 103.519741 -1.052576 74.051893 
2.8637687500000002 -0.224779 57.902181 -60.915329 -69.833234 -69.666543 51.661967 -1.218998 43.924394 
2.8849624999999999 -0.344536 31.766254 -69.080810 -48.235561 -68.747825 62.764887 -1.274929 10.147452 
2.9061562500000000 -0.466634 5.345437 -74.902193 105.518251 -73.669415 -38.424672 -1.175270 -27.875831 
2.9273500000000001 -0.432454 -24.095345 -62.418572 -103.610588 -66.229872 13.997638 -1.145779 -63.814147 
2.9485437499999998 -0.429109 -55.909959 -61.455150 -138.249598 -65.550700 -120.307093 -1.156994 -95.028581 
2.9697374999999999 -0.418775 -85.682075 -77.168414 -19.712467 -69.401578 -14.918269 -1.200900 -124.520933 
2.9909312500000000 -0.323015 -112.431269 -75.658259 -58.109364 -66.377008 -137.058519 -1.245193 -157.329526 
3.0121250000000002 -0.421600 -137.946210 -64.714559 -157.506710 -69.276266 23.266111 -1.300474 165.291378 
3.0333187499999998 -0.544735 -163.410420 -69.869282 148.526299 -67.101084 163.826964 -1.280392 128.031016 
3.0545125000000000 -0.508523 167.602506 -65.028745 168.062704 -70.154930 40.118939 -1.291284 94.482108 
3.0757062500000001 -0.517107 136.531565 -84.332470 64.765671 -66.030113 128.667815 -1.394820 63.244886 
3.0969000000000002 -0.554244 108.451449 -81.478122 -171.225752 -73.478075 -36.250166 -1.409518 27.414002 
3.1180937499999999 -0.394006 83.300960 -67.924591 90.340171 -63.414817 63.502833 -1.648166 -14.794026 
3.1392875000000000 -0.341621 58.219975 -63.340019 71.426244 -63.697358 76.939366 -1.740109 -55.457258 
3.1604812500000001 -0.476076 32.023393 -64.871722 50.688802 -74.270218 -78.318668 -1.677605 -92.248899 
3.1816749999999998 -0.488042 3.729550 -64.308437 73.067357 -69.400246 -16.662564 -1.801738 -128.463574 
3.2028687499999999 -0.475039 -26.152088 -65.583680 29.327772 -68.057316 -132.002133 -2.005791 -169.724310 
3.2240625000000001 -0.454849 -53.748838 -63.791593 115.567736 -67.754813 -53.713878 -2.181288 143.560313 
3.2452562500000002 -0.366638 -79.286003 -68.489713 -19.993568 -67.705085 -105.822391 -2.130112 100.684584 
3.2664499999999999 -0.399502 -104.769374 -64.535209 -33.690062 -80.556337 97.852692 -2.052079 62.883311 
3.2876437500000000 -0.410174 -131.374751 -66.396128 -72.972519 -64.953942 -158.299547 -2.044231 24.257001 
3.3088375000000001 -0.398041 -161.294724 -66.661895 -38.269051 -66.130612 148.786530 -2.118343 -21.216302 
3.3300312500000002 -0.533798 168.544571 -59.984923 -47.844529 -66.179906 64.301422 -2.113944 -67.870986 
3.3512249999999999 -0.589714 141.415300 -62.193617 -122.807866 -61.406392 59.143669 -1.975132 -106.532735 
3.3724187500000000 -0.446138 114.671394 -67.026318 -91.737221 -73.482205 2.841275 -1.764061 -141.437883 
3.3936125000000001 -0.395321 86.112038 -62.596968 -81.490522 -61.253309 -54.179581 -1.798752 178.304879 
3.4148062499999998 -0.580395 56.660937 -62.685959 -134.876632 -66.703570 7.553014 -2.082599 133.760070 
3.4359999999999999 -0.640620 27.589600 -76.180569 -12.696139 -69.192003 -151.099749 -1.915268 92.769547 
3.4571937500000001 -0.597514 -0.751110 -63.669018 -135.531450 -64.189463 -88.666689 -1.647066 57.133586 
3.4783875000000002 -0.613089 -27.543553 -71.346075 89.839217 -77.202949 -103.555307 -1.610887 23.832335 
3.4995812499999999 -0.608012 -54.741582 -65.965085 106.517551 -82.395439 99.772083 -1.821990 -13.732872 
3.5207750000000000 -0.719892 -84.270695 -74.036252 131.853709 -64.523761 110.787172 -1.948080 -54.729408 
3.5419687500000001 -0.745493 -115.001354 -66.143226 21.776973 -67.362041 97.882109 -1.689383 -92.842994 
3.5631624999999998 -0.692639 -144.606954 -69.033003 16.567841 -65.013740 44.356979 -1.496512 -125.413561 
3.5843562499999999 -0.688446 -171.353275 -66.251084 56.653275 -68.234521 -12.174166 -1.485137 -155.618543 
3.6055500000000000 -0.652470 163.855754 -60.032725 17.670690 -62.392079 41.672944 -1.630810 169.408334 
3.6267437500000002 -0.674458 137.558389 -63.837182 80.692251 -75.522892 -148.629177 -1.764607 130.470234 
3.6479374999999998 -0.757211 108.223794 -65.013985 21.155863 -60.549262 -44.792914 -1.589873 93.832793 
3.6691312500000000 -0.814496 77.717192 -73.675246 5.217389 -67.945999 -26.157109 -1.331332 62.702999 
3.6903250000000001 -0.729899 49.002645 -61.289151 -11.574863 -58.953100 -109.433478 -1.320319 33.257603 
3.7115187500000002 -0.566672 22.371203 -70.213833 21.903157 -65.582746 162.349595 -1.592111 -0.014700 
3.7327124999999999 -0.604025 -3.133770 -65.304380 -42.832489 -67.997962 -140.981235 -1.907216 -38.324442 
3.7539062500000000 -0.673639 -29.544261 -64.982520 -32.691523 -63.254109 120.644732 -1.854012 -76.863093 
3.7751000000000001 -0.785366 -58.470989 -62.216069 -79.560132 -63.145642 131.987761 -1.591298 -110.743345 
3.7962937499999998 -0.806321 -87.954320 -62.401799 -51.286743 -83.516087 69.241358 -1.600569 -143.022460 
3.8174874999999999 -0.572191 -115.484220 -63.957734 -115.607502 -73.688580 156.858050 -2.050034 -179.893732 
3.8386812500000000 -0.361865 -141.814207 -63.258618 -116.910653 -74.619118 -22.102194 -2.565241 137.214919 
3.8598750000000002 -0.491180 -168.136690 -76.837823 -46.390730 -58.484400 -13.835889 -2.432640 94.082485 
3.8810687499999998 -0.868590 165.645052 -60.982793 -156.923429 -77.017597 4.012703 -1.985126 55.774191 
3.9022625000000000 -0.946628 138.277721 -66.648040 171.253141 -65.386987 -135.112246 -2.172061 18.495301 
3.9234562500000001 -0.691666 109.128934 -60.925754 159.635826 -57.619274 -131.842472 -2.814307 -22.457324 
3.9446500000000002 -0.451218 79.867299 -61.326154 118.100687 -57.966209 -162.916147 -2.975219 -69.747772 
3.9658437499999999 -0.507968 52.302894 -63.062861 115.062246 -63.633412 148.700312 -2.501576 -115.144399 
3.9870375000000000 -0.885245 26.839532 -61.173579 96.312348 -70.535218 109.620027 -2.162544 -153.691726 
