! Rohde & Schwarz ZVA67 4Ports - Version 4.11 - 1305.7002k04 SN: 101038
! Date: 2024-04-02 02:00:44
! Points: 2000
! Params: S21
! Min freq: 2.000000E+007 Hz
! Max freq: 1.800000E+010 Hz
!
!!!!!
# HZ S DB R 50
20000000.0 -17.83217873612975 -99.33120204620037
28994497.24862431 -15.78192849553017 -128.7325903961556
37988994.49724862 -12.73177395426426 -129.4660507916671
46983491.74587294 -11.29409850440972 -144.0937627255984
55977988.99449725 -9.302854558545206 -156.9799106158288
64972486.24312156 -8.257363219811724 -165.8884687139011
73966983.49174587 -7.725151245966694 -174.3989887301879
82961480.74037018 -7.018370627754751 175.6549167701185
91955977.9889945 -6.535980603577295 163.7083655263012
100950475.2376188 -6.055221029631054 154.9478741058319
109944972.4862431 -5.69059514416741 146.2679848299515
118939469.7348674 -5.726242621317292 136.8286761667859
127933966.9834918 -5.170265054288542 128.2522948863674
136928464.232116 -5.082127131740637 118.9892931979349
145922961.4807404 -4.905943498196739 110.1517584432085
154917458.7293647 -4.963780391464522 101.007614222503
163911955.977989 -4.832994298562063 92.79922767557538
172906453.2266133 -4.833753195736298 84.7223184023291
181900950.4752376 -4.906985032446215 76.35056754573425
190895447.7238619 -4.930885116236944 67.43716036556086
199889944.9724862 -4.985741263265734 58.96907593017935
208884442.2211106 -5.154804159776121 50.38615677940952
217878939.4697349 -5.367860471396694 41.62331198137972
226873436.7183592 -5.542234647861802 33.6009048161017
235867933.9669835 -5.831007859067978 25.17428657481139
244862431.2156078 -6.157895947077979 16.82454994280752
253856928.4642321 -6.537908379173924 7.480871636368856
262851425.7128564 -7.008231812932051 -0.2096886978150769
271845922.9614807 -7.493652612263592 -8.18346578244975
280840420.2101051 -8.191923033411047 -17.40125229716863
289834917.4587293 -8.910862894248973 -24.99601643195282
298829414.7073537 -9.835320566910628 -32.41003096925778
307823911.955978 -10.79189150540564 -38.99472078365864
316818409.2046023 -12.22153226192164 -45.25309881439691
325812906.4532266 -13.42760372665539 -49.0997786339596
334807403.7018509 -15.10122119597134 -50.29161985707501
343801900.9504752 -17.09560548862872 -48.71431405445104
352796398.1990995 -18.06046711721072 -37.92851439194687
361790895.4477239 -18.62842151869773 -22.53560902924862
370785392.6963481 -17.27792903815902 -11.49473944939237
379779889.9449725 -15.71754166149273 -5.475208601610167
388774387.1935968 -14.14635508139993 -8.80255986461469
397768884.4422211 -12.66415688614728 -10.81003859321232
406763381.6908454 -11.42597343531884 -17.38914876299738
415757878.9394697 -10.26374370470554 -23.71586544131763
424752376.188094 -9.534273959393024 -31.62136006584235
433746873.4367183 -8.705014990152682 -38.84681738380306
442741370.6853427 -8.0397481494587 -47.26040108417867
451735867.933967 -7.522839498841827 -54.98323040727373
460730365.1825913 -7.064216791527564 -64.14621891306804
469724862.4312156 -6.731793540919709 -72.12662912524335
478719359.6798399 -6.422128761122365 -80.91058881749167
487713856.9284642 -6.126967190211592 -89.13461403236633
496708354.1770885 -5.911322427669077 -98.35734764359043
505702851.4257128 -5.792756087891751 -106.5451431603343
514697348.6743372 -5.730018607239522 -115.0965519613112
523691845.9229615 -5.666126407209046 -123.6993596668698
532686343.1715858 -5.6373253165246 -132.566506647007
541680840.4202101 -5.724636801359629 -141.2447354478133
550675337.6688344 -5.782302725040929 -150.0550693176924
559669834.9174587 -5.922923080473629 -159.1033696437286
568664332.166083 -6.14628876374526 -167.8030840146552
577658829.4147073 -6.409797072416709 -176.2417580334547
586653326.6633316 -6.791157934561048 174.4071899399516
595647823.911956 -7.240514295656976 165.6417922903258
604642321.1605803 -7.801180689063067 156.8809275010126
613636818.4092046 -8.46250110935806 148.4174997357769
622631315.6578289 -9.325902538008666 139.7660446851922
631625812.9064533 -10.41929930137925 131.8706059709726
640620310.1550775 -11.7761708025756 124.2240144026195
649614807.4037018 -13.43058578833187 118.9145914681983
658609304.6523261 -15.7459910485283 116.1653806922213
667603801.9009504 -18.44910301397656 120.3332510482829
676598299.1495748 -20.60539217203161 136.4780835863458
685592796.3981991 -20.0129739576881 162.4802129093549
694587293.6468234 -17.6481050384132 177.0562679002887
703581790.8954477 -14.8615517280048 178.91430751142
712576288.144072 -12.67074829280499 175.0991918633661
721570785.3926963 -11.04386774525884 168.3579156198851
730565282.6413206 -9.652188692468757 160.935789486396
739559779.8899449 -8.614458541915141 152.1672565510365
748554277.1385692 -7.780033110492635 143.6169758920397
757548774.3871936 -7.089339650773916 134.4317038571621
766543271.6358179 -6.547040989126986 125.8250216814148
775537768.8844422 -6.14842038425941 116.9910268500418
784532266.1330665 -5.773854490053987 108.1725269422238
793526763.3816909 -5.513376508245245 99.31800397044186
802521260.6303151 -5.354839854978796 90.59184462133479
811515757.8789394 -5.218052403833131 81.981719329076
820510255.1275637 -5.145181922418362 73.25995260156218
829504752.376188 -5.106103732242605 64.6826710477793
838499249.6248124 -5.125092384005136 56.20432394445348
847493746.8734367 -5.227535390394196 47.43346322662749
856488244.122061 -5.378705274989276 38.8188355675408
865482741.3706853 -5.556689103906752 29.74035491186582
874477238.6193097 -5.830044532270541 21.11712296841023
883471735.867934 -6.16616950671629 12.23847807206719
892466233.1165582 -6.64533524673285 3.273876047217654
901460730.3651825 -7.204836164914144 -5.795858703878141
910455227.6138068 -7.920115249730284 -14.95059919904589
919449724.8624312 -8.886968350772769 -23.65486426850515
928444222.1110555 -10.11231244444521 -32.23451601549046
937438719.3596798 -11.59593645400441 -40.11501526958705
946433216.6083041 -13.63150594978987 -46.43645306600247
955427713.8569285 -16.29925358709738 -48.30051312350822
964422211.1055528 -19.65975685317124 -41.3634357637638
973416708.354177 -22.08790478680212 -12.10849583085801
982411205.6028013 -19.90300236736757 15.85463957250262
991405702.8514256 -16.52177490969813 24.10088674083954
1000400200.10005 -13.82718558858038 21.60110316225362
1009394697.348674 -11.84951214818415 15.41623213847143
1018389194.597299 -10.26865212451623 7.069684417433876
1027383691.845923 -9.08626645409469 -1.696078353618614
1036378189.094547 -8.224596846335606 -11.21619377238564
1045372686.343172 -7.529090224519562 -20.87876683160646
1054367183.591796 -7.016615317739638 -30.39368002246746
1063361680.84042 -6.621961264468363 -40.34578190788336
1072356178.089045 -6.4316121589983 -50.36875886728819
1081350675.337669 -6.338679548839019 -60.42675035493431
1090345172.586293 -6.393751035329287 -70.20069825701952
1099339669.834917 -6.624954873284919 -80.38274390738205
1108334167.083542 -7.084242984270813 -90.50331845357377
1117328664.332166 -7.77637827522052 -100.9350197552914
1126323161.58079 -8.855302307753924 -110.8097740827196
1135317658.829415 -10.61607957550794 -119.8622722741097
1144312156.078039 -13.52423309790348 -124.4109862250137
1153306653.326663 -17.78509032492919 -112.3284923413417
1162301150.575288 -17.74215046756068 -64.91492465611543
1171295647.823912 -12.36414680548441 -50.64268669499157
1180290145.072536 -8.525483461128253 -57.18933106197071
1189284642.321161 -6.01378890071238 -68.916874022582
1198279139.569785 -4.368218934414465 -81.78902141702049
1207273636.818409 -3.276914540326363 -94.44269994090888
1216268134.067034 -2.541319487465044 -106.4332645920484
1225262631.315658 -2.008876389918534 -117.6855000816682
1234257128.564282 -1.666077021757062 -128.1048516855943
1243251625.812907 -1.411414049360589 -138.0108078826436
1252246123.061531 -1.221194094051128 -147.330987449556
1261240620.310155 -1.090729640154588 -156.0879016749991
1270235117.558779 -0.9784899655634172 -164.5598262650121
1279229614.807404 -0.9056754669651179 -172.5642981021364
1288224112.056028 -0.8489134214701829 179.4502126690661
1297218609.304652 -0.796211753253494 171.9492122802342
1306213106.553277 -0.7492184332626409 164.5504001163129
1315207603.801901 -0.7090055891033723 157.4069809284727
1324202101.050525 -0.684328129362959 150.2256457189328
1333196598.29915 -0.6494524459382782 143.3804539698791
1342191095.547774 -0.6287575657391883 136.5554101678467
1351185592.796398 -0.6039235858387848 129.8950160349744
1360180090.045023 -0.5992614636160375 123.2547897358256
1369174587.293647 -0.5932185232239152 116.7364381804719
1378169084.542271 -0.5638794708492869 110.3846119945918
1387163581.790896 -0.5687815396562331 103.981190884374
1396158079.03952 -0.5616523909258611 97.82287494310467
1405152576.288144 -0.5445943062210683 91.43674435867045
1414147073.536768 -0.5362194023382747 85.35606641932027
1423141570.785393 -0.530676110746315 79.20302375949655
1432136068.034017 -0.5247599601491562 73.17634668062081
1441130565.282641 -0.5059320223611411 67.04297263866054
1450125062.531266 -0.5044645990386679 61.13338045640206
1459119559.77989 -0.4738471178845491 55.007399218177
1468114057.028514 -0.4947718558435866 49.27011430831692
1477108554.277139 -0.5041117457683493 43.24123670456182
1486103051.525763 -0.5081938246936509 37.21223516304065
1495097548.774387 -0.5001013993220383 31.32918008934956
1504092046.023011 -0.4902451250146953 25.4508863891208
1513086543.271636 -0.4856999573218535 19.42107168745178
1522081040.52026 -0.4978141641276582 13.582658162777
1531075537.768884 -0.5263175630920154 7.813192252912644
1540070035.017509 -0.5126314161902904 1.824117258527099
1549064532.266133 -0.5007763037813806 -3.993244408968903
1558059029.514757 -0.4960301113397773 -10.01860521868125
1567053526.763382 -0.5070047637636425 -15.90460170506614
1576048024.012006 -0.5355832267434905 -21.88011472658535
1585042521.26063 -0.5388300373384657 -27.77581515288612
1594037018.509255 -0.5277255743145749 -33.68282871862595
1603031515.757879 -0.5406955986715218 -39.48051420701944
1612026013.006503 -0.5505311830672862 -45.54262711075617
1621020510.255127 -0.5495632636113806 -51.52068420291728
1630015007.503752 -0.5429857071891747 -57.51613495506324
1639009504.752376 -0.5578763928751314 -63.44252339137449
1648004002.001 -0.5646704016702241 -69.32812630675517
1656998499.249625 -0.5978504973589663 -75.32549377549637
1665992996.498249 -0.5837106561568747 -81.51802881683504
1674987493.746873 -0.61828615988962 -87.47536176383954
1683981990.995498 -0.5961858013755188 -93.58044268030926
1692976488.244122 -0.6168611282882831 -99.5355805583293
1701970985.492746 -0.6073408722038446 -105.6606835383252
1710965482.741371 -0.6357291469979537 -111.7396527346626
1719959979.989995 -0.6298460593547884 -117.7192330585823
1728954477.238619 -0.6571294040246478 -123.6743591637905
1737948974.487244 -0.6542453799128439 -129.7042822948403
1746943471.735868 -0.6571791419617709 -135.7134146478569
1755937968.984492 -0.6497381037735541 -141.850943390924
1764932466.233116 -0.6469711859034828 -147.7401165774726
1773926963.481741 -0.6761146435137488 -153.6730801061661
1782921460.730365 -0.669479994794514 -159.6502994521337
1791915957.978989 -0.6852010252714077 -165.64264142196
1800910455.227614 -0.6725792874093856 -171.6297324030192
1809904952.476238 -0.6878980750662628 -177.552038998166
1818899449.724862 -0.6681010155873759 176.642879346531
1827893946.973487 -0.6756777468194354 170.7968059505144
1836888444.222111 -0.6769904450017311 164.9727632090567
1845882941.470735 -0.6857569425166636 159.1109982773476
1854877438.71936 -0.6668551136722718 153.2596569641135
1863871935.967984 -0.6727002753770326 147.4068023106448
1872866433.216608 -0.6649755056388441 141.6196260050916
1881860930.465233 -0.6810122926040034 136.03089541484
1890855427.713857 -0.6685862730984988 130.2435431608512
1899849924.962481 -0.6533869288883568 124.5658199061377
1908844422.211106 -0.6387607237809507 118.8815186665122
1917838919.45973 -0.6342746634065421 113.4423619028819
1926833416.708354 -0.6266526535329132 107.7095858043729
1935827913.956978 -0.6398584331504487 102.1933724433903
1944822411.205603 -0.6343483177190886 96.63574465901881
1953816908.454227 -0.6209031904622195 91.07919107473833
1962811405.702851 -0.6355263266532254 85.5881767610317
1971805902.951476 -0.6245375080752144 80.08375309586607
1980800400.2001 -0.586069817415666 74.5122108078289
1989794897.448724 -0.5936757335423387 69.0447119144196
1998789394.697349 -0.5882887266003248 63.63949842908471
2007783891.945973 -0.5734992350077228 58.15617802274474
2016778389.194597 -0.5833764988179573 52.83375576214507
2025772886.443222 -0.5536730652188528 47.11483515624028
2034767383.691846 -0.5458937680962257 41.77824917784921
2043761880.94047 -0.5432910056998306 36.29827654969334
2052756378.189095 -0.5589454736952608 30.90849800777123
2061750875.437719 -0.5610599755426708 25.4535424628125
2070745372.686343 -0.5220026665727231 19.99264474856186
2079739869.934967 -0.5262754215524847 14.61474786448702
2088734367.183592 -0.5291170976663853 9.05433607695554
2097728864.432216 -0.5437480477648944 3.56773178309924
2106723361.68084 -0.5182235572828797 -1.929812741757696
2115717858.929465 -0.5365891021787477 -7.535390348413674
2124712356.178089 -0.5060879921107996 -13.15020475530134
2133706853.426713 -0.5317490094313637 -18.64842873307634
2142701350.675338 -0.5285396960659701 -24.14677110331557
2151695847.923962 -0.517001365740684 -29.71041937666803
2160690345.172586 -0.5329180867017708 -35.2452203984124
2169684842.42121 -0.5115325958085654 -41.0081920181013
2178679339.669835 -0.5250453961779047 -46.77580267343068
2187673836.918459 -0.5250359476260451 -52.48386939088114
2196668334.167083 -0.5173224880230145 -58.21503702207502
2205662831.415708 -0.552637594337983 -63.91979439316222
2214657328.664332 -0.5473111394956885 -69.84909643845938
2223651825.912956 -0.5566058524841264 -75.50679474390348
2232646323.161581 -0.5762121268792749 -81.31836935516552
2241640820.410205 -0.5838549171032048 -87.32997378608695
2250635317.658829 -0.5686515309925038 -93.06800139822371
2259629814.907454 -0.5688732922118083 -99.00234736483823
2268624312.156078 -0.5965945620919394 -105.0644870701095
2277618809.404702 -0.6217087069426149 -110.9422371488914
2286613306.653327 -0.6110225707120768 -116.7991318280294
2295607803.901951 -0.6094540784670098 -122.9017902700889
2304602301.150575 -0.6269877043431481 -128.8492890929977
2313596798.3992 -0.6174678797429727 -134.7443018579235
2322591295.647824 -0.6540661745577632 -140.7332153017601
2331585792.896448 -0.6263268407424754 -146.8154641619063
2340580290.145073 -0.6655718375386135 -152.7200315311328
2349574787.393697 -0.6669714727458912 -158.6980798840705
2358569284.642321 -0.6650500844790581 -164.5890002532635
2367563781.890945 -0.7011920293687957 -170.7386266334528
2376558279.13957 -0.6888099886710786 -176.5705128967703
2385552776.388194 -0.7349989994172346 177.2433091260836
2394547273.636818 -0.7088212569911463 171.5025369864748
2403541770.885443 -0.7028985971484276 165.463358409464
2412536268.134067 -0.6793151757120669 159.5090716615442
2421530765.382691 -0.7043006260134083 153.7576361989634
2430525262.631316 -0.7005171040089608 147.9404759989002
2439519759.87994 -0.7147978190687443 142.2154161544202
2448514257.128564 -0.7124755659661153 136.4985692143549
2457508754.377189 -0.7294564205654263 130.7790464858459
2466503251.625813 -0.7395960970925393 124.9896912124564
2475497748.874437 -0.7231441512071051 119.4207091476052
2484492246.123062 -0.7379200524450803 113.8750724652115
2493486743.371686 -0.7137491478721324 108.3415440971802
2502481240.62031 -0.7391449221114277 102.6139634629377
2511475737.868934 -0.7407863824382371 97.20810241145108
2520470235.117559 -0.7144705722854788 91.74318671427368
2529464732.366183 -0.7335613657887232 86.11535449404451
2538459229.614807 -0.7253355670808072 80.64863258836323
2547453726.863432 -0.7291812489748973 75.22671346211884
2556448224.112056 -0.7156687098307308 69.69123483068714
2565442721.36068 -0.6892118420089391 64.35283258970121
2574437218.609304 -0.6765615074667146 59.03678605841355
2583431715.857929 -0.7217151096493402 53.52456323654667
2592426213.106553 -0.6869071730286785 48.30608193127831
2601420710.355177 -0.6703826445352847 43.00053817313714
2610415207.603802 -0.6701267266097486 37.59870060804224
2619409704.852426 -0.664587644259717 32.4077626577763
2628404202.10105 -0.6713359200722167 26.99385940881912
2637398699.349675 -0.6899229577431687 21.58588168750972
2646393196.598299 -0.702823554374268 16.39028457237406
2655387693.846923 -0.6964878850253159 11.16869875138039
2664382191.095548 -0.716498669225561 5.573582486272892
2673376688.344172 -0.660602660544361 0.2774409174148427
2682371185.592796 -0.6846206244354829 -5.004567131262091
2691365682.841421 -0.6742988960933545 -10.46192690984829
2700360180.090045 -0.6474607601745379 -15.75788624144007
2709354677.338669 -0.6774406714731641 -21.1155919346455
2718349174.587294 -0.6551393050422778 -26.473267822133
2727343671.835918 -0.6936365286443905 -31.93890688972463
2736338169.084542 -0.6613837632141663 -37.50132627605429
2745332666.333167 -0.6693569878177401 -42.8256158998434
2754327163.581791 -0.6684884434284001 -48.48645761614394
2763321660.830415 -0.6576513614706018 -54.06250349408433
2772316158.07904 -0.6689770018222396 -59.59722102364697
2781310655.327664 -0.665871199653081 -65.30889733123648
2790305152.576288 -0.6898753754278303 -71.00121753520963
2799299649.824913 -0.696016964787606 -76.68148730133399
2808294147.073537 -0.6991565396811532 -82.47906219416365
2817288644.322161 -0.6978848196226629 -88.15825798937527
2826283141.570785 -0.7013396860822845 -93.92514135489132
2835277638.819409 -0.7310414976279018 -99.79746155497843
2844272136.068034 -0.7221465442087043 -105.661279143645
2853266633.316658 -0.7029562501720868 -111.6032153304133
2862261130.565282 -0.7389997873258719 -117.410905780804
2871255627.813907 -0.7635939322641054 -123.4209183343988
2880250125.062531 -0.7300358376629802 -129.4558277970563
2889244622.311155 -0.7303333080560398 -135.2347534347962
2898239119.55978 -0.7280580660351684 -141.2372468160079
2907233616.808404 -0.746520258679549 -147.0934768437173
2916228114.057028 -0.7530145150139554 -153.2748686287821
2925222611.305653 -0.7680782075510592 -159.3427194889366
2934217108.554277 -0.777370588901543 -165.4635262723957
2943211605.802901 -0.7570407044171522 -171.5241466346162
2952206103.051526 -0.7462583371595821 -177.3298841868224
2961200600.30015 -0.7213411421542413 176.7360138255273
2970195097.548774 -0.7719849349482846 170.803671734098
2979189594.797399 -0.7736170968361071 164.6796733544137
2988184092.046023 -0.7502683067291955 158.8958490987542
2997178589.294647 -0.7542792776578022 152.8788247619732
3006173086.543272 -0.7529053600497165 147.1081649466314
3015167583.791896 -0.7649166649036487 141.1496571546449
3024162081.04052 -0.7403466641012023 135.2819095004092
3033156578.289145 -0.757977232826174 129.4495038936813
3042151075.537769 -0.7408695451307968 123.6822496919548
3051145572.786393 -0.7409081825377891 117.8771427648265
3060140070.035018 -0.758904768900439 112.1677618136525
3069134567.283642 -0.7527491362860781 106.441731785056
3078129064.532266 -0.7159966124716814 100.6152862670998
3087123561.780891 -0.7545547803715072 94.95825096938356
3096118059.029515 -0.7573227757269431 89.42632227082547
3105112556.278139 -0.7595875449629612 84.07959146098163
3114107053.526763 -0.7488857431028375 78.48703548056486
3123101550.775388 -0.7182500785556525 73.03575905937865
3132096048.024012 -0.7351620579818309 67.63961762468449
3141090545.272636 -0.7282663307584339 61.98512569167114
3150085042.52126 -0.7237265812570748 56.75290203583514
3159079539.769885 -0.6969382159212997 51.33591928177721
3168074037.018509 -0.6981162237408233 45.72898364440886
3177068534.267133 -0.7281282793844785 40.48334147164959
3186063031.515758 -0.7307833177967898 35.40415306238914
3195057528.764382 -0.7073813195817162 29.78724020930839
3204052026.013006 -0.7317316065067494 24.44580548556151
