#  HZ   S   DB   R     50.00 
! Rohde & Schwarz ZVA67 4Ports - Version 4.11 - 1305.7002k04 SN: 101038
! Date: 2024-04-02 00:01:53
! Measurement: S11 
! 
 2.000000000000000E7    -2.265913815565256E1  -8.741051799351486E1  
 2.899449724862431E7    -2.063058220082758E1  -1.388523686245757E2  
 3.798899449724862E7    -1.806339211522828E1  -1.204540340772486E2  
 4.698349174587294E7    -1.669872130771826E1  -1.372592717877054E2  
 5.597798899449725E7    -1.384343189185457E1  -1.482376161035622E2  
 6.497248624312156E7    -1.296235083663571E1  -1.587841716051233E2  
 7.396698349174587E7    -1.235462373231401E1  -1.661744764269273E2  
 8.296148074037018E7    -1.156712868826217E1  -1.768236000333920E2  
 9.195597798899449E7    -1.069283171659752E1   1.710568782696987E2  
 1.009504752376188E8    -1.014825295933718E1   1.626387827532877E2  
 1.099449724862431E8    -9.744349271161491   1.533486673045558E2  
 1.189394697348674E8    -9.903853486998457   1.432973307895875E2  
 1.279339669834918E8    -9.060302719547693   1.349861134006143E2  
 1.369284642321160E8    -8.972075647664630   1.255476967866840E2  
 1.459229614807404E8    -8.705973250333534   1.166190154347604E2  
 1.549174587293647E8    -8.896617250078952   1.075710662473494E2  
 1.639119559779890E8    -8.788906106702996   9.858278551678482E1  
 1.729064532266133E8    -8.655044473000539   9.168054653811058E1  
 1.819009504752376E8    -8.656879219390111   8.256499451966816E1  
 1.908954477238619E8    -8.785038994239997   7.382262787661007E1  
 1.998899449724862E8    -8.820938992650666   6.539968100031859E1  
 2.088844422211106E8    -8.994055093138123   5.746816083784262E1  
 2.178789394697349E8    -9.253153592208186   4.903694778468102E1  
 2.268734367183592E8    -9.352365631698200   4.119182228175421E1  
 2.358679339669835E8    -9.694738703813441   3.434682303382046E1  
 2.448624312156078E8    -9.953134315824777   2.641010575198017E1  
 2.538569284642321E8    -1.033726488081940E1   1.775810466126927E1  
 2.628514257128564E8    -1.068572702857420E1   1.179714426774574E1  
 2.718459229614807E8    -1.096827076817543E1   4.853138129362193  
 2.808404202101051E8    -1.161008250514419E1  -2.857748741085016  
 2.898349174587293E8    -1.204698029002080E1  -8.232907971666872  
 2.988294147073537E8    -1.245602240150683E1  -1.434867910382007E1  
 3.078239119559780E8    -1.295890040795700E1  -2.002063445990275E1  
 3.168184092046023E8    -1.375704050124723E1  -2.473013972265936E1  
 3.258129064532266E8    -1.399084388883463E1  -2.846725273635234E1  
 3.348074037018509E8    -1.456743000634328E1  -3.213894141560338E1  
 3.438019009504752E8    -1.522183307854196E1  -3.558134813093486E1  
 3.527963981990995E8    -1.539377285949636E1  -3.625294836213347E1  
 3.617908954477239E8    -1.600388997947894E1  -3.668798701782723E1  
 3.707853926963481E8    -1.597080198926477E1  -3.682446626770661E1  
 3.797798899449725E8    -1.615210412352712E1  -3.698796708484817E1  
 3.887743871935968E8    -1.577451538687410E1  -4.085284474489848E1  
 3.977688844422211E8    -1.567637896845679E1  -4.127711736222953E1  
 4.067633816908454E8    -1.501868100547123E1  -4.467228832671916E1  
 4.157578789394697E8    -1.447512292412691E1  -4.698577598281916E1  
 4.247523761880940E8    -1.410389239047983E1  -5.323856222034240E1  
 4.337468734367183E8    -1.350996281603217E1  -5.678664718294739E1  
 4.427413706853427E8    -1.288492160228371E1  -6.218293153676259E1  
 4.517358679339670E8    -1.254824560929271E1  -6.866648064479844E1  
 4.607303651825913E8    -1.193648626457365E1  -7.571361439920518E1  
 4.697248624312156E8    -1.166139638803526E1  -8.157668693293073E1  
 4.787193596798399E8    -1.118599768283386E1  -8.991901327748920E1  
 4.877138569284642E8    -1.084919248128165E1  -9.691139824861020E1  
 4.967083541770885E8    -1.048502960076960E1  -1.055977765931315E2  
 5.057028514257128E8    -1.031419455152286E1  -1.130574304050748E2  
 5.146973486743372E8    -1.015808591299125E1  -1.215237446787924E2  
 5.236918459229615E8    -9.909155573319106  -1.297991969993314E2  
 5.326863431715858E8    -9.739743119346850  -1.385118454752932E2  
 5.416808404202101E8    -9.720686601816345  -1.475264835090250E2  
 5.506753376688345E8    -9.660583411804103  -1.564838017872783E2  
 5.596698349174587E8    -9.657575491967533  -1.659664810163843E2  
 5.686643321660830E8    -9.760859544397638  -1.750469532527015E2  
 5.776588294147073E8    -9.936812591636009   1.765530369570855E2  
 5.866533266633316E8    -1.018557385957629E1   1.664243772263203E2  
 5.956478239119560E8    -1.047581185805401E1   1.569958329093304E2  
 6.046423211605803E8    -1.090432339234555E1   1.474729133820389E2  
 6.136368184092046E8    -1.141615394977300E1   1.384177908340453E2  
 6.226313156578289E8    -1.204555574685732E1   1.284334233360483E2  
 6.316258129064533E8    -1.290220704256053E1   1.187225477080236E2  
 6.406203101550775E8    -1.385339157373326E1   1.085310649530280E2  
 6.496148074037018E8    -1.512412081410589E1   9.901525616420834E1  
 6.586093046523261E8    -1.689939276762676E1   8.817329455234236E1  
 6.676038019009504E8    -1.914400127330259E1   7.730511355277346E1  
 6.765982991495748E8    -2.208855793304189E1   6.800021042049987E1  
 6.855927963981991E8    -2.797124273715595E1   5.832589630079767E1  
 6.945872936468234E8    -4.592726867131908E1  -2.003318805236343  
 7.035817908954477E8    -2.839644218380867E1  -1.352295729236700E2  
 7.125762881440721E8    -2.196328585705213E1  -1.482366026179168E2  
 7.215707853926963E8    -1.856317205797111E1  -1.603698808701161E2  
 7.305652826413206E8    -1.590262890428058E1  -1.703061003130316E2  
 7.395597798899449E8    -1.400031334061328E1   1.784472346752717E2  
 7.485542771385692E8    -1.249686259254687E1   1.686444136503865E2  
 7.575487743871936E8    -1.129665412784391E1   1.578715896125900E2  
 7.665432716358179E8    -1.030023726516477E1   1.484038108319369E2  
 7.755377688844422E8    -9.533359297007612   1.385537962335526E2  
 7.845322661330665E8    -8.827152660858465   1.287929292366427E2  
 7.935267633816909E8    -8.261069862706354   1.190569043542218E2  
 8.025212606303151E8    -7.814775922844618   1.096229369040190E2  
 8.115157578789394E8    -7.401086396245607   1.005857283320998E2  
 8.205102551275637E8    -7.126268394500764   9.099107199103040E1  
 8.295047523761880E8    -6.848824487445919   8.210156625118458E1  
 8.384992496248124E8    -6.650393135171585   7.335097298582939E1  
 8.474937468734367E8    -6.528103157897639   6.405205622260654E1  
 8.564882441220610E8    -6.427262002426734   5.500492246150407E1  
 8.654827413706853E8    -6.350017969594089   4.576530599313115E1  
 8.744772386193097E8    -6.319339238185665   3.694994918754889E1  
 8.834717358679340E8    -6.352901407629879   2.803872359425063E1  
 8.924662331165582E8    -6.448232669990499   1.878303176633725E1  
 9.014607303651825E8    -6.545754774645414   9.530252640293945  
 9.104552276138068E8    -6.692156711805700   2.377803708089147E-1  
 9.194497248624312E8    -6.928116158501696  -9.079412766338514  
 9.284442221110555E8    -7.226553325393073  -1.876085311125902E1  
 9.374387193596798E8    -7.544862998620001  -2.836419916556255E1  
 9.464332166083041E8    -7.934466205430971  -3.847256068281217E1  
 9.554277138569285E8    -8.441452447595067  -4.858303004391597E1  
 9.644222111055528E8    -8.993184150387888  -5.912555243281578E1  
 9.734167083541770E8    -9.733333150881068  -7.030599637789035E1  
 9.824112056028013E8    -1.048844869334277E1  -8.187612617748451E1  
 9.914057028514257E8    -1.145132011307153E1  -9.403156705509196E1  
 1.000400200100050E9    -1.259969678829501E1  -1.072799057589334E2  
 1.009394697348674E9    -1.393202885387645E1  -1.216440993095293E2  
 1.018389194597299E9    -1.568660842041623E1  -1.381737536506444E2  
 1.027383691845923E9    -1.759731009387366E1  -1.588959251343900E2  
 1.036378189094547E9    -1.986374424410789E1   1.755980914148085E2  
 1.045372686343172E9    -2.158564308585446E1   1.388460238778238E2  
 1.054367183591796E9    -2.107633606162187E1   9.903973008059474E1  
 1.063361680840420E9    -1.923651214662389E1   6.505777686420380E1  
 1.072356178089045E9    -1.718302673069118E1   4.030206928005124E1  
 1.081350675337669E9    -1.526326421129266E1   2.030382712274296E1  
 1.090345172586293E9    -1.372525132519414E1   4.292138967495573  
 1.099339669834917E9    -1.245065817244247E1  -1.080753467074955E1  
 1.108334167083542E9    -1.146765697521372E1  -2.432272010660400E1  
 1.117328664332166E9    -1.060979887618629E1  -3.762413243179377E1  
 1.126323161580790E9    -9.897694428181859  -4.999069913903563E1  
 1.135317658829415E9    -9.372685059167312  -6.223126599644025E1  
 1.144312156078039E9    -8.987732457127304  -7.428244567073240E1  
 1.153306653326663E9    -8.658969512419260  -8.586900784877579E1  
 1.162301150575288E9    -8.472190483928285  -9.763603044601761E1  
 1.171295647823912E9    -8.358109660811605  -1.090569726742375E2  
 1.180290145072536E9    -8.382837701226231  -1.206112824467263E2  
 1.189284642321161E9    -8.495239690649992  -1.321928818576262E2  
 1.198279139569785E9    -8.782284470874959  -1.436064844635669E2  
 1.207273636818409E9    -9.258849615100104  -1.555605980940074E2  
 1.216268134067034E9    -9.973990354280305  -1.674434416181493E2  
 1.225262631315658E9    -1.103624075609669E1  -1.793493407880983E2  
 1.234257128564282E9    -1.262732471608847E1   1.689701508211720E2  
 1.243251625812907E9    -1.512930939778275E1   1.571733578472075E2  
 1.252246123061531E9    -1.946833335069061E1   1.478863580441892E2  
 1.261240620310155E9    -3.065184065346764E1   1.651303481993505E2  
 1.270235117558779E9    -2.276367771690271E1  -8.656447855549311E1  
 1.279229614807404E9    -1.531573531313719E1  -9.176239128205570E1  
 1.288224112056028E9    -1.125708626053333E1  -1.035370329136580E2  
 1.297218609304652E9    -8.521811408594633  -1.170499383912559E2  
 1.306213106553277E9    -6.606739957612910  -1.305338686716451E2  
 1.315207603801901E9    -5.191344056989148  -1.436477125689639E2  
 1.324202101050525E9    -4.151982376629851  -1.563501715613949E2  
 1.333196598299150E9    -3.351130262839188  -1.683843346589504E2  
 1.342191095547774E9    -2.778707467466029  -1.797431651297156E2  
 1.351185592796398E9    -2.312332097127758   1.694240370173602E2  
 1.360180090045023E9    -1.981194639083791   1.593739165958519E2  
 1.369174587293647E9    -1.723376375946654   1.495903680225165E2  
 1.378169084542271E9    -1.505880290456348   1.404592098992817E2  
 1.387163581790896E9    -1.333593774377634   1.316370051178001E2  
 1.396158079039520E9    -1.192859686823564   1.232826621665556E2  
 1.405152576288144E9    -1.096761050039793   1.150753484583139E2  
 1.414147073536768E9    -9.993780466260278E-1   1.073200262768555E2  
 1.423141570785393E9    -9.354548806724692E-1   9.960210715573378E1  
 1.432136068034017E9    -8.726351455416529E-1   9.226356950241188E1  
 1.441130565282641E9    -8.235210039656206E-1   8.495492562106423E1  
 1.450125062531266E9    -7.780066071899493E-1   7.794168167556244E1  
 1.459119559779890E9    -7.213510016761002E-1   7.090894001449435E1  
 1.468114057028514E9    -7.062628015181510E-1   6.409928218248417E1  
 1.477108554277139E9    -6.814491445456744E-1   5.735110792250581E1  
 1.486103051525763E9    -6.681196856202468E-1   5.051127225197484E1  
 1.495097548774387E9    -6.394269472371241E-1   4.393401098315778E1  
 1.504092046023011E9    -6.126329462070917E-1   3.730982531724122E1  
 1.513086543271636E9    -6.125302594803835E-1   3.072272398429229E1  
 1.522081040520260E9    -6.083150094272711E-1   2.419211428229370E1  
 1.531075537768884E9    -6.107700587409610E-1   1.774869998209453E1  
 1.540070035017509E9    -5.985268372996655E-1   1.109508977387534E1  
 1.549064532266133E9    -5.811165767442884E-1   4.827304890657183  
 1.558059029514757E9    -5.718260070172092E-1  -1.936984053247585  
 1.567053526763382E9    -5.846536959795277E-1  -8.211114721065739  
 1.576048024012006E9    -5.916971931604040E-1  -1.478843804366239E1  
 1.585042521260630E9    -5.969105150558547E-1  -2.125552855557662E1  
 1.594037018509255E9    -5.905108910121242E-1  -2.780384341579352E1  
 1.603031515757879E9    -5.914637518427427E-1  -3.417166452349048E1  
 1.612026013006503E9    -5.952899791124909E-1  -4.074450084392621E1  
 1.621020510255127E9    -6.108382094233857E-1  -4.728967023932970E1  
 1.630015007503752E9    -6.004168005376196E-1  -5.384198570320335E1  
 1.639009504752376E9    -6.221399892915770E-1  -6.041117065499302E1  
 1.648004002001000E9    -6.399250052512004E-1  -6.685757311766673E1  
 1.656998499249625E9    -6.632933037268459E-1  -7.341231471155861E1  
 1.665992996498249E9    -6.505056998127794E-1  -8.010626010018787E1  
 1.674987493746873E9    -6.747617394962889E-1  -8.674567845611377E1  
 1.683981990995498E9    -6.665045848264626E-1  -9.344161283820324E1  
 1.692976488244122E9    -6.999110087136449E-1  -9.990199776806051E1  
 1.701970985492746E9    -6.986396356265578E-1  -1.065833797522966E2  
 1.710965482741371E9    -7.123322535870366E-1  -1.132105441035051E2  
 1.719959979989995E9    -7.010296694525326E-1  -1.196934559956799E2  
 1.728954477238619E9    -7.308522552614637E-1  -1.262678032992573E2  
 1.737948974487244E9    -7.365348648724684E-1  -1.326790537446604E2  
 1.746943471735868E9    -7.396805607910768E-1  -1.393206986991600E2  
 1.755937968984492E9    -7.295042354440062E-1  -1.457723480453313E2  
 1.764932466233116E9    -7.290533843115995E-1  -1.522221400706444E2  
 1.773926963481741E9    -7.553799145140101E-1  -1.585529685482622E2  
 1.782921460730365E9    -7.485522356584240E-1  -1.648515926764548E2  
 1.791915957978989E9    -7.566155986711922E-1  -1.711866340678563E2  
 1.800910455227614E9    -7.430843826545025E-1  -1.774256020075589E2  
 1.809904952476238E9    -7.507884720612402E-1   1.763843202067852E2  
 1.818899449724862E9    -7.497125964556732E-1   1.702634920425712E2  
 1.827893946973487E9    -7.615696124642621E-1   1.639957361669713E2  
 1.836888444222111E9    -7.346513252967533E-1   1.580631082482144E2  
 1.845882941470735E9    -7.333872338346017E-1   1.519660542245848E2  
 1.854877438719360E9    -7.417569197560768E-1   1.460512327520944E2  
 1.863871935967984E9    -7.134558244387401E-1   1.399943782275676E2  
 1.872866433216608E9    -7.197682348786841E-1   1.340235259467507E2  
 1.881860930465233E9    -7.181537035114565E-1   1.284198862460415E2  
 1.890855427713857E9    -6.980554001264946E-1   1.225800780860362E2  
 1.899849924962481E9    -7.020485196830132E-1   1.169094809825623E2  
 1.908844422211106E9    -6.788490805219204E-1   1.112278141221162E2  
 1.917838919459730E9    -6.593239547978881E-1   1.057141946808254E2  
 1.926833416708354E9    -6.385027679865662E-1   9.988216192519505E1  
 1.935827913956978E9    -6.494216139353266E-1   9.452971409004267E1  
 1.944822411205603E9    -6.497344127709961E-1   8.891785212285461E1  
 1.953816908454227E9    -6.204764541416697E-1   8.349643730744171E1  
 1.962811405702851E9    -6.302400057264541E-1   7.794008767955280E1  
 1.971805902951476E9    -6.167668494859565E-1   7.242171359978163E1  
 1.980800400200100E9    -5.875157513035249E-1   6.694635769103867E1  
 1.989794897448724E9    -5.755944473083734E-1   6.143671951281135E1  
 1.998789394697349E9    -5.976216733393198E-1   5.611348959360527E1  
 2.007783891945973E9    -5.766262902144197E-1   5.050359674417683E1  
 2.016778389194597E9    -5.545557440086667E-1   4.520871145953340E1  
 2.025772886443222E9    -5.422504054033003E-1   3.950969215831094E1  
 2.034767383691846E9    -5.304134178514092E-1   3.420773195608604E1  
 2.043761880940470E9    -5.418923575210952E-1   2.853096981134210E1  
 2.052756378189095E9    -5.413339194102501E-1   2.313712603906451E1  
 2.061750875437719E9    -5.453796826127689E-1   1.756455971884243E1  
 2.070745372686343E9    -5.148705004477890E-1   1.189077635481336E1  
 2.079739869934967E9    -5.297186662403949E-1   6.463572027283354  
 2.088734367183592E9    -5.270406855348437E-1   8.253659403891230E-1  
 2.097728864432216E9    -5.443471278845223E-1  -4.805761104559402  
 2.106723361680840E9    -5.118963321008478E-1  -1.066895611003196E1  
 2.115717858929465E9    -5.397848180733936E-1  -1.621884576963720E1  
 2.124712356178089E9    -5.281788598804172E-1  -2.208048263675864E1  
 2.133706853426713E9    -5.446364927147027E-1  -2.784207823332563E1  
 2.142701350675338E9    -5.482827713244854E-1  -3.376353313182675E1  
 2.151695847923962E9    -5.381944077248649E-1  -3.974948276846042E1  
 2.160690345172586E9    -5.587426871954024E-1  -4.569643018711550E1  
 2.169684842421210E9    -5.346925701958941E-1  -5.159588440598589E1  
 2.178679339669835E9    -5.627392283089268E-1  -5.772922333340908E1  
 2.187673836918459E9    -5.861528379160792E-1  -6.368310954343353E1  
 2.196668334167083E9    -5.974249735800252E-1  -6.995423693531001E1  
 2.205662831415708E9    -6.097285806140349E-1  -7.610899954933977E1  
 2.214657328664332E9    -6.222171144941290E-1  -8.245133767243463E1  
 2.223651825912956E9    -6.260663756519764E-1  -8.849717389377857E1  
 2.232646323161581E9    -6.388150530820744E-1  -9.477472739981084E1  
 2.241640820410205E9    -6.630831010329364E-1  -1.013418522595521E2  
 2.250635317658829E9    -6.706917140959620E-1  -1.076022730804274E2  
 2.259629814907454E9    -6.545313666208997E-1  -1.137905378033365E2  
 2.268624312156078E9    -7.083160696767280E-1  -1.202112412213823E2  
 2.277618809404702E9    -7.290688267249770E-1  -1.264863217912192E2  
 2.286613306653327E9    -7.185117538676608E-1  -1.328682180457091E2  
 2.295607803901951E9    -7.271020607270623E-1  -1.392948281719619E2  
 2.304602301150575E9    -7.461535784633411E-1  -1.454990745591914E2  
 2.313596798399200E9    -7.390642586782729E-1  -1.518007485946866E2  
 2.322591295647824E9    -7.665905390794966E-1  -1.580085129618611E2  
 2.331585792896448E9    -7.539313714341852E-1  -1.644608587681157E2  
 2.340580290145073E9    -7.970444262160388E-1  -1.705004131491559E2  
 2.349574787393697E9    -7.886141796841596E-1  -1.766960374833127E2  
 2.358569284642321E9    -7.726842925434585E-1   1.771942049638213E2  
 2.367563781890945E9    -8.218123108494615E-1   1.710134633997211E2  
 2.376558279139570E9    -8.024678433095761E-1   1.650683849739557E2  
 2.385552776388194E9    -8.029580150512625E-1   1.590980976493448E2  
 2.394547273636818E9    -7.772505536824585E-1   1.532153477718653E2  
 2.403541770885443E9    -7.821217594556933E-1   1.474216034711812E2  
 2.412536268134067E9    -7.610412003713810E-1   1.414213434692775E2  
 2.421530765382691E9    -7.914814759751517E-1   1.359126977251487E2  
 2.430525262631316E9    -7.596606257241300E-1   1.302733215603627E2  
 2.439519759879940E9    -7.687620619499859E-1   1.246561098494244E2  
 2.448514257128564E9    -7.365690209521421E-1   1.189507278903482E2  
 2.457508754377189E9    -7.801454169039961E-1   1.135970678885934E2  
 2.466503251625813E9    -7.778388050965963E-1   1.081345379810671E2  
 2.475497748874437E9    -7.793602779052536E-1   1.027268922822293E2  
 2.484492246123062E9    -7.618700610845220E-1   9.735283248512954E1  
 2.493486743371686E9    -7.492274453952408E-1   9.215978533940728E1  
 2.502481240620310E9    -7.524572791662098E-1   8.657166049995281E1  
 2.511475737868934E9    -7.405664319241077E-1   8.161716245857878E1  
 2.520470235117559E9    -7.349820307963091E-1   7.637302199623976E1  
 2.529464732366183E9    -7.432857727993348E-1   7.101264460665411E1  
 2.538459229614807E9    -7.342777230654699E-1   6.602517244403398E1  
 2.547453726863432E9    -7.233799422164204E-1   6.090247324928031E1  
 2.556448224112056E9    -7.159318725350619E-1   5.524955277944751E1  
 2.565442721360680E9    -6.743587881485629E-1   5.013302225637776E1  
 2.574437218609304E9    -6.615861163279564E-1   4.500458127029233E1  
 2.583431715857929E9    -7.033847321129778E-1   3.981684757590730E1  
 2.592426213106553E9    -6.477314892120278E-1   3.459386126851765E1  
 2.601420710355177E9    -6.524744596986721E-1   2.966586230523327E1  
