#  HZ   S   DB   R     50.00 
! Rohde & Schwarz ZVA67 4Ports - Version 4.11 - 1305.7002k04 SN: 101038
! Date: 2024-04-02 02:00:44
! Measurement: S11 
! 
 2.000000000000000E7    -1.783217873612975E1  -9.933120204620037E1  
 2.899449724862431E7    -1.578192849553017E1  -1.287325903961556E2  
 3.798899449724862E7    -1.273177395426426E1  -1.294660507916671E2  
 4.698349174587294E7    -1.129409850440972E1  -1.440937627255984E2  
 5.597798899449725E7    -9.302854558545207  -1.569799106158288E2  
 6.497248624312156E7    -8.257363219811724  -1.658884687139011E2  
 7.396698349174587E7    -7.725151245966694  -1.743989887301879E2  
 8.296148074037018E7    -7.018370627754751   1.756549167701185E2  
 9.195597798899449E7    -6.535980603577295   1.637083655263012E2  
 1.009504752376188E8    -6.055221029631054   1.549478741058319E2  
 1.099449724862431E8    -5.690595144167410   1.462679848299515E2  
 1.189394697348674E8    -5.726242621317292   1.368286761667859E2  
 1.279339669834918E8    -5.170265054288542   1.282522948863674E2  
 1.369284642321160E8    -5.082127131740637   1.189892931979349E2  
 1.459229614807404E8    -4.905943498196739   1.101517584432085E2  
 1.549174587293647E8    -4.963780391464522   1.010076142225030E2  
 1.639119559779890E8    -4.832994298562063   9.279922767557538E1  
 1.729064532266133E8    -4.833753195736298   8.472231840232909E1  
 1.819009504752376E8    -4.906985032446215   7.635056754573425E1  
 1.908954477238619E8    -4.930885116236944   6.743716036556086E1  
 1.998899449724862E8    -4.985741263265734   5.896907593017935E1  
 2.088844422211106E8    -5.154804159776121   5.038615677940952E1  
 2.178789394697349E8    -5.367860471396694   4.162331198137972E1  
 2.268734367183592E8    -5.542234647861802   3.360090481610170E1  
 2.358679339669835E8    -5.831007859067978   2.517428657481139E1  
 2.448624312156078E8    -6.157895947077979   1.682454994280752E1  
 2.538569284642321E8    -6.537908379173924   7.480871636368856  
 2.628514257128564E8    -7.008231812932051  -2.096886978150769E-1  
 2.718459229614807E8    -7.493652612263592  -8.183465782449749  
 2.808404202101051E8    -8.191923033411047  -1.740125229716863E1  
 2.898349174587293E8    -8.910862894248973  -2.499601643195282E1  
 2.988294147073537E8    -9.835320566910628  -3.241003096925778E1  
 3.078239119559780E8    -1.079189150540564E1  -3.899472078365864E1  
 3.168184092046023E8    -1.222153226192164E1  -4.525309881439691E1  
 3.258129064532266E8    -1.342760372665539E1  -4.909977863395960E1  
 3.348074037018509E8    -1.510122119597134E1  -5.029161985707501E1  
 3.438019009504752E8    -1.709560548862872E1  -4.871431405445104E1  
 3.527963981990995E8    -1.806046711721072E1  -3.792851439194687E1  
 3.617908954477239E8    -1.862842151869773E1  -2.253560902924862E1  
 3.707853926963481E8    -1.727792903815902E1  -1.149473944939237E1  
 3.797798899449725E8    -1.571754166149273E1  -5.475208601610167  
 3.887743871935968E8    -1.414635508139993E1  -8.802559864614690  
 3.977688844422211E8    -1.266415688614728E1  -1.081003859321232E1  
 4.067633816908454E8    -1.142597343531884E1  -1.738914876299738E1  
 4.157578789394697E8    -1.026374370470554E1  -2.371586544131763E1  
 4.247523761880940E8    -9.534273959393024  -3.162136006584235E1  
 4.337468734367183E8    -8.705014990152682  -3.884681738380306E1  
 4.427413706853427E8    -8.039748149458701  -4.726040108417867E1  
 4.517358679339670E8    -7.522839498841827  -5.498323040727373E1  
 4.607303651825913E8    -7.064216791527564  -6.414621891306804E1  
 4.697248624312156E8    -6.731793540919709  -7.212662912524336E1  
 4.787193596798399E8    -6.422128761122365  -8.091058881749167E1  
 4.877138569284642E8    -6.126967190211592  -8.913461403236633E1  
 4.967083541770885E8    -5.911322427669077  -9.835734764359043E1  
 5.057028514257128E8    -5.792756087891751  -1.065451431603343E2  
 5.146973486743372E8    -5.730018607239522  -1.150965519613112E2  
 5.236918459229615E8    -5.666126407209046  -1.236993596668698E2  
 5.326863431715858E8    -5.637325316524600  -1.325665066470070E2  
 5.416808404202101E8    -5.724636801359629  -1.412447354478133E2  
 5.506753376688345E8    -5.782302725040929  -1.500550693176924E2  
 5.596698349174587E8    -5.922923080473629  -1.591033696437286E2  
 5.686643321660830E8    -6.146288763745260  -1.678030840146552E2  
 5.776588294147073E8    -6.409797072416709  -1.762417580334547E2  
 5.866533266633316E8    -6.791157934561048   1.744071899399516E2  
 5.956478239119560E8    -7.240514295656976   1.656417922903258E2  
 6.046423211605803E8    -7.801180689063067   1.568809275010126E2  
 6.136368184092046E8    -8.462501109358060   1.484174997357769E2  
 6.226313156578289E8    -9.325902538008666   1.397660446851922E2  
 6.316258129064533E8    -1.041929930137925E1   1.318706059709726E2  
 6.406203101550775E8    -1.177617080257560E1   1.242240144026195E2  
 6.496148074037018E8    -1.343058578833187E1   1.189145914681983E2  
 6.586093046523261E8    -1.574599104852830E1   1.161653806922213E2  
 6.676038019009504E8    -1.844910301397656E1   1.203332510482829E2  
 6.765982991495748E8    -2.060539217203161E1   1.364780835863458E2  
 6.855927963981991E8    -2.001297395768810E1   1.624802129093549E2  
 6.945872936468234E8    -1.764810503841320E1   1.770562679002887E2  
 7.035817908954477E8    -1.486155172800480E1   1.789143075114200E2  
 7.125762881440721E8    -1.267074829280499E1   1.750991918633661E2  
 7.215707853926963E8    -1.104386774525884E1   1.683579156198851E2  
 7.305652826413206E8    -9.652188692468757   1.609357894863960E2  
 7.395597798899449E8    -8.614458541915141   1.521672565510365E2  
 7.485542771385692E8    -7.780033110492635   1.436169758920397E2  
 7.575487743871936E8    -7.089339650773916   1.344317038571621E2  
 7.665432716358179E8    -6.547040989126986   1.258250216814148E2  
 7.755377688844422E8    -6.148420384259410   1.169910268500418E2  
 7.845322661330665E8    -5.773854490053987   1.081725269422238E2  
 7.935267633816909E8    -5.513376508245245   9.931800397044187E1  
 8.025212606303151E8    -5.354839854978796   9.059184462133479E1  
 8.115157578789394E8    -5.218052403833131   8.198171932907600E1  
 8.205102551275637E8    -5.145181922418362   7.325995260156218E1  
 8.295047523761880E8    -5.106103732242605   6.468267104777929E1  
 8.384992496248124E8    -5.125092384005136   5.620432394445348E1  
 8.474937468734367E8    -5.227535390394196   4.743346322662749E1  
 8.564882441220610E8    -5.378705274989276   3.881883556754080E1  
 8.654827413706853E8    -5.556689103906752   2.974035491186582E1  
 8.744772386193097E8    -5.830044532270541   2.111712296841023E1  
 8.834717358679340E8    -6.166169506716290   1.223847807206719E1  
 8.924662331165582E8    -6.645335246732850   3.273876047217654  
 9.014607303651825E8    -7.204836164914144  -5.795858703878141  
 9.104552276138068E8    -7.920115249730284  -1.495059919904589E1  
 9.194497248624312E8    -8.886968350772769  -2.365486426850515E1  
 9.284442221110555E8    -1.011231244444521E1  -3.223451601549046E1  
 9.374387193596798E8    -1.159593645400441E1  -4.011501526958705E1  
 9.464332166083041E8    -1.363150594978987E1  -4.643645306600247E1  
 9.554277138569285E8    -1.629925358709738E1  -4.830051312350822E1  
 9.644222111055528E8    -1.965975685317124E1  -4.136343576376380E1  
 9.734167083541770E8    -2.208790478680212E1  -1.210849583085801E1  
 9.824112056028013E8    -1.990300236736757E1   1.585463957250262E1  
 9.914057028514257E8    -1.652177490969813E1   2.410088674083954E1  
 1.000400200100050E9    -1.382718558858038E1   2.160110316225362E1  
 1.009394697348674E9    -1.184951214818415E1   1.541623213847143E1  
 1.018389194597299E9    -1.026865212451623E1   7.069684417433876  
 1.027383691845923E9    -9.086266454094689  -1.696078353618614  
 1.036378189094547E9    -8.224596846335606  -1.121619377238564E1  
 1.045372686343172E9    -7.529090224519562  -2.087876683160646E1  
 1.054367183591796E9    -7.016615317739638  -3.039368002246746E1  
 1.063361680840420E9    -6.621961264468363  -4.034578190788336E1  
 1.072356178089045E9    -6.431612158998300  -5.036875886728819E1  
 1.081350675337669E9    -6.338679548839019  -6.042675035493431E1  
 1.090345172586293E9    -6.393751035329287  -7.020069825701953E1  
 1.099339669834917E9    -6.624954873284919  -8.038274390738205E1  
 1.108334167083542E9    -7.084242984270813  -9.050331845357377E1  
 1.117328664332166E9    -7.776378275220520  -1.009350197552914E2  
 1.126323161580790E9    -8.855302307753924  -1.108097740827196E2  
 1.135317658829415E9    -1.061607957550794E1  -1.198622722741097E2  
 1.144312156078039E9    -1.352423309790348E1  -1.244109862250137E2  
 1.153306653326663E9    -1.778509032492919E1  -1.123284923413417E2  
 1.162301150575288E9    -1.774215046756068E1  -6.491492465611543E1  
 1.171295647823912E9    -1.236414680548441E1  -5.064268669499157E1  
 1.180290145072536E9    -8.525483461128253  -5.718933106197071E1  
 1.189284642321161E9    -6.013788900712380  -6.891687402258199E1  
 1.198279139569785E9    -4.368218934414465  -8.178902141702049E1  
 1.207273636818409E9    -3.276914540326363  -9.444269994090888E1  
 1.216268134067034E9    -2.541319487465044  -1.064332645920484E2  
 1.225262631315658E9    -2.008876389918534  -1.176855000816682E2  
 1.234257128564282E9    -1.666077021757062  -1.281048516855943E2  
 1.243251625812907E9    -1.411414049360589  -1.380108078826436E2  
 1.252246123061531E9    -1.221194094051128  -1.473309874495560E2  
 1.261240620310155E9    -1.090729640154588  -1.560879016749991E2  
 1.270235117558779E9    -9.784899655634172E-1  -1.645598262650121E2  
 1.279229614807404E9    -9.056754669651179E-1  -1.725642981021364E2  
 1.288224112056028E9    -8.489134214701829E-1   1.794502126690661E2  
 1.297218609304652E9    -7.962117532534940E-1   1.719492122802342E2  
 1.306213106553277E9    -7.492184332626409E-1   1.645504001163129E2  
 1.315207603801901E9    -7.090055891033723E-1   1.574069809284727E2  
 1.324202101050525E9    -6.843281293629590E-1   1.502256457189328E2  
 1.333196598299150E9    -6.494524459382782E-1   1.433804539698791E2  
 1.342191095547774E9    -6.287575657391883E-1   1.365554101678467E2  
 1.351185592796398E9    -6.039235858387848E-1   1.298950160349744E2  
 1.360180090045023E9    -5.992614636160375E-1   1.232547897358256E2  
 1.369174587293647E9    -5.932185232239152E-1   1.167364381804719E2  
 1.378169084542271E9    -5.638794708492869E-1   1.103846119945918E2  
 1.387163581790896E9    -5.687815396562331E-1   1.039811908843740E2  
 1.396158079039520E9    -5.616523909258611E-1   9.782287494310467E1  
 1.405152576288144E9    -5.445943062210683E-1   9.143674435867045E1  
 1.414147073536768E9    -5.362194023382747E-1   8.535606641932027E1  
 1.423141570785393E9    -5.306761107463150E-1   7.920302375949655E1  
 1.432136068034017E9    -5.247599601491562E-1   7.317634668062081E1  
 1.441130565282641E9    -5.059320223611411E-1   6.704297263866054E1  
 1.450125062531266E9    -5.044645990386679E-1   6.113338045640206E1  
 1.459119559779890E9    -4.738471178845491E-1   5.500739921817700E1  
 1.468114057028514E9    -4.947718558435866E-1   4.927011430831692E1  
 1.477108554277139E9    -5.041117457683493E-1   4.324123670456182E1  
 1.486103051525763E9    -5.081938246936509E-1   3.721223516304065E1  
 1.495097548774387E9    -5.001013993220383E-1   3.132918008934956E1  
 1.504092046023011E9    -4.902451250146953E-1   2.545088638912080E1  
 1.513086543271636E9    -4.856999573218535E-1   1.942107168745178E1  
 1.522081040520260E9    -4.978141641276582E-1   1.358265816277700E1  
 1.531075537768884E9    -5.263175630920154E-1   7.813192252912644  
 1.540070035017509E9    -5.126314161902904E-1   1.824117258527099  
 1.549064532266133E9    -5.007763037813806E-1  -3.993244408968903  
 1.558059029514757E9    -4.960301113397773E-1  -1.001860521868125E1  
 1.567053526763382E9    -5.070047637636425E-1  -1.590460170506614E1  
 1.576048024012006E9    -5.355832267434905E-1  -2.188011472658535E1  
 1.585042521260630E9    -5.388300373384657E-1  -2.777581515288612E1  
 1.594037018509255E9    -5.277255743145749E-1  -3.368282871862595E1  
 1.603031515757879E9    -5.406955986715218E-1  -3.948051420701944E1  
 1.612026013006503E9    -5.505311830672862E-1  -4.554262711075617E1  
 1.621020510255127E9    -5.495632636113806E-1  -5.152068420291728E1  
 1.630015007503752E9    -5.429857071891747E-1  -5.751613495506324E1  
 1.639009504752376E9    -5.578763928751314E-1  -6.344252339137449E1  
 1.648004002001000E9    -5.646704016702241E-1  -6.932812630675517E1  
 1.656998499249625E9    -5.978504973589663E-1  -7.532549377549637E1  
 1.665992996498249E9    -5.837106561568747E-1  -8.151802881683504E1  
 1.674987493746873E9    -6.182861598896200E-1  -8.747536176383954E1  
 1.683981990995498E9    -5.961858013755188E-1  -9.358044268030926E1  
 1.692976488244122E9    -6.168611282882831E-1  -9.953558055832930E1  
 1.701970985492746E9    -6.073408722038446E-1  -1.056606835383252E2  
 1.710965482741371E9    -6.357291469979537E-1  -1.117396527346626E2  
 1.719959979989995E9    -6.298460593547884E-1  -1.177192330585823E2  
 1.728954477238619E9    -6.571294040246478E-1  -1.236743591637905E2  
 1.737948974487244E9    -6.542453799128439E-1  -1.297042822948403E2  
 1.746943471735868E9    -6.571791419617709E-1  -1.357134146478569E2  
 1.755937968984492E9    -6.497381037735541E-1  -1.418509433909240E2  
 1.764932466233116E9    -6.469711859034828E-1  -1.477401165774726E2  
 1.773926963481741E9    -6.761146435137488E-1  -1.536730801061661E2  
 1.782921460730365E9    -6.694799947945140E-1  -1.596502994521337E2  
 1.791915957978989E9    -6.852010252714077E-1  -1.656426414219600E2  
 1.800910455227614E9    -6.725792874093856E-1  -1.716297324030192E2  
 1.809904952476238E9    -6.878980750662628E-1  -1.775520389981660E2  
 1.818899449724862E9    -6.681010155873759E-1   1.766428793465310E2  
 1.827893946973487E9    -6.756777468194354E-1   1.707968059505144E2  
 1.836888444222111E9    -6.769904450017311E-1   1.649727632090567E2  
 1.845882941470735E9    -6.857569425166636E-1   1.591109982773476E2  
 1.854877438719360E9    -6.668551136722718E-1   1.532596569641135E2  
 1.863871935967984E9    -6.727002753770326E-1   1.474068023106448E2  
 1.872866433216608E9    -6.649755056388441E-1   1.416196260050916E2  
 1.881860930465233E9    -6.810122926040034E-1   1.360308954148400E2  
 1.890855427713857E9    -6.685862730984988E-1   1.302435431608512E2  
 1.899849924962481E9    -6.533869288883568E-1   1.245658199061377E2  
 1.908844422211106E9    -6.387607237809507E-1   1.188815186665122E2  
 1.917838919459730E9    -6.342746634065422E-1   1.134423619028819E2  
 1.926833416708354E9    -6.266526535329132E-1   1.077095858043729E2  
 1.935827913956978E9    -6.398584331504487E-1   1.021933724433903E2  
 1.944822411205603E9    -6.343483177190886E-1   9.663574465901881E1  
 1.953816908454227E9    -6.209031904622195E-1   9.107919107473833E1  
 1.962811405702851E9    -6.355263266532254E-1   8.558817676103170E1  
 1.971805902951476E9    -6.245375080752144E-1   8.008375309586607E1  
 1.980800400200100E9    -5.860698174156660E-1   7.451221080782889E1  
 1.989794897448724E9    -5.936757335423387E-1   6.904471191441959E1  
 1.998789394697349E9    -5.882887266003248E-1   6.363949842908471E1  
 2.007783891945973E9    -5.734992350077228E-1   5.815617802274474E1  
 2.016778389194597E9    -5.833764988179573E-1   5.283375576214507E1  
 2.025772886443222E9    -5.536730652188528E-1   4.711483515624028E1  
 2.034767383691846E9    -5.458937680962257E-1   4.177824917784921E1  
 2.043761880940470E9    -5.432910056998306E-1   3.629827654969334E1  
 2.052756378189095E9    -5.589454736952608E-1   3.090849800777123E1  
 2.061750875437719E9    -5.610599755426708E-1   2.545354246281250E1  
 2.070745372686343E9    -5.220026665727231E-1   1.999264474856186E1  
 2.079739869934967E9    -5.262754215524848E-1   1.461474786448702E1  
 2.088734367183592E9    -5.291170976663853E-1   9.054336076955540  
 2.097728864432216E9    -5.437480477648944E-1   3.567731783099240  
 2.106723361680840E9    -5.182235572828797E-1  -1.929812741757696  
 2.115717858929465E9    -5.365891021787477E-1  -7.535390348413674  
 2.124712356178089E9    -5.060879921107996E-1  -1.315020475530134E1  
 2.133706853426713E9    -5.317490094313637E-1  -1.864842873307634E1  
 2.142701350675338E9    -5.285396960659701E-1  -2.414677110331557E1  
 2.151695847923962E9    -5.170013657406840E-1  -2.971041937666803E1  
 2.160690345172586E9    -5.329180867017708E-1  -3.524522039841240E1  
 2.169684842421210E9    -5.115325958085654E-1  -4.100819201810130E1  
 2.178679339669835E9    -5.250453961779047E-1  -4.677580267343068E1  
 2.187673836918459E9    -5.250359476260451E-1  -5.248386939088114E1  
 2.196668334167083E9    -5.173224880230145E-1  -5.821503702207502E1  
 2.205662831415708E9    -5.526375943379830E-1  -6.391979439316222E1  
 2.214657328664332E9    -5.473111394956886E-1  -6.984909643845938E1  
 2.223651825912956E9    -5.566058524841264E-1  -7.550679474390348E1  
 2.232646323161581E9    -5.762121268792749E-1  -8.131836935516552E1  
 2.241640820410205E9    -5.838549171032048E-1  -8.732997378608695E1  
 2.250635317658829E9    -5.686515309925038E-1  -9.306800139822371E1  
 2.259629814907454E9    -5.688732922118083E-1  -9.900234736483823E1  
 2.268624312156078E9    -5.965945620919394E-1  -1.050644870701095E2  
 2.277618809404702E9    -6.217087069426149E-1  -1.109422371488914E2  
 2.286613306653327E9    -6.110225707120768E-1  -1.167991318280294E2  
 2.295607803901951E9    -6.094540784670098E-1  -1.229017902700889E2  
 2.304602301150575E9    -6.269877043431481E-1  -1.288492890929977E2  
 2.313596798399200E9    -6.174678797429727E-1  -1.347443018579235E2  
 2.322591295647824E9    -6.540661745577632E-1  -1.407332153017601E2  
 2.331585792896448E9    -6.263268407424754E-1  -1.468154641619063E2  
 2.340580290145073E9    -6.655718375386135E-1  -1.527200315311328E2  
 2.349574787393697E9    -6.669714727458912E-1  -1.586980798840705E2  
 2.358569284642321E9    -6.650500844790581E-1  -1.645890002532635E2  
 2.367563781890945E9    -7.011920293687957E-1  -1.707386266334528E2  
 2.376558279139570E9    -6.888099886710786E-1  -1.765705128967703E2  
 2.385552776388194E9    -7.349989994172346E-1   1.772433091260836E2  
 2.394547273636818E9    -7.088212569911463E-1   1.715025369864748E2  
 2.403541770885443E9    -7.028985971484276E-1   1.654633584094640E2  
 2.412536268134067E9    -6.793151757120669E-1   1.595090716615442E2  
 2.421530765382691E9    -7.043006260134083E-1   1.537576361989634E2  
 2.430525262631316E9    -7.005171040089608E-1   1.479404759989002E2  
 2.439519759879940E9    -7.147978190687443E-1   1.422154161544202E2  
 2.448514257128564E9    -7.124755659661153E-1   1.364985692143549E2  
 2.457508754377189E9    -7.294564205654263E-1   1.307790464858459E2  
 2.466503251625813E9    -7.395960970925393E-1   1.249896912124564E2  
 2.475497748874437E9    -7.231441512071051E-1   1.194207091476052E2  
 2.484492246123062E9    -7.379200524450803E-1   1.138750724652115E2  
 2.493486743371686E9    -7.137491478721324E-1   1.083415440971802E2  
 2.502481240620310E9    -7.391449221114277E-1   1.026139634629377E2  
 2.511475737868934E9    -7.407863824382371E-1   9.720810241145108E1  
 2.520470235117559E9    -7.144705722854788E-1   9.174318671427368E1  
 2.529464732366183E9    -7.335613657887232E-1   8.611535449404451E1  
 2.538459229614807E9    -7.253355670808072E-1   8.064863258836323E1  
 2.547453726863432E9    -7.291812489748973E-1   7.522671346211884E1  
 2.556448224112056E9    -7.156687098307308E-1   6.969123483068714E1  
 2.565442721360680E9    -6.892118420089392E-1   6.435283258970121E1  
 2.574437218609304E9    -6.765615074667146E-1   5.903678605841355E1  
 2.583431715857929E9    -7.217151096493402E-1   5.352456323654667E1  
 2.592426213106553E9    -6.869071730286785E-1   4.830608193127831E1  
 2.601420710355177E9    -6.703826445352847E-1   4.300053817313714E1  
