#  HZ   S   DB   R     50.00 
! Rohde & Schwarz ZVA67 4Ports - Version 4.11 - 1305.7002k04 SN: 101038
! Date: 2024-04-07 23:13:46
! Measurement: S11 
! 
 8.000000000000000E9    -9.178239603763908  -5.162669195094654E1  
 8.050000000000000E9    -7.651556287755670  -7.781076131207968E1  
 8.100000000000000E9    -6.704692630480181  -1.082784852356752E2  
 8.150000000000000E9    -6.151995294330108  -1.426289691943469E2  
 8.200000000000000E9    -6.629378189410311  -1.786976410708163E2  
 8.250000000000000E9    -6.781364500167119   1.422089752500262E2  
 8.300000000000000E9    -6.484796923035780   9.711955244662262E1  
 8.350000000000000E9    -5.827575382192799   4.899080273133611E1  
 8.400000000000000E9    -5.431664453600335   5.438902316481924  
 8.450000000000000E9    -5.108759762815830  -3.140686685838763E1  
 8.500000000000000E9    -4.900724115230196  -6.634713155679503E1  
 8.550000000000000E9    -4.889874039102861  -9.907052397617127E1  
 8.600000000000000E9    -5.007360215382274  -1.296865265031581E2  
 8.650000000000000E9    -5.373779216704017  -1.612575926857655E2  
 8.700000000000000E9    -5.825065825359513   1.668960389761843E2  
 8.750000000000000E9    -5.662137371569203   1.306207981327065E2  
 8.800000000000000E9    -5.358678501454390   8.977581554725762E1  
 8.850000000000000E9    -5.316248756931891   4.554281101330545E1  
 8.900000000000000E9    -4.947418887358878   3.884358040088369  
 8.950000000000000E9    -4.406684434472257  -3.194488796826767E1  
 9.000000000000000E9    -3.348509397472272  -6.288386599850359E1  
 9.050000000000000E9    -2.957332037232793  -9.183317398582958E1  
 9.100000000000000E9    -2.604759576293241  -1.211328548273544E2  
 9.150000000000000E9    -2.561388989122643  -1.538938260179784E2  
 9.200000000000000E9    -3.265009617695105   1.711157525744833E2  
 9.250000000000000E9    -4.604089848899361   1.309202559507747E2  
 9.300000000000000E9    -4.771892672373278   9.029705556646843E1  
 9.350000000000000E9    -4.516687071289370   4.861203118460775E1  
 9.400000000000000E9    -4.306942502395543   5.384386405603356  
 9.450000000000000E9    -4.305835700345137  -3.745226263021003E1  
 9.500000000000000E9    -4.630574141761766  -7.677256966091487E1  
 9.550000000000000E9    -4.990331555692670  -1.146856578131585E2  
 9.600000000000000E9    -4.890623308865838  -1.488594750053217E2  
 9.650000000000000E9    -4.877766072488631   1.784113165347485E2  
 9.700000000000000E9    -5.121807338377591   1.463207233958365E2  
 9.750000000000000E9    -5.249470991736744   1.113373699698787E2  
 9.800000000000000E9    -5.104991024808627   7.637227836983610E1  
 9.850000000000000E9    -5.130459889501235   3.171727461623230E1  
 9.900000000000000E9    -4.923670649007624  -1.547699155914518E1  
 9.950000000000000E9    -4.585090080663319  -6.027398551077440E1  
 1.000000000000000E10   -4.611803187651820  -1.015731018408765E2  
 1.005000000000000E10   -4.536774448857928  -1.368420157087344E2  
 1.010000000000000E10   -4.445201325690018  -1.673089185460812E2  
 1.015000000000000E10   -4.618015857721005   1.630371467692008E2  
 1.020000000000000E10   -4.716922664225520   1.332204133911954E2  
 1.025000000000000E10   -4.973264563153697   9.591522590938786E1  
 1.030000000000000E10   -5.485298996964139   5.351874521560321E1  
 1.035000000000000E10   -5.516045481370439   7.010549530324012  
 1.040000000000000E10   -5.118001057679803  -3.943317308024775E1  
 1.045000000000000E10   -4.669110118398951  -7.978527390953374E1  
 1.050000000000000E10   -4.073876452400485  -1.138790854243107E2  
 1.055000000000000E10   -3.812938199540649  -1.432005808244888E2  
 1.060000000000000E10   -3.633819734660533  -1.712223467017573E2  
 1.065000000000000E10   -3.684036278021999   1.604062824289485E2  
 1.070000000000000E10   -3.970586570407008   1.303379354492876E2  
 1.075000000000000E10   -4.399498166582601   9.713378241812302E1  
 1.080000000000000E10   -5.090739723761478   5.662741464727206E1  
 1.085000000000000E10   -5.481921392543428   1.334438569786107E1  
 1.090000000000000E10   -5.363203474830505  -3.076592789510436E1  
 1.095000000000000E10   -4.725669292143254  -7.066750777171993E1  
 1.100000000000000E10   -4.118991940099557  -1.054505312088409E2  
 1.105000000000000E10   -3.705554251084038  -1.355914192533957E2  
 1.110000000000000E10   -3.469040672841481  -1.632431388115020E2  
 1.115000000000000E10   -3.348449358742457   1.705434879459800E2  
 1.120000000000000E10   -3.567022288749157   1.422928274649466E2  
 1.125000000000000E10   -4.020409701797249   1.114755340863196E2  
 1.130000000000000E10   -4.584125629533967   7.718779714876401E1  
 1.135000000000000E10   -5.318720729902612   3.648553656760505E1  
 1.140000000000000E10   -5.603622066297474  -6.616686298501985  
 1.145000000000000E10   -5.328422688002070  -4.986944133671798E1  
 1.150000000000000E10   -4.563730399487758  -8.768846512619105E1  
 1.155000000000000E10   -3.899723468381284  -1.198397887930968E2  
 1.160000000000000E10   -3.524592973048106  -1.504972559684144E2  
 1.165000000000000E10   -3.112134956349576  -1.766828917916427E2  
 1.170000000000000E10   -3.337912378673941   1.550695744212098E2  
 1.175000000000000E10   -3.754534903132760   1.276981009001433E2  
 1.180000000000000E10   -4.298103594246259   9.696212584759726E1  
 1.185000000000000E10   -5.084894127041692   6.299987199579024E1  
 1.190000000000000E10   -5.691085647478259   2.360331931757116E1  
 1.195000000000000E10   -6.182621004857411  -2.013627494873656E1  
 1.200000000000000E10   -4.781654284238515  -6.090753908110562E1  
 1.205000000000000E10   -4.260752474734977  -9.562070832776229E1  
 1.210000000000000E10   -4.010703300625085  -1.303045021738253E2  
 1.215000000000000E10   -3.690573873160634  -1.601870647550070E2  
 1.220000000000000E10   -3.747386708910982   1.734956426915540E2  
 1.225000000000000E10   -3.898405727280379   1.482380561755715E2  
 1.230000000000000E10   -4.315320862532041   1.219103540374430E2  
 1.235000000000000E10   -5.170798195613286   9.317305905683917E1  
 1.240000000000000E10   -6.563095958070638   5.941804318610596E1  
 1.245000000000000E10   -8.265680703002209   1.804068429653028E1  
 1.250000000000000E10   -9.029045295615356  -3.187748410725061E1  
 1.255000000000000E10   -9.150436793455128  -8.358119844755875E1  
 1.260000000000000E10   -8.206568389992873  -1.257069745664724E2  
 1.265000000000000E10   -7.256050839641583  -1.562226021781551E2  
 1.270000000000000E10   -7.061260687208568   1.767967488995777E2  
 1.275000000000000E10   -7.023491404554818   1.545510740042801E2  
 1.280000000000000E10   -7.697360077372307   1.336641317633448E2  
 1.285000000000000E10   -8.752696331584486   1.132239296089075E2  
 1.290000000000000E10   -1.087099507264394E1   9.615246147930833E1  
 1.295000000000000E10   -1.415626634380110E1   7.959652633071940E1  
 1.300000000000000E10   -1.919892417640633E1   6.734652903386704E1  
 1.305000000000000E10   -2.716603880563245E1   7.918945953996469E1  
 1.310000000000000E10   -2.455889421283476E1  -1.737119497207840E2  
 1.315000000000000E10   -1.979617859532894E1  -1.748906722461938E2  
 1.320000000000000E10   -1.628556697273268E1   1.738780399023252E2  
 1.325000000000000E10   -1.430798088873577E1   1.705374297520382E2  
 1.330000000000000E10   -1.286962932183699E1   1.655831473202409E2  
 1.335000000000000E10   -1.082250520201835E1   1.559131849104537E2  
 1.340000000000000E10   -9.567610213445597   1.438157637105536E2  
 1.345000000000000E10   -8.841622761290228   1.293569783222447E2  
 1.350000000000000E10   -8.277890740421961   1.113748564669958E2  
 1.355000000000000E10   -8.592599988971935   9.346836770437768E1  
 1.360000000000000E10   -9.508112494173609   6.949611989990476E1  
 1.365000000000000E10   -1.126896084050308E1   4.253851519510126E1  
 1.370000000000000E10   -1.459969876429261E1   3.695705977851044  
 1.375000000000000E10   -1.703758642487862E1  -6.156545392052836E1  
 1.380000000000000E10   -1.538126893694427E1  -1.199577984087790E2  
 1.385000000000000E10   -1.157326339484165E1  -1.575827244690851E2  
 1.390000000000000E10   -9.893169678680589  -1.791203782738245E2  
 1.395000000000000E10   -7.785710534253195   1.553240948121118E2  
 1.400000000000000E10   -6.695629507301367   1.351019193820865E2  
 1.405000000000000E10   -6.172185008689363   1.137317483085818E2  
 1.410000000000000E10   -6.215135397215030   8.979290445055149E1  
 1.415000000000000E10   -6.791667544376336   6.736530283069614E1  
 1.420000000000000E10   -8.396592819043242   3.710042369113972E1  
 1.425000000000000E10   -1.074425248635758E1   1.610213243240240  
 1.430000000000000E10   -1.341304943124824E1  -5.262320265232733E1  
 1.435000000000000E10   -1.276251797318481E1  -1.126362873699220E2  
 1.440000000000000E10   -9.733239778565874  -1.604862413040443E2  
 1.445000000000000E10   -7.729510439338033   1.733710601092095E2  
 1.450000000000000E10   -6.183084736046825   1.455917901712543E2  
 1.455000000000000E10   -5.543454626574637   1.220493867211407E2  
 1.460000000000000E10   -5.037933839585366   1.039884329075250E2  
 1.465000000000000E10   -5.257063942009948   8.205350968578603E1  
 1.470000000000000E10   -5.773547716261013   5.954048130757471E1  
 1.475000000000000E10   -5.479176577308418   3.273020952889066E1  
 1.480000000000000E10   -9.055998923678253  -6.551854834239273  
 1.485000000000000E10   -8.509048194785430  -6.325997413117295E1  
 1.490000000000000E10   -9.368758586941290  -1.352568734995539E2  
 1.495000000000000E10   -6.939007393024804   1.763686560029223E2  
 1.500000000000000E10   -4.903663421301999   1.462716599289012E2  
 1.505000000000000E10   -4.517150264657768   1.178200459785486E2  
 1.510000000000000E10   -3.489320294225740   9.888177554924724E1  
 1.515000000000000E10   -3.227668682703111   7.841666095769944E1  
 1.520000000000000E10   -3.368884980804721   5.587516053132593E1  
 1.525000000000000E10   -4.232491377912552   2.916294861278723E1  
 1.530000000000000E10   -6.177432666743233  -7.158707615243836  
 1.535000000000000E10   -1.015187367012699E1  -6.352505433128541E1  
 1.540000000000000E10   -1.123149579802533E1  -1.485726434136203E2  
 1.545000000000000E10   -7.906657638452079   1.547093429261430E2  
 1.550000000000000E10   -5.655159081582251   1.226116550399189E2  
 1.555000000000000E10   -4.324696602225195   9.945280037687830E1  
 1.560000000000000E10   -3.586691044026715   7.865597784128694E1  
 1.565000000000000E10   -3.387682316469038   5.858399793018822E1  
 1.570000000000000E10   -3.179963449407317   3.879879284303988E1  
 1.575000000000000E10   -4.913276373784668   1.360045713018945E1  
 1.580000000000000E10   -9.040782868868565  -1.646328680171979E1  
 1.585000000000000E10   -1.726928113984549E1  -7.009146212527097E1  
 1.590000000000000E10   -1.583096522801685E1   1.027424204000318E2  
 1.595000000000000E10   -1.026349004861871E1   9.863030344636935E1  
 1.600000000000000E10   -8.179734148900124   7.781246771317021E1  
 1.605000000000000E10   -6.701521838638686   6.611563236208629E1  
 1.610000000000000E10   -6.283361757428413   5.296375645925921E1  
 1.615000000000000E10   -6.403000536855138   4.015802698094326E1  
 1.620000000000000E10   -6.424678358747807   2.537487256319106E1  
 1.625000000000000E10   -7.678578322013104   6.435247441739038  
 1.630000000000000E10   -1.153568178701314E1  -1.118742272829560E1  
 1.635000000000000E10   -2.179358725799570E1   3.346129827718929  
 1.640000000000000E10   -1.539947781318020E1   8.157484345965591E1  
 1.645000000000000E10   -1.047080956287789E1   7.279510068598025E1  
 1.650000000000000E10   -7.686681648603518   6.161822481063988E1  
 1.655000000000000E10   -6.019934455393768   5.040091971620223E1  
 1.660000000000000E10   -4.880908556531868   3.881113675209642E1  
 1.665000000000000E10   -3.971170210102823   2.509836577155199E1  
 1.670000000000000E10   -3.509278698943626   8.246807025852082  
 1.675000000000000E10   -4.304399618613157  -1.433588213149198E1  
 1.680000000000000E10   -7.406156101147480  -3.462359252835119E1  
 1.685000000000000E10   -1.282286252991559E1  -3.590397734168269E1  
 1.690000000000000E10   -1.642891942353095E1   1.891333610394352E-1  
 1.695000000000000E10   -1.387857547488348E1   2.532129142774509E1  
 1.700000000000000E10   -1.098975475521583E1   2.832732981825219E1  
 1.705000000000000E10   -8.782776288085440   2.666620977113589E1  
 1.710000000000000E10   -6.980704161787258   2.169482991818970E1  
 1.715000000000000E10   -5.481209159346497   1.391656204126113E1  
 1.720000000000000E10   -3.947627702565274   1.451008003643981  
 1.725000000000000E10   -3.113151691780275  -1.697741299204350E1  
 1.730000000000000E10   -3.683948963640281  -3.780431102408981E1  
 1.735000000000000E10   -5.523565788442775  -5.465237293889094E1  
 1.740000000000000E10   -8.060845969768367  -6.495623016274288E1  
 1.745000000000000E10   -1.093250550570681E1  -6.983434034185316E1  
 1.750000000000000E10   -1.425569385996841E1  -6.947407601873287E1  
 1.755000000000000E10   -1.825642022849880E1  -5.093890031982487E1  
 1.760000000000000E10   -1.834290380202725E1  -6.743962149693092  
 1.765000000000000E10   -1.342234187984672E1   1.228730276398632E1  
 1.770000000000000E10   -9.022414719800423   7.150431944774486  
 1.775000000000000E10   -5.960069071443132  -9.707441869898595  
 1.780000000000000E10   -4.478095022452817  -3.151581659511780E1  
 1.785000000000000E10   -4.484811174399385  -5.437543115298641E1  
 1.790000000000000E10   -5.568729701489771  -7.486524732568196E1  
 1.795000000000000E10   -7.316727279858692  -9.309196486454265E1  
 1.800000000000000E10   -9.769975877388669  -1.105155868748218E2  
