#  HZ   S   DB   R     50.00 
! Rohde & Schwarz ZVA67 4Ports - Version 4.11 - 1305.7002k04 SN: 101038
! Date: 2024-04-07 23:18:36
! Measurements: S11 S21 S12 S22 
! 
 8.000000000000000E9    -9.185420933493692  -5.116228280236719E1  -1.010082347612668E1   0.000000000000000  -9.990000000000000E2   0.000000000000000  -6.232034054023814  -1.661888986715008E2  
 8.050000000000000E9    -7.679443149044392  -7.741120047206974E1  -1.069921757780721E1   0.000000000000000  -9.990000000000000E2   0.000000000000000  -6.088846751087899  -1.653298244553159E2  
 8.100000000000000E9    -6.716488176825043  -1.078069047749386E2  -1.133059694494804E1   0.000000000000000  -9.990000000000000E2   0.000000000000000  -5.936710297735119  -1.636008290030403E2  
 8.150000000000000E9    -6.206130368273411  -1.427878181405536E2  -1.178718594990620E1   0.000000000000000  -9.990000000000000E2   0.000000000000000  -5.603419173349600  -1.649971409849869E2  
 8.200000000000000E9    -6.624204392714021  -1.792722945797232E2  -1.169876092371521E1   0.000000000000000  -9.990000000000000E2   0.000000000000000  -5.843436199000556  -1.666627547871207E2  
 8.250000000000000E9    -6.811689061952734   1.418503156262774E2  -1.142601363180074E1   0.000000000000000  -9.990000000000000E2   0.000000000000000  -5.956857154722668  -1.691419636079698E2  
 8.300000000000000E9    -6.477683256581482   9.611251252567980E1  -1.149393412295453E1   0.000000000000000  -9.990000000000000E2   0.000000000000000  -6.203797423887781  -1.668213320471759E2  
 8.350000000000000E9    -5.772323044622977   4.854292875985398E1  -1.242877929821806E1   0.000000000000000  -9.990000000000000E2   0.000000000000000  -5.611045179911040  -1.659762976106459E2  
 8.400000000000000E9    -5.440591340499903   5.520098105010837  -1.306696866924948E1   0.000000000000000  -9.990000000000000E2   0.000000000000000  -4.924735006749727  -1.644160791856260E2  
 8.450000000000000E9    -5.041359837717456  -3.143412069150916E1  -1.422114490379346E1   0.000000000000000  -9.990000000000000E2   0.000000000000000  -4.501755024244498  -1.630893553711831E2  
 8.500000000000000E9    -4.875052057103638  -6.581267998738979E1  -1.340873959055750E1   0.000000000000000  -9.990000000000000E2   0.000000000000000  -5.547499064631857  -1.652690020892856E2  
 8.550000000000000E9    -4.921159620194637  -9.869949031944984E1  -1.248576475463030E1   0.000000000000000  -9.990000000000000E2   0.000000000000000  -6.491269586367189  -1.690276528352920E2  
 8.600000000000000E9    -4.966189064592689  -1.294596447734627E2  -1.215788495546844E1   0.000000000000000  -9.990000000000000E2   0.000000000000000  -6.828844977764057  -1.693938413466410E2  
 8.650000000000000E9    -5.370632198091501  -1.610661123676389E2  -1.119727402742783E1   0.000000000000000  -9.990000000000000E2   0.000000000000000  -7.171493269284833  -1.689148289772745E2  
 8.700000000000000E9    -5.865129018335117   1.669052749238582E2  -1.080834238514424E1   0.000000000000000  -9.990000000000000E2   0.000000000000000  -7.854515039794049  -1.714815033076091E2  
 8.750000000000000E9    -5.629256492987055   1.302981987129899E2  -1.147738646037687E1   0.000000000000000  -9.990000000000000E2   0.000000000000000  -6.789314378181241  -1.667640212949356E2  
 8.800000000000000E9    -5.377013629937550   8.920139581737574E1  -1.285480270496695E1   0.000000000000000  -9.990000000000000E2   0.000000000000000  -5.120520021729297  -1.631911402878087E2  
 8.850000000000000E9    -5.275758029182095   4.456829040607295E1  -1.335884557536113E1   0.000000000000000  -9.990000000000000E2   0.000000000000000  -4.781980779654521  -1.618257051817075E2  
 8.900000000000000E9    -4.897497208470077   3.474693624544515  -1.489545464385067E1   0.000000000000000  -9.990000000000000E2   0.000000000000000  -3.939155407155913  -1.604986916497393E2  
 8.950000000000000E9    -4.372677829547548  -3.202885103845586E1  -1.667587835197830E1   0.000000000000000  -9.990000000000000E2   0.000000000000000  -3.209450124960180  -1.594097382978317E2  
 9.000000000000000E9    -3.300573182187293  -6.276466725538573E1  -2.638962960446789E1   0.000000000000000  -9.990000000000000E2   0.000000000000000  -1.195772318568935  -1.580183017491280E2  
 9.050000000000000E9    -2.943627138891434  -9.147809038007621E1  -3.671532562857639E1   0.000000000000000  -9.990000000000000E2   0.000000000000000  -5.763183021005995E-1  -1.577474083803479E2  
 9.100000000000000E9    -2.629182775683962  -1.209846194414845E2  -5.497879416350391E1   0.000000000000000  -9.990000000000000E2   0.000000000000000  -3.966680807063868E-1  -1.583868000960169E2  
 9.150000000000000E9    -2.522067034270041  -1.535074788308820E2  -5.310756868456850E1   0.000000000000000  -9.990000000000000E2   0.000000000000000  -4.124301108591351E-1  -1.580126059794576E2  
 9.200000000000000E9    -3.210075751199602   1.714840140291619E2  -2.745851638004762E1   0.000000000000000  -9.990000000000000E2   0.000000000000000  -7.509762083342777E-1  -1.577490332709232E2  
 9.250000000000000E9    -4.568235023722608   1.305881199923299E2  -1.900042707146839E1   0.000000000000000  -9.990000000000000E2   0.000000000000000  -2.051434205751038  -1.580765331498023E2  
 9.300000000000000E9    -4.790135070205865   9.004008965227203E1  -2.107002622257734E1   0.000000000000000  -9.990000000000000E2   0.000000000000000  -1.562793562221494  -1.581926079255100E2  
 9.350000000000000E9    -4.569372071809251   4.785119744411073E1  -2.279647818115972E1   0.000000000000000  -9.990000000000000E2   0.000000000000000  -1.235641838295957  -1.580536374755924E2  
 9.400000000000000E9    -4.292173218902346   4.352958709198473  -2.407181605259335E1   0.000000000000000  -9.990000000000000E2   0.000000000000000  -1.133057198312514  -1.583468373507686E2  
 9.450000000000000E9    -4.308773144033582  -3.831254470064516E1  -2.232429447638054E1   0.000000000000000  -9.990000000000000E2   0.000000000000000  -1.511311832295244  -1.581543160589116E2  
 9.500000000000000E9    -4.633732861059897  -7.727018402792676E1  -1.779173000293836E1   0.000000000000000  -9.990000000000000E2   0.000000000000000  -2.588629309955867  -1.595623589746789E2  
 9.550000000000000E9    -4.955390654304628  -1.146668792568243E2  -1.576952144299069E1   0.000000000000000  -9.990000000000000E2   0.000000000000000  -3.635152801343078  -1.604519247581257E2  
 9.600000000000000E9    -4.895454478111569  -1.486377482357715E2  -1.468849017714325E1   0.000000000000000  -9.990000000000000E2   0.000000000000000  -4.465724641946770  -1.590956610027829E2  
 9.650000000000000E9    -4.885070925050919   1.784582685876043E2  -1.484575336108513E1   0.000000000000000  -9.990000000000000E2   0.000000000000000  -3.863057261185287  -1.609217948097654E2  
 9.700000000000000E9    -5.095038911144610   1.465820048854840E2  -1.618724008879683E1   0.000000000000000  -9.990000000000000E2   0.000000000000000  -3.123606729967468  -1.607535038093994E2  
 9.750000000000000E9    -5.283799119969225   1.114800986453471E2  -1.730873023252271E1   0.000000000000000  -9.990000000000000E2   0.000000000000000  -2.425693176776396  -1.604466191541070E2  
 9.800000000000000E9    -5.159713337390757   7.632609967299194E1  -1.837326530182514E1   0.000000000000000  -9.990000000000000E2   0.000000000000000  -1.829148287081623  -1.589222354816507E2  
 9.850000000000000E9    -5.181495004066536   3.116840138408340E1  -1.871683780760491E1   0.000000000000000  -9.990000000000000E2   0.000000000000000  -1.718536881089824  -1.588807678530055E2  
 9.900000000000000E9    -4.914333640519891  -1.641063735325507E1  -1.787317667481520E1   0.000000000000000  -9.990000000000000E2   0.000000000000000  -1.961222477167921  -1.593651866162645E2  
 9.950000000000000E9    -4.520871307514859  -6.069832116857289E1  -1.643138389061120E1   0.000000000000000  -9.990000000000000E2   0.000000000000000  -2.510475893297779  -1.593087146034624E2  
 1.000000000000000E10   -4.582733956976330  -1.019012236349263E2  -1.387718575162319E1   0.000000000000000  -9.990000000000000E2   0.000000000000000  -3.573432077285554  -1.615369740903134E2  
 1.005000000000000E10   -4.472474768580836  -1.370149905760467E2  -1.238872223448607E1   0.000000000000000  -9.990000000000000E2   0.000000000000000  -4.428704096365218  -1.635172220378888E2  
 1.010000000000000E10   -4.387730863622819  -1.671131589361378E2  -1.240829885890611E1   0.000000000000000  -9.990000000000000E2   0.000000000000000  -4.753087074192965  -1.631983065899926E2  
 1.015000000000000E10   -4.598261513914316   1.628468966256849E2  -1.224466531631662E1   0.000000000000000  -9.990000000000000E2   0.000000000000000  -4.666136947133591  -1.632203953818236E2  
 1.020000000000000E10   -4.699372821854720   1.331361635453563E2  -1.351017983781235E1   0.000000000000000  -9.990000000000000E2   0.000000000000000  -3.848026279536320  -1.589479831765460E2  
 1.025000000000000E10   -4.998970356721648   9.587924299721395E1  -1.353121634367621E1   0.000000000000000  -9.990000000000000E2   0.000000000000000  -3.562589440127045  -1.592343987790634E2  
 1.030000000000000E10   -5.537926692491954   5.330516986373898E1  -1.321755221258353E1   0.000000000000000  -9.990000000000000E2   0.000000000000000  -3.858718243990555  -1.602032601018797E2  
 1.035000000000000E10   -5.536293124187713   6.950743318563998  -1.336797897425664E1   0.000000000000000  -9.990000000000000E2   0.000000000000000  -3.743784078108016  -1.603618235551220E2  
 1.040000000000000E10   -5.259277194163968  -4.040620056498450E1  -1.260006200031707E1   0.000000000000000  -9.990000000000000E2   0.000000000000000  -4.318259480807647  -1.623615042696163E2  
 1.045000000000000E10   -4.649964637553545  -8.059882196133103E1  -1.210608308924604E1   0.000000000000000  -9.990000000000000E2   0.000000000000000  -5.063537370702351  -1.660658045128443E2  
 1.050000000000000E10   -4.106685962344396  -1.141912401086924E2  -1.203627371050186E1   0.000000000000000  -9.990000000000000E2   0.000000000000000  -5.532308860329808  -1.666208291531748E2  
 1.055000000000000E10   -3.822658941137083  -1.433156907369059E2  -1.232713226211784E1   0.000000000000000  -9.990000000000000E2   0.000000000000000  -5.689912537630630  -1.662852512037081E2  
 1.060000000000000E10   -3.594705797323777  -1.715069891306395E2  -1.231882931361371E1   0.000000000000000  -9.990000000000000E2   0.000000000000000  -5.925189499197541  -1.647881442062819E2  
 1.065000000000000E10   -3.665918653003129   1.605757867653507E2  -1.237833265234462E1   0.000000000000000  -9.990000000000000E2   0.000000000000000  -6.131329763702135  -1.652932247754425E2  
 1.070000000000000E10   -3.919680834558528   1.302931779044080E2  -1.186423556310483E1   0.000000000000000  -9.990000000000000E2   0.000000000000000  -6.508266541714184  -1.644224424516892E2  
 1.075000000000000E10   -4.350294441778536   9.742202938515320E1  -1.199013689892249E1   0.000000000000000  -9.990000000000000E2   0.000000000000000  -5.909759504585682  -1.635794973250679E2  
 1.080000000000000E10   -5.085093860550399   5.721976798715908E1  -1.088904073216735E1   0.000000000000000  -9.990000000000000E2   0.000000000000000  -6.796662065458742  -1.661203469004440E2  
 1.085000000000000E10   -5.472670964590276   1.373595301723985E1  -1.072663745832629E1   0.000000000000000  -9.990000000000000E2   0.000000000000000  -6.970507812479546  -1.675880110552616E2  
 1.090000000000000E10   -5.331809988602117  -3.044438852751541E1  -1.092898185610667E1   0.000000000000000  -9.990000000000000E2   0.000000000000000  -6.967022983493843  -1.706822736032636E2  
 1.095000000000000E10   -4.703770999119032  -7.050433444550320E1  -1.128954273170420E1   0.000000000000000  -9.990000000000000E2   0.000000000000000  -6.738414804242941  -1.710560208072341E2  
 1.100000000000000E10   -4.144795833852369  -1.049785671013731E2  -1.198073629011699E1   0.000000000000000  -9.990000000000000E2   0.000000000000000  -6.701039785042823  -1.699443404172384E2  
 1.105000000000000E10   -3.626316104103649  -1.353211328556573E2  -1.212774967211459E1   0.000000000000000  -9.990000000000000E2   0.000000000000000  -7.005088532358450  -1.699547564280736E2  
 1.110000000000000E10   -3.386168760582089  -1.629615878883832E2  -1.227122422005913E1   0.000000000000000  -9.990000000000000E2   0.000000000000000  -7.266407390681160  -1.684871394638355E2  
 1.115000000000000E10   -3.290591512268915   1.704910046084482E2  -1.263242921695925E1   0.000000000000000  -9.990000000000000E2   0.000000000000000  -6.926065422022566  -1.674649901811944E2  
 1.120000000000000E10   -3.578930026206255   1.426500751832642E2  -1.185254978044534E1   0.000000000000000  -9.990000000000000E2   0.000000000000000  -7.985489758179535  -1.691506013168845E2  
 1.125000000000000E10   -3.960871067296433   1.118946124172495E2  -1.119837766756855E1   0.000000000000000  -9.990000000000000E2   0.000000000000000  -8.330599148925055  -1.711620749632519E2  
 1.130000000000000E10   -4.563459252117000   7.736374455954778E1  -1.090593294760630E1   0.000000000000000  -9.990000000000000E2   0.000000000000000  -8.191402961983572  -1.700428484469078E2  
 1.135000000000000E10   -5.351458736257005   3.695982615256088E1  -1.037178543951630E1   0.000000000000000  -9.990000000000000E2   0.000000000000000  -8.741865485373898  -1.748027695936839E2  
 1.140000000000000E10   -5.614119780933955  -6.434965934517584  -1.059851426797141E1   0.000000000000000  -9.990000000000000E2   0.000000000000000  -7.924164174054132  -1.741877882857335E2  
 1.145000000000000E10   -5.328723673887563  -4.956522802629571E1  -1.097038153924395E1   0.000000000000000  -9.990000000000000E2   0.000000000000000  -7.664385553571613  -1.715595046001617E2  
 1.150000000000000E10   -4.594586661859612  -8.779235940860386E1  -1.195541567603949E1   0.000000000000000  -9.990000000000000E2   0.000000000000000  -6.675102667450112  -1.695508623347711E2  
 1.155000000000000E10   -3.906502303247931  -1.200330711212774E2  -1.333106672400526E1   0.000000000000000  -9.990000000000000E2   0.000000000000000  -5.979115843198683  -1.649797926510481E2  
 1.160000000000000E10   -3.533570827038242  -1.505020188207228E2  -1.329868094002099E1   0.000000000000000  -9.990000000000000E2   0.000000000000000  -6.345072987530207  -1.657432571470729E2  
 1.165000000000000E10   -3.160134547358395  -1.767938665326983E2  -1.460425368958994E1   0.000000000000000  -9.990000000000000E2   0.000000000000000  -5.346543728706995  -1.629581290816813E2  
 1.170000000000000E10   -3.356243040775488   1.551521797622826E2  -1.292427360976845E1   0.000000000000000  -9.990000000000000E2   0.000000000000000  -6.993761504574040  -1.659470492343596E2  
 1.175000000000000E10   -3.710737147973871   1.279640659046511E2  -1.229642598061925E1   0.000000000000000  -9.990000000000000E2   0.000000000000000  -7.409074805035914  -1.669897943915956E2  
 1.180000000000000E10   -4.269141561041269   9.692490905446660E1  -1.154123628721921E1   0.000000000000000  -9.990000000000000E2   0.000000000000000  -8.186689914344845  -1.680702705442605E2  
 1.185000000000000E10   -5.031588236329577   6.326226864506240E1  -1.132858662238856E1   0.000000000000000  -9.990000000000000E2   0.000000000000000  -7.481114276934644  -1.672075151750445E2  
 1.190000000000000E10   -5.658974600980024   2.326531215905236E1  -1.187900875186650E1   0.000000000000000  -9.990000000000000E2   0.000000000000000  -6.503480267140565  -1.648709265494543E2  
 1.195000000000000E10   -6.067640546228297  -1.989166580260260E1  -1.224227003884773E1   0.000000000000000  -9.990000000000000E2   0.000000000000000  -5.855762855472806  -1.633556719159477E2  
 1.200000000000000E10   -4.727202486434320  -6.082010571144495E1  -1.786019989435995E1   0.000000000000000  -9.990000000000000E2   0.000000000000000  -2.906300685885279  -1.593845240401666E2  
 1.205000000000000E10   -4.195453306287432  -9.527402916318516E1  -1.767738933329372E1   0.000000000000000  -9.990000000000000E2   0.000000000000000  -3.296772872191376  -1.608805323696140E2  
 1.210000000000000E10   -3.942713320222966  -1.302145315867541E2  -1.537542987630614E1   0.000000000000000  -9.990000000000000E2   0.000000000000000  -4.672339753840525  -1.639542352174035E2  
 1.215000000000000E10   -3.640072647353392  -1.599927243924572E2  -1.437807594987667E1   0.000000000000000  -9.990000000000000E2   0.000000000000000  -5.596670187772840  -1.663843631065758E2  
 1.220000000000000E10   -3.722634998855462   1.735897147981858E2  -1.299649657950351E1   0.000000000000000  -9.990000000000000E2   0.000000000000000  -7.363005588281154  -1.670416507639116E2  
 1.225000000000000E10   -3.828409374498943   1.482567849816977E2  -1.231543044429220E1   0.000000000000000  -9.990000000000000E2   0.000000000000000  -7.788347156963437  -1.676784758159734E2  
 1.230000000000000E10   -4.267058004443538   1.220331022407342E2  -1.145951954955538E1   0.000000000000000  -9.990000000000000E2   0.000000000000000  -8.712242899713957  -1.697414866498531E2  
 1.235000000000000E10   -5.147033702203414   9.318024230132058E1  -1.075575142303368E1   0.000000000000000  -9.990000000000000E2   0.000000000000000  -8.876676620038934  -1.670418929109762E2  
 1.240000000000000E10   -6.488919411534469   5.969246062285440E1  -1.007062729356617E1   0.000000000000000  -9.990000000000000E2   0.000000000000000  -8.635829916335323  -1.702424971821763E2  
 1.245000000000000E10   -8.260866612904216   1.864914911662794E1  -9.643324202240464   0.000000000000000  -9.990000000000000E2   0.000000000000000  -8.580959334784740  -1.677873244900074E2  
 1.250000000000000E10   -9.036229655097944  -3.132712916469791E1  -1.025643715750554E1   0.000000000000000  -9.990000000000000E2   0.000000000000000  -6.636114747349275  -1.687902521186494E2  
 1.255000000000000E10   -9.192780643701310  -8.310558362164295E1  -9.895135174583512   0.000000000000000  -9.990000000000000E2   0.000000000000000  -7.597059391193826  -1.695022880241801E2  
 1.260000000000000E10   -8.211002015475806  -1.256088622807811E2  -9.954289598716638   0.000000000000000  -9.990000000000000E2   0.000000000000000  -7.299283239394497  -1.727890126556587E2  
 1.265000000000000E10   -7.248240472674451  -1.563807832860942E2  -1.029760787548004E1   0.000000000000000  -9.990000000000000E2   0.000000000000000  -7.490605208552986  -1.688565069239085E2  
 1.270000000000000E10   -7.099639769990789   1.766658240219081E2  -9.797920143664502   0.000000000000000  -9.990000000000000E2   0.000000000000000  -8.351535960461664  -1.701605811424815E2  
 1.275000000000000E10   -7.015554859170104   1.542801197800351E2  -9.671979200338242   0.000000000000000  -9.990000000000000E2   0.000000000000000  -8.511987517144450  -1.682251809381279E2  
 1.280000000000000E10   -7.673242904014886   1.335946213751925E2  -9.190359258335722   0.000000000000000  -9.990000000000000E2   0.000000000000000  -9.206489398444939  -1.652319257002091E2  
 1.285000000000000E10   -8.761288795763116   1.130353052898800E2  -9.227093720809631   0.000000000000000  -9.990000000000000E2   0.000000000000000  -8.148699235539041  -1.641274607059959E2  
 1.290000000000000E10   -1.089084120886732E1   9.565725439968936E1  -8.758002032587481   0.000000000000000  -9.990000000000000E2   0.000000000000000  -7.911997911758169  -1.642799889953450E2  
 1.295000000000000E10   -1.415766148678276E1   7.924158696407019E1  -8.805192839092154   0.000000000000000  -9.990000000000000E2   0.000000000000000  -7.011132354483967  -1.638070444289189E2  
 1.300000000000000E10   -1.934879476855539E1   6.783427058832604E1  -9.017153480319214   0.000000000000000  -9.990000000000000E2   0.000000000000000  -5.784286583879006  -1.668536833517672E2  
 1.305000000000000E10   -2.752199897856287E1   8.005176341989578E1  -9.307359329015799   0.000000000000000  -9.990000000000000E2   0.000000000000000  -5.415830083651708  -1.669421203889207E2  
