! markimicrowave.com
! Date: Wed Mar 20 2024 13:44:09 GMT+0100 (Central European Standard Time)
# Hz S DB R 50.00
!Frequency        S11 dB       S11 Deg       S21 dB      S21 Deg      S12 dB      S12 Deg      S22 dB       S22 Deg      
150000000.00000    -14.27080    -158.89175    -0.16556    -68.89175    -0.16556    -68.89175    -14.27080    -158.89175
150414889.44889    -14.26366    -159.07823    -0.16584    -69.07823    -0.16584    -69.07823    -14.26366    -159.07823
150830926.45281    -14.25663    -159.26521    -0.16611    -69.26521    -0.16611    -69.26521    -14.25663    -159.26521
151248114.18582    -14.24969    -159.45270    -0.16638    -69.45270    -0.16638    -69.45270    -14.24969    -159.45270
151666455.83076    -14.24286    -159.64069    -0.16665    -69.64069    -0.16665    -69.64069    -14.24286    -159.64069
152085954.57926    -14.23614    -159.82920    -0.16691    -69.82920    -0.16691    -69.82920    -14.23614    -159.82920
152506613.63179    -14.22953    -160.01822    -0.16717    -70.01822    -0.16717    -70.01822    -14.22953    -160.01822
152928436.19767    -14.22302    -160.20776    -0.16743    -70.20776    -0.16743    -70.20776    -14.22302    -160.20776
153351425.49509    -14.21662    -160.39781    -0.16768    -70.39781    -0.16768    -70.39781    -14.21662    -160.39781
153775584.75116    -14.21033    -160.58838    -0.16793    -70.58838    -0.16793    -70.58838    -14.21033    -160.58838
154200917.20189    -14.20414    -160.77946    -0.16817    -70.77946    -0.16817    -70.77946    -14.20414    -160.77946
154627426.09227    -14.19807    -160.97107    -0.16841    -70.97107    -0.16841    -70.97107    -14.19807    -160.97107
155055114.67623    -14.19211    -161.16320    -0.16865    -71.16320    -0.16865    -71.16320    -14.19211    -161.16320
155483986.21674    -14.18626    -161.35585    -0.16888    -71.35585    -0.16888    -71.35585    -14.18626    -161.35585
155914043.98576    -14.18053    -161.54903    -0.16911    -71.54903    -0.16911    -71.54903    -14.18053    -161.54903
156345291.26431    -14.17491    -161.74273    -0.16933    -71.74273    -0.16933    -71.74273    -14.17491    -161.74273
156777731.34251    -14.16940    -161.93697    -0.16955    -71.93697    -0.16955    -71.93697    -14.16940    -161.93697
157211367.51954    -14.16401    -162.13173    -0.16976    -72.13173    -0.16976    -72.13173    -14.16401    -162.13173
157646203.10374    -14.15874    -162.32703    -0.16997    -72.32703    -0.16997    -72.32703    -14.15874    -162.32703
158082241.41257    -14.15358    -162.52286    -0.17018    -72.52286    -0.17018    -72.52286    -14.15358    -162.52286
158519485.77270    -14.14854    -162.71922    -0.17038    -72.71922    -0.17038    -72.71922    -14.14854    -162.71922
158957939.51997    -14.14362    -162.91613    -0.17058    -72.91613    -0.17058    -72.91613    -14.14362    -162.91613
159397605.99947    -14.13882    -163.11357    -0.17077    -73.11357    -0.17077    -73.11357    -14.13882    -163.11357
159838488.56552    -14.13414    -163.31155    -0.17096    -73.31155    -0.17096    -73.31155    -14.13414    -163.31155
160280590.58173    -14.12958    -163.51008    -0.17114    -73.51008    -0.17114    -73.51008    -14.12958    -163.51008
160723915.42103    -14.12515    -163.70914    -0.17132    -73.70914    -0.17132    -73.70914    -14.12515    -163.70914
161168466.46564    -14.12084    -163.90876    -0.17149    -73.90876    -0.17149    -73.90876    -14.12084    -163.90876
161614247.10718    -14.11665    -164.10892    -0.17166    -74.10892    -0.17166    -74.10892    -14.11665    -164.10892
162061260.74662    -14.11259    -164.30963    -0.17183    -74.30963    -0.17183    -74.30963    -14.11259    -164.30963
162509510.79433    -14.10866    -164.51090    -0.17198    -74.51090    -0.17198    -74.51090    -14.10866    -164.51090
162959000.67015    -14.10485    -164.71271    -0.17214    -74.71271    -0.17214    -74.71271    -14.10485    -164.71271
163409733.80335    -14.10117    -164.91509    -0.17229    -74.91509    -0.17229    -74.91509    -14.10117    -164.91509
163861713.63269    -14.09763    -165.11801    -0.17243    -75.11801    -0.17243    -75.11801    -14.09763    -165.11801
164314943.60645    -14.09421    -165.32150    -0.17257    -75.32150    -0.17257    -75.32150    -14.09421    -165.32150
164769427.18243    -14.09092    -165.52555    -0.17270    -75.52555    -0.17270    -75.52555    -14.09092    -165.52555
165225167.82801    -14.08777    -165.73016    -0.17283    -75.73016    -0.17283    -75.73016    -14.08777    -165.73016
165682169.02017    -14.08475    -165.93533    -0.17295    -75.93533    -0.17295    -75.93533    -14.08475    -165.93533
166140434.24547    -14.08187    -166.14107    -0.17307    -76.14107    -0.17307    -76.14107    -14.08187    -166.14107
166599967.00015    -14.07912    -166.34738    -0.17318    -76.34738    -0.17318    -76.34738    -14.07912    -166.34738
167060770.79011    -14.07651    -166.55425    -0.17329    -76.55425    -0.17329    -76.55425    -14.07651    -166.55425
167522849.13094    -14.07403    -166.76170    -0.17339    -76.76170    -0.17339    -76.76170    -14.07403    -166.76170
167986205.54796    -14.07170    -166.96972    -0.17348    -76.96972    -0.17348    -76.96972    -14.07170    -166.96972
168450843.57623    -14.06950    -167.17832    -0.17357    -77.17832    -0.17357    -77.17832    -14.06950    -167.17832
168916766.76061    -14.06745    -167.38750    -0.17366    -77.38750    -0.17366    -77.38750    -14.06745    -167.38750
169383978.65574    -14.06554    -167.59725    -0.17374    -77.59725    -0.17374    -77.59725    -14.06554    -167.59725
169852482.82611    -14.06377    -167.80759    -0.17381    -77.80759    -0.17381    -77.80759    -14.06377    -167.80759
170322282.84606    -14.06215    -168.01851    -0.17387    -78.01851    -0.17387    -78.01851    -14.06215    -168.01851
170793382.29982    -14.06068    -168.23001    -0.17393    -78.23001    -0.17393    -78.23001    -14.06068    -168.23001
171265784.78153    -14.05935    -168.44210    -0.17399    -78.44210    -0.17399    -78.44210    -14.05935    -168.44210
171739493.89527    -14.05817    -168.65478    -0.17404    -78.65478    -0.17404    -78.65478    -14.05817    -168.65478
172214513.25510    -14.05714    -168.86805    -0.17408    -78.86805    -0.17408    -78.86805    -14.05714    -168.86805
172690846.48507    -14.05626    -169.08192    -0.17411    -79.08192    -0.17411    -79.08192    -14.05626    -169.08192
173168497.21925    -14.05553    -169.29638    -0.17414    -79.29638    -0.17414    -79.29638    -14.05553    -169.29638
173647469.10176    -14.05496    -169.51143    -0.17417    -79.51143    -0.17417    -79.51143    -14.05496    -169.51143
174127765.78681    -14.05454    -169.72709    -0.17418    -79.72709    -0.17418    -79.72709    -14.05454    -169.72709
174609390.93870    -14.05428    -169.94335    -0.17420    -79.94335    -0.17420    -79.94335    -14.05428    -169.94335
175092348.23188    -14.05418    -170.16021    -0.17420    -80.16021    -0.17420    -80.16021    -14.05418    -170.16021
175576641.35097    -14.05423    -170.37768    -0.17420    -80.37768    -0.17420    -80.37768    -14.05423    -170.37768
176062273.99076    -14.05444    -170.59575    -0.17419    -80.59575    -0.17419    -80.59575    -14.05444    -170.59575
176549249.85626    -14.05482    -170.81444    -0.17417    -80.81444    -0.17417    -80.81444    -14.05482    -170.81444
177037572.66276    -14.05536    -171.03373    -0.17415    -81.03373    -0.17415    -81.03373    -14.05536    -171.03373
177527246.13580    -14.05606    -171.25364    -0.17412    -81.25364    -0.17412    -81.25364    -14.05606    -171.25364
178018274.01121    -14.05693    -171.47417    -0.17409    -81.47417    -0.17409    -81.47417    -14.05693    -171.47417
178510660.03519    -14.05797    -171.69531    -0.17404    -81.69531    -0.17404    -81.69531    -14.05797    -171.69531
179004407.96428    -14.05917    -171.91708    -0.17400    -81.91708    -0.17400    -81.91708    -14.05917    -171.91708
179499521.56541    -14.06054    -172.13946    -0.17394    -82.13946    -0.17394    -82.13946    -14.06054    -172.13946
179996004.61593    -14.06209    -172.36248    -0.17388    -82.36248    -0.17388    -82.36248    -14.06209    -172.36248
180493860.90365    -14.06381    -172.58611    -0.17381    -82.58611    -0.17381    -82.58611    -14.06381    -172.58611
180993094.22684    -14.06570    -172.81038    -0.17373    -82.81038    -0.17373    -82.81038    -14.06570    -172.81038
181493708.39428    -14.06777    -173.03528    -0.17364    -83.03528    -0.17364    -83.03528    -14.06777    -173.03528
181995707.22530    -14.07002    -173.26082    -0.17355    -83.26082    -0.17355    -83.26082    -14.07002    -173.26082
182499094.54977    -14.07244    -173.48699    -0.17345    -83.48699    -0.17345    -83.48699    -14.07244    -173.48699
183003874.20818    -14.07505    -173.71379    -0.17335    -83.71379    -0.17335    -83.71379    -14.07505    -173.71379
183510050.05161    -14.07784    -173.94124    -0.17323    -83.94124    -0.17323    -83.94124    -14.07784    -173.94124
184017625.94182    -14.08081    -174.16933    -0.17311    -84.16933    -0.17311    -84.16933    -14.08081    -174.16933
184526605.75125    -14.08397    -174.39807    -0.17298    -84.39807    -0.17298    -84.39807    -14.08397    -174.39807
185036993.36302    -14.08731    -174.62745    -0.17285    -84.62745    -0.17285    -84.62745    -14.08731    -174.62745
185548792.67102    -14.09085    -174.85748    -0.17271    -84.85748    -0.17271    -84.85748    -14.09085    -174.85748
186062007.57991    -14.09458    -175.08817    -0.17255    -85.08817    -0.17255    -85.08817    -14.09458    -175.08817
186576642.00514    -14.09849    -175.31950    -0.17240    -85.31950    -0.17240    -85.31950    -14.09849    -175.31950
187092699.87299    -14.10261    -175.55150    -0.17223    -85.55150    -0.17223    -85.55150    -14.10261    -175.55150
187610185.12060    -14.10692    -175.78415    -0.17205    -85.78415    -0.17205    -85.78415    -14.10692    -175.78415
188129101.69601    -14.11142    -176.01747    -0.17187    -86.01747    -0.17187    -86.01747    -14.11142    -176.01747
188649453.55816    -14.11613    -176.25145    -0.17168    -86.25145    -0.17168    -86.25145    -14.11613    -176.25145
189171244.67696    -14.12104    -176.48610    -0.17149    -86.48610    -0.17149    -86.48610    -14.12104    -176.48610
189694479.03329    -14.12615    -176.72141    -0.17128    -86.72141    -0.17128    -86.72141    -14.12615    -176.72141
190219160.61905    -14.13147    -176.95740    -0.17107    -86.95740    -0.17107    -86.95740    -14.13147    -176.95740
190745293.43717    -14.13699    -177.19405    -0.17084    -87.19405    -0.17084    -87.19405    -14.13699    -177.19405
191272881.50165    -14.14272    -177.43139    -0.17061    -87.43139    -0.17061    -87.43139    -14.14272    -177.43139
191801928.83761    -14.14867    -177.66940    -0.17038    -87.66940    -0.17038    -87.66940    -14.14867    -177.66940
192332439.48129    -14.15483    -177.90810    -0.17013    -87.90810    -0.17013    -87.90810    -14.15483    -177.90810
192864417.48009    -14.16120    -178.14748    -0.16988    -88.14748    -0.16988    -88.14748    -14.16120    -178.14748
193397866.89262    -14.16779    -178.38754    -0.16961    -88.38754    -0.16961    -88.38754    -14.16779    -178.38754
193932791.78869    -14.17460    -178.62829    -0.16934    -88.62829    -0.16934    -88.62829    -14.17460    -178.62829
194469196.24941    -14.18163    -178.86974    -0.16906    -88.86974    -0.16906    -88.86974    -14.18163    -178.86974
195007084.36713    -14.18889    -179.11187    -0.16877    -89.11187    -0.16877    -89.11187    -14.18889    -179.11187
195546460.24555    -14.19637    -179.35471    -0.16848    -89.35471    -0.16848    -89.35471    -14.19637    -179.35471
196087327.99971    -14.20408    -179.59824    -0.16817    -89.59824    -0.16817    -89.59824    -14.20408    -179.59824
196629691.75603    -14.21203    -179.84247    -0.16786    -89.84247    -0.16786    -89.84247    -14.21203    -179.84247
197173555.65235    -14.22020    179.91259    -0.16754    -90.08741    -0.16754    -90.08741    -14.22020    179.91259
197718923.83795    -14.22861    179.66695    -0.16721    -90.33305    -0.16721    -90.33305    -14.22861    179.66695
198265800.47359    -14.23725    179.42059    -0.16687    -90.57941    -0.16687    -90.57941    -14.23725    179.42059
198814189.73154    -14.24614    179.17353    -0.16652    -90.82647    -0.16652    -90.82647    -14.24614    179.17353
199364095.79560    -14.25527    178.92575    -0.16616    -91.07425    -0.16616    -91.07425    -14.25527    178.92575
199915522.86116    -14.26464    178.67725    -0.16580    -91.32275    -0.16580    -91.32275    -14.26464    178.67725
200468475.13519    -14.27426    178.42803    -0.16543    -91.57197    -0.16543    -91.57197    -14.27426    178.42803
201022956.83631    -14.28413    178.17809    -0.16504    -91.82191    -0.16504    -91.82191    -14.28413    178.17809
201578972.19482    -14.29426    177.92743    -0.16465    -92.07257    -0.16465    -92.07257    -14.29426    177.92743
202136525.45270    -14.30463    177.67604    -0.16425    -92.32396    -0.16425    -92.32396    -14.30463    177.67604
202695620.86367    -14.31527    177.42391    -0.16384    -92.57609    -0.16384    -92.57609    -14.31527    177.42391
203256262.69322    -14.32616    177.17105    -0.16342    -92.82895    -0.16342    -92.82895    -14.32616    177.17105
203818455.21864    -14.33732    176.91746    -0.16300    -93.08254    -0.16300    -93.08254    -14.33732    176.91746
204382202.72903    -14.34875    176.66313    -0.16256    -93.33687    -0.16256    -93.33687    -14.34875    176.66313
204947509.52539    -14.36044    176.40805    -0.16211    -93.59195    -0.16211    -93.59195    -14.36044    176.40805
205514379.92058    -14.37240    176.15223    -0.16166    -93.84777    -0.16166    -93.84777    -14.37240    176.15223
206082818.23940    -14.38464    175.89566    -0.16120    -94.10434    -0.16120    -94.10434    -14.38464    175.89566
206652828.81864    -14.39716    175.63835    -0.16072    -94.36165    -0.16072    -94.36165    -14.39716    175.63835
207224416.00704    -14.40995    175.38027    -0.16024    -94.61973    -0.16024    -94.61973    -14.40995    175.38027
207797584.16540    -14.42303    175.12145    -0.15975    -94.87855    -0.15975    -94.87855    -14.42303    175.12145
208372337.66657    -14.43640    174.86186    -0.15925    -95.13814    -0.15925    -95.13814    -14.43640    174.86186
208948680.89549    -14.45005    174.60151    -0.15874    -95.39849    -0.15874    -95.39849    -14.45005    174.60151
209526618.24924    -14.46400    174.34040    -0.15822    -95.65960    -0.15822    -95.65960    -14.46400    174.34040
210106154.13707    -14.47824    174.07851    -0.15770    -95.92149    -0.15770    -95.92149    -14.47824    174.07851
210687292.98039    -14.49278    173.81586    -0.15716    -96.18414    -0.15716    -96.18414    -14.49278    173.81586
211270039.21287    -14.50763    173.55243    -0.15661    -96.44757    -0.15661    -96.44757    -14.50763    173.55243
211854397.28045    -14.52277    173.28823    -0.15606    -96.71177    -0.15606    -96.71177    -14.52277    173.28823
212440371.64133    -14.53823    173.02325    -0.15549    -96.97675    -0.15549    -96.97675    -14.53823    173.02325
213027966.76608    -14.55401    172.75748    -0.15492    -97.24252    -0.15492    -97.24252    -14.55401    172.75748
213617187.13761    -14.57009    172.49093    -0.15434    -97.50907    -0.15434    -97.50907    -14.57009    172.49093
214208037.25125    -14.58650    172.22359    -0.15374    -97.77641    -0.15374    -97.77641    -14.58650    172.22359
214800521.61473    -14.60323    171.95546    -0.15314    -98.04454    -0.15314    -98.04454    -14.60323    171.95546
215394644.74829    -14.62029    171.68653    -0.15253    -98.31347    -0.15253    -98.31347    -14.62029    171.68653
215990411.18465    -14.63768    171.41680    -0.15191    -98.58320    -0.15191    -98.58320    -14.63768    171.41680
216587825.46907    -14.65540    171.14628    -0.15128    -98.85372    -0.15128    -98.85372    -14.65540    171.14628
217186892.15937    -14.67347    170.87495    -0.15064    -99.12505    -0.15064    -99.12505    -14.67347    170.87495
217787615.82600    -14.69187    170.60281    -0.14999    -99.39719    -0.14999    -99.39719    -14.69187    170.60281
218390001.05203    -14.71062    170.32986    -0.14934    -99.67014    -0.14934    -99.67014    -14.71062    170.32986
218994052.43323    -14.72973    170.05610    -0.14867    -99.94390    -0.14867    -99.94390    -14.72973    170.05610
219599774.57806    -14.74918    169.78152    -0.14799    -100.21848    -0.14799    -100.21848    -14.74918    169.78152
220207172.10773    -14.76900    169.50612    -0.14731    -100.49388    -0.14731    -100.49388    -14.76900    169.50612
220816249.65625    -14.78918    169.22990    -0.14661    -100.77010    -0.14661    -100.77010    -14.78918    169.22990
221427011.87042    -14.80973    168.95285    -0.14591    -101.04715    -0.14591    -101.04715    -14.80973    168.95285
222039463.40992    -14.83066    168.67497    -0.14520    -101.32503    -0.14520    -101.32503    -14.83066    168.67497
222653608.94729    -14.85196    168.39626    -0.14447    -101.60374    -0.14447    -101.60374    -14.85196    168.39626
223269453.16802    -14.87364    168.11671    -0.14374    -101.88329    -0.14374    -101.88329    -14.87364    168.11671
223887000.77055    -14.89570    167.83633    -0.14300    -102.16367    -0.14300    -102.16367    -14.89570    167.83633
224506256.46630    -14.91816    167.55510    -0.14225    -102.44490    -0.14225    -102.44490    -14.91816    167.55510
225127224.97975    -14.94102    167.27302    -0.14149    -102.72698    -0.14149    -102.72698    -14.94102    167.27302
225749911.04843    -14.96428    166.99010    -0.14073    -103.00990    -0.14073    -103.00990    -14.96428    166.99010
226374319.42298    -14.98794    166.70632    -0.13995    -103.29368    -0.13995    -103.29368    -14.98794    166.70632
227000454.86717    -15.01202    166.42169    -0.13916    -103.57831    -0.13916    -103.57831    -15.01202    166.42169
227628322.15795    -15.03651    166.13620    -0.13837    -103.86380    -0.13837    -103.86380    -15.03651    166.13620
228257926.08550    -15.06142    165.84985    -0.13756    -104.15015    -0.13756    -104.15015    -15.06142    165.84985
228889271.45322    -15.08676    165.56263    -0.13675    -104.43737    -0.13675    -104.43737    -15.08676    165.56263
229522363.07783    -15.11254    165.27454    -0.13593    -104.72546    -0.13593    -104.72546    -15.11254    165.27454
230157205.78933    -15.13876    164.98558    -0.13510    -105.01442    -0.13510    -105.01442    -15.13876    164.98558
230793804.43112    -15.16542    164.69575    -0.13426    -105.30425    -0.13426    -105.30425    -15.16542    164.69575
231432163.85997    -15.19253    164.40503    -0.13341    -105.59497    -0.13341    -105.59497    -15.19253    164.40503
232072288.94610    -15.22010    164.11343    -0.13255    -105.88657    -0.13255    -105.88657    -15.22010    164.11343
232714184.57319    -15.24813    163.82095    -0.13169    -106.17905    -0.13169    -106.17905    -15.24813    163.82095
233357855.63843    -15.27663    163.52757    -0.13081    -106.47243    -0.13081    -106.47243    -15.27663    163.52757
234003307.05256    -15.30561    163.23331    -0.12993    -106.76669    -0.12993    -106.76669    -15.30561    163.23331
234650543.73991    -15.33506    162.93814    -0.12904    -107.06186    -0.12904    -107.06186    -15.33506    162.93814
235299570.63840    -15.36501    162.64208    -0.12814    -107.35792    -0.12814    -107.35792    -15.36501    162.64208
235950392.69964    -15.39546    162.34511    -0.12723    -107.65489    -0.12723    -107.65489    -15.39546    162.34511
