# GHz S RI R 50

1.000000000000000e-03 -5.3391034391286413e-05 -2.8980953961314448e-03  9.9992025974018073e-01 -1.0157147595945449e-02  9.9992025974018317e-01 -1.0157147595958881e-02 -5.3394952185687201e-05 -2.8980954516994728e-03
1.014974874371859e-01 -1.9988941338534691e-01 -1.2424822928987725e-01  5.1823897956070097e-01 -8.1976634437620510e-01  5.1823897956069953e-01 -8.1976634437620266e-01 -1.9990783976665211e-01 -1.2422053745179389e-01
2.019949748743719e-01 -2.1252008783278886e-01  8.8940799394508663e-02 -3.7023833026324793e-01 -8.9610638439950940e-01 -3.7023833026325265e-01 -8.9610638439952095e-01 -2.1245213784502590e-01  8.9110207024599888e-02
3.024924623115578e-01  1.3218777024443396e-03 -1.8736743412027145e-02 -9.8123979158919206e-01 -1.5869806017312454e-01 -9.8123979158925634e-01 -1.5869806017313470e-01  1.8742100399565186e-03 -1.8646705869096347e-02
4.029899497487437e-01 -2.0198872547125341e-01 -1.6722150422192725e-01 -6.1869212417083075e-01  7.3020601760803039e-01 -6.1869212417060715e-01  7.3020601760737047e-01 -2.0124844830101002e-01 -1.6810289444457288e-01
5.034874371859297e-01 -2.2627615921589836e-01  7.0467472299501940e-02  2.8233718994244489e-01  9.1939230581554598e-01  2.8233718994243434e-01  9.1939230581551201e-01 -2.2686989030458857e-01  6.8586300127432942e-02
6.039849246231156e-01  9.4451330697215025e-03 -6.8212036737563014e-02  9.7087301842534979e-01  1.6513027072058439e-01  9.7087301842539508e-01  1.6513027072059200e-01  6.5168899247052929e-03 -6.8681182627814835e-02
7.044824120603016e-01 -2.5273245836054598e-01 -1.8186487619835201e-01  5.4778237015751208e-01 -7.5799707922711745e-01  5.4778237015751385e-01 -7.5799707922714732e-01 -2.5488127829051627e-01 -1.7883208097297082e-01
8.049798994974875e-01 -1.5936515132123169e-01  8.3154177442774493e-02 -4.7397813143470863e-01 -8.4104168906871046e-01 -4.7397813143471884e-01 -8.4104168906838450e-01 -1.5717908427038660e-01  8.6982451583477532e-02
9.054773869346734e-01 -6.3451771053162895e-02 -2.1244301813320346e-01 -9.2148502684902156e-01  2.3933003147907653e-01 -9.2148502684904754e-01  2.3933003147926210e-01 -6.0154864155435681e-02 -2.1326613606406272e-01
1.005974874371859e+00 -2.6146397532007531e-01  1.8133878121532592e-03  1.6485835590820879e-02  9.3662180719489774e-01  1.6485835590871249e-02  9.3662180719478683e-01 -2.6127604813031852e-01  2.9297037930260256e-03
1.106472361809045e+00 -2.3961220125688937e-02 -1.5811657054864717e-01  9.4716641384562816e-01 -7.7928486841738046e-02  9.4716641384552380e-01 -7.7928486841795222e-02 -1.4288217781784841e-02 -1.5917570430412631e-01
1.206969849246231e+00 -3.1643563723690780e-02  2.0933307570889022e-02 -4.9056956280429420e-01 -8.0684985286976274e-01 -4.9056956280470621e-01 -8.0684985286946154e-01 -3.7855634250089303e-02  1.0324675550857648e-02
1.307467336683417e+00  6.5049336833510996e-01 -6.5173078376509797e-01  1.5221021924827305e-01  1.7817449580169861e-01  1.5221021924787717e-01  1.7817449580178446e-01  6.4487365810652941e-01 -6.5734560030629030e-01
1.407964824120603e+00 -2.3859583552105024e-01 -9.5358016973608772e-01  1.6573220177871738e-02 -3.3508460883609247e-03  1.6573220177848253e-02 -3.3508460884284380e-03 -2.4275125674586134e-01 -9.5259516321140214e-01
1.508462311557789e+00 -6.1379609341133257e-01 -7.7552293753104351e-01  1.7731085535327997e-03 -1.3733201001328867e-03  1.7731085535955772e-03 -1.3733201002743066e-03 -6.1571915288768231e-01 -7.7404400553716790e-01
1.608959798994975e+00 -8.0173471716585576e-01 -5.8331125956702479e-01  1.7987796532364293e-05 -4.8004682424249579e-05  1.7987796507238504e-05 -4.8004682394074749e-05 -8.0263665783824079e-01 -5.8211247140015399e-01
1.709457286432161e+00 -9.0457809277278278e-01 -4.0911437354800534e-01 -1.4096148256586216e-04  4.3396712272100914e-04 -1.4096148255025618e-04  4.3396712284634356e-04 -9.0498903273566023e-01 -4.0825210462277373e-01
1.809954773869347e+00 -9.6051416488311703e-01 -2.5410068715307182e-01  9.1248468480010062e-06  6.4281256373087251e-04  9.1248468544677216e-06  6.4281256365334273e-04 -9.6068261528086873e-01 -2.5352946153940814e-01
1.910452261306533e+00 -9.8721716180210950e-01 -1.1571946821523996e-01  2.8988969715647522e-04  7.0548116110721469e-04  2.8988969715678710e-04  7.0548116110625268e-04 -9.8727253884379595e-01 -1.1538603987346679e-01
2.010949748743719e+00 -9.9413030240493550e-01  8.5519316496209894e-03  6.3486149614851758e-04  5.6933874442273609e-04  6.3486149614828556e-04  5.6933874442137422e-04 -9.9414575948851513e-01  8.6939075751742284e-03
2.111447236180905e+00 -9.8695187442367016e-01  1.2077312881619946e-01  8.5415148864411198e-04  1.8723642831794735e-04  8.5415148864430594e-04  1.8723642831912360e-04 -9.8697012902642944e-01  1.2076177750175179e-01
2.211944723618091e+00 -9.6933678793934341e-01  2.2278396842834619e-01  7.6341395047897862e-04 -2.3408562333363645e-04  7.6341395047805651e-04 -2.3408562333825754e-04 -9.6938328627523462e-01  2.2264845473543635e-01
2.312442211055277e+00 -9.4345852948537789e-01  3.1607828583698960e-01  4.9919900336542131e-04 -4.5276391669388949e-04  4.9919900336423573e-04 -4.5276391669766321e-04 -9.4355098164581730e-01  3.1584065361493358e-01
2.412939698492462e+00 -9.1072711365924430e-01  4.0158902790657725e-01  2.6125950615250789e-04 -4.9616217135721452e-04  2.6125950615754205e-04 -4.9616217134829446e-04 -9.1087921231079283e-01  4.0126814554029366e-01
2.513437185929649e+00 -8.7226162091847115e-01  4.7995103547135975e-01  9.7304255665709485e-05 -4.6981265530508337e-04  9.7304255714213383e-05 -4.6981265526100893e-04 -8.7248350197565250e-01  4.7956411894412682e-01
2.613934673366834e+00 -8.2895918203089558e-01  5.5168048978698703e-01 -1.4947310575587601e-05 -4.3036322142711662e-04 -1.4947310737725338e-05 -4.3036322167224221e-04 -8.2925802545650895e-01  5.5124326501563647e-01
2.714432160804020e+00 -7.8152540516360458e-01  6.1720288380971999e-01 -1.0442308142960808e-04 -3.9457024017805340e-04 -1.0442308122117113e-04 -3.9457023984165989e-04 -7.8190614937654479e-01  6.1672973585451374e-01
2.814929648241206e+00 -7.3052189131818401e-01  6.7685879130752358e-01 -1.9243586048933172e-04 -3.5910310760590655e-04 -1.9243586050330362e-04 -3.5910310761317195e-04 -7.3098776300853163e-01  6.7636299202449357e-01
2.915427135678392e+00 -6.7640916260179984e-01  7.3091290313770341e-01 -2.9038375830339101e-04 -3.0874822664258238e-04 -2.9038375837535689e-04 -3.0874822670777144e-04 -6.7696202312693543e-01  7.3040681709287403e-01
3.015924623115578e+00 -6.1958259716435227e-01  7.7956526933670889e-01 -3.9477184313402525e-04 -2.1976335261091046e-04 -3.9477184311299953e-04 -2.1976335259300049e-04 -6.2022314050527472e-01  7.7906052525880476e-01
3.116422110552764e+00 -5.6040465055103439e-01  8.2297008760263546e-01 -4.7657595276940192e-04 -6.9877155094881418e-05 -4.7657595278922775e-04 -6.9877155108755642e-05 -5.6113251553129506e-01  8.2247770092428962e-01
3.216919597989950e+00 -4.9922070900716792e-01  8.6127391241836304e-01 -4.8018996315685441e-04  1.3116152815024015e-04 -4.8018996306209015e-04  1.3116152820586067e-04 -5.0003447719203931e-01  8.6080444030791958e-01
3.317417085427136e+00 -4.3632137060443954e-01  8.9464995356880284e-01 -3.7061966889883556e-04  3.1350433764209938e-04 -3.7061966912777991e-04  3.1350433765054911e-04 -4.3721819661396000e-01  8.9421379930537681e-01
3.417914572864322e+00 -3.7188213890811583e-01  9.2324926290570009e-01 -1.9431100987386197e-04  4.0105927104649720e-04 -1.9431101001086493e-04  4.0105927154533613e-04 -3.7285640170119938e-01  9.2285722629162004e-01
3.518412060301508e+00 -3.0600164684296194e-01  9.4711016270568593e-01 -3.2580046140439827e-05  3.9308427801529729e-04 -3.2580046253124028e-05  3.9308427797186409e-04 -3.0699582020899729e-01  9.4678838485287664e-01
3.618909547738693e+00 -2.3973287333053650e-01  9.6585633126909298e-01  8.0120901680308582e-05  3.3610503217738620e-04  8.0120901675531479e-05  3.3610503217954929e-04 -2.4111430654259414e-01  9.6540800285510631e-01
3.719407035175880e+00 -1.7135257445937102e-01  9.8047755883141918e-01  1.5087359504664506e-04  2.7573057045727800e-04  1.5087359501156838e-04  2.7573057045125206e-04 -1.7264451580582460e-01  9.8024863419561747e-01
3.819904522613065e+00 -1.0251718181122595e-01  9.9000364403192287e-01  1.9839634726845275e-04  2.1756966042941016e-04  1.9839634725496815e-04  2.1756966042893569e-04 -1.0386224285812122e-01  9.8986345558891531e-01
3.920402010050252e+00 -3.3137123062216084e-02  9.9466374274847791e-01  2.3705331690295671e-04  1.6338483332005503e-04  2.3705331685178096e-04  1.6338483331941985e-04 -3.4544003309661522e-02  9.9461610105046594e-01
4.020899497487438e+00  3.6604253391316170e-02  9.9442077370856374e-01  2.7353806417813897e-04  1.0532106352483074e-04  2.7353806418255839e-04  1.0532106352466653e-04  3.5136494239339192e-02  9.9447363316851201e-01
4.121396984924623e+00  1.0650292613466197e-01  9.8921323693199481e-01  3.0577121052680160e-04  3.3306551156745002e-05  3.0577121052706674e-04  3.3306551156884064e-05  1.0497774756239039e-01  9.8937551923426814e-01
4.221894472361810e+00  1.7634222824764417e-01  9.7896274415555129e-01  3.2189430170375527e-04 -5.9626257914792077e-05  3.2189430171376024e-04 -5.9626257916650793e-05  1.7476414609258031e-01  9.7924398159135861e-01
4.322391959798995e+00  2.4589292833062462e-01  9.6358018497885645e-01  3.0248541347643757e-04 -1.6874661345062057e-04  3.0248541348137952e-04 -1.6874661345228455e-04  2.4426708542810874e-01  9.6399071241211254e-01
4.422889447236182e+00  3.1492199079735828e-01  9.4296966079863209e-01  2.3324673900757960e-04 -2.7027987309574241e-04  2.3324673902764734e-04 -2.7027987310226503e-04  3.1325424115880773e-01  9.4352102477134903e-01
4.523386934673367e+00  3.8320715078229067e-01  9.1701395969897626e-01  1.2437984412681858e-04 -3.3155911776750505e-04  1.2437984411919003e-04 -3.3155911776452002e-04  3.8150457338085719e-01  9.1771918373178740e-01
4.623884422110553e+00  4.5052976668833483e-01  8.8554088550232912e-01  9.1139545276541282e-06 -3.3890193944451964e-04  9.1139545551848843e-06 -3.3890193945884341e-04  4.4880119431160842e-01  8.8641433863932462e-01
4.724381909547740e+00  5.1663973850159473e-01  8.4830599574260201e-01 -8.4273458975139400e-05 -3.0673839295294793e-04 -8.4273458974674819e-05 -3.0673839295297607e-04  5.1489593047030680e-01  8.4936323306604844e-01
4.824879396984924e+00  5.8122959101834781e-01  8.0500071999587419e-01 -1.4865289757189657e-04 -2.5806991708231724e-04 -1.4865289759801191e-04 -2.5806991706378915e-04  5.7948335706138476e-01  8.0625873055224317e-01
4.925376884422111e+00  6.4392829155916853e-01  7.5525307456008461e-01 -1.9046335609035261e-04 -2.0789775329768057e-04 -1.9046335611155540e-04 -2.0789775327778080e-04  6.4219502796662620e-01  7.5673080257514636e-01
5.025874371859297e+00  7.0429267950281338e-01  6.9860678690737932e-01 -2.1843749888590395e-04 -1.6158141612392202e-04 -2.1843749886760029e-04 -1.6158141610888674e-04  7.0259145688718738e-01  7.0032560472091887e-01
5.126371859296483e+00  7.6178294470734786e-01  6.3448381344706584e-01 -2.3850739050331745e-04 -1.1910301749257342e-04 -2.3850739051126373e-04 -1.1910301749514126e-04  7.6013820885425032e-01  6.3646770236394434e-01
5.226869346733668e+00  8.1571739751466799e-01  5.6212906045233235e-01 -2.5297167924193500e-04 -7.8939608132619997e-05 -2.5297167925749807e-04 -7.8939608214754261e-05  8.1416147981671794e-01  5.6440413419368829e-01
5.327366834170855e+00  8.6519666705382903e-01  4.8052206019954824e-01 -2.6111461205387802e-04 -4.0822409510148498e-05 -2.6111461205610969e-04 -4.0822409506096347e-05  8.6377347761961798e-01  4.8311448139525959e-01
5.427864321608040e+00  9.0897099252716729e-01  3.8821254325660209e-01 -2.6026557936423565e-04 -9.2339987114262279e-06 -2.6026557937853899e-04 -9.2339987841867935e-06  9.0774136486285295e-01  3.9114205286596904e-01
5.528361809045227e+00  9.4517416524005360e-01  2.8292751485722839e-01 -2.4852042065873399e-04 -1.2942143010923647e-05 -2.4852042070118544e-04 -1.2942142958387940e-05  9.4422257107143581e-01  2.8618614748804522e-01
5.628859296482413e+00  9.7044696101742389e-01  1.5989098306840474e-01 -3.7740017567983836e-04 -5.2989013539874277e-04 -3.7740017568406209e-04 -5.2989013535825237e-04  9.6986917164451381e-01  1.6332980926191046e-01
5.729356783919598e+00  9.7534271713962262e-01  1.7763363462284222e-02  5.6384276770481763e-04  1.3713178883289255e-02  5.6384276771510834e-04  1.3713178883258263e-02  9.7507474370517244e-01  2.1719082066883222e-02
5.829854271356784e+00  9.5287877792852793e-01 -1.0990290194475646e-01  2.2431640274654806e-03 -4.9861260662839239e-02  2.2431640274654806e-03 -4.9861260662830878e-02  9.5308614475225240e-01 -1.0423607000578344e-01
5.930351758793971e+00  7.2160276245173871e-01 -3.2362933740322236e-01 -1.9213184372344452e-01 -2.4813145535777317e-02 -1.9213184372343972e-01 -2.4813145535787687e-02  7.2154687614690782e-01 -3.2001180609957391e-01
6.030849246231155e+00  7.7085934641429965e-01 -4.5502749396331310e-01  1.0462144291357660e-01  1.1428080745028267e-01  1.0462144291357676e-01  1.1428080745027550e-01  7.7273015533034839e-01 -4.5105730136228656e-01
6.131346733668342e+00  7.3812904599334772e-01 -4.7513689603192927e-01 -4.1792210922505638e-02 -1.4861418641488114e-01 -4.1792210922505096e-02 -1.4861418641488139e-01  7.4012912516683904e-01 -4.6995223053950907e-01
6.231844221105528e+00  4.0223132277717549e-01 -8.0367265142533839e-01 -8.9610258137218152e-02 -3.2176283318310843e-02 -8.9610258137217416e-02 -3.2176283318310329e-02  3.9861547320802554e-01 -8.0339177340276313e-01
6.332341708542714e+00 -2.5943928892701817e-01 -7.7851280025497149e-01 -1.1237779736317453e-01  7.8421877646559709e-02 -1.1237779736317963e-01  7.8421877646560612e-02 -2.8733863739711407e-01 -7.6081959049559278e-01
6.432839195979899e+00 -7.1313846431927519e-01  9.4629520778703805e-02  8.4683792918223200e-02  1.9270522297853376e-01  8.4683792918223158e-02  1.9270522297853501e-01 -6.8771306580172775e-01  1.8623558709620522e-01
6.533336683417086e+00  4.0542762931041816e-02  7.8603931375190550e-01  1.8761821370849927e-01 -4.3033943678379753e-02  1.8761821370850446e-01 -4.3033943678387816e-02  1.5079453726930786e-01  7.8149373684992274e-01
6.633834170854271e+00  7.1372492831636580e-01  4.9649896376002661e-01  6.3456886031083973e-02 -1.3618738794198765e-01  6.3456886031086318e-02 -1.3618738794199808e-01  7.6580564402583562e-01  4.2593896965744893e-01
6.734331658291458e+00  8.9741473354095302e-01  9.1606431697774399e-03 -2.6031894612470467e-02 -1.4084122232258570e-01 -2.6031894612471806e-02 -1.4084122232258667e-01  8.9862311662531136e-01 -6.3016407297061927e-02
6.834829145728643e+00  7.7465318171528619e-01 -4.3588194679659287e-01 -1.1877707208262513e-01 -1.3397105850390773e-01 -1.1877707208262803e-01 -1.3397105850390825e-01  7.4057166787969309e-01 -4.9293662203585192e-01
6.935326633165829e+00  3.4938417421262685e-01 -7.4214446748105467e-01 -2.9524190135193823e-01 -5.8195418888574019e-02 -2.9524190135194261e-01 -5.8195418888556991e-02  2.8588583839593890e-01 -7.6636748523906784e-01
7.035824120603015e+00 -2.4771466427930725e-01 -4.3866787811348201e-01 -3.8960666391867960e-01  4.7730776459088076e-01 -3.8960666391868271e-01  4.7730776459088153e-01 -2.9575208267005565e-01 -3.9707479187604611e-01
7.136321608040202e+00  3.6857751410606154e-02 -1.1777278931389058e-01  5.8273362014566188e-01  5.5972241843483395e-01  5.8273362014564101e-01  5.5972241843482506e-01  4.3978869076371371e-02 -1.0186937837553268e-01
7.236819095477387e+00 -8.4795526216623784e-02 -1.9784454129753168e-01  7.1094675027333509e-01 -3.7309490136070045e-01  7.1094675027333420e-01 -3.7309490136069651e-01 -1.0027022852221434e-01 -1.8533305241303782e-01
7.337316582914573e+00 -1.7033941552893397e-01  3.4889798102211750e-03 -6.5385637972898633e-02 -8.0094810849201281e-01 -6.5385637972899160e-02 -8.0094810849202214e-01 -1.6426597706209162e-01  3.8755557604950308e-02
7.437814070351759e+00 -6.9747987503775186e-02  2.0609204553572624e-01 -7.4038820111090431e-01 -2.6469715424899287e-01 -7.4038820111092463e-01 -2.6469715424899481e-01 -3.1224938171452839e-02  2.1764665307603093e-01
7.538311557788946e+00  1.3989645272397472e-01  1.8703887921127796e-01 -5.4583678430258731e-01  5.4505199685336569e-01 -5.4583678430256888e-01  5.4505199685337380e-01  1.6577031922997809e-01  1.6207274190633872e-01
7.638809045226131e+00  2.3478309980786038e-02  1.0327131314512999e-01  3.0647242572651801e-01  6.9512781460690765e-01  3.0647242572650335e-01  6.9512781460690354e-01  1.9336332912755883e-02  8.2553263633717108e-02
7.739306532663317e+00  1.2723976213049659e-01  4.0206414365051607e-01  6.4706049891513684e-01 -5.6023302737134052e-02  6.4706049891512196e-01 -5.6023302737135156e-02  1.3027630121026601e-01  3.9608705495210267e-01
7.839804020100503e+00  4.2877515749775524e-01  2.0903080619585823e-01  1.7214772625998598e-01 -5.5789723139184433e-01  1.7214772626001473e-01 -5.5789723139180847e-01  4.3390700926649423e-01  1.9397395591045799e-01
7.940301507537689e+00  2.8754132464373106e-01  3.2647866207927251e-01 -4.5295041338754488e-01 -9.3268949632224790e-02 -4.5295041338754688e-01 -9.3268949632212828e-02  3.0243261267061294e-01  3.1109100995239980e-01
8.040798994974875e+00  7.8118604338690112e-01  9.7113287386559083e-02 -7.7839747099258602e-02  1.5325257468277381e-01 -7.7839747099245613e-02  1.5325257468276957e-01  7.8243918474441010e-01  4.7130589882480964e-02
8.141296482412061e+00  6.9862867773740478e-01 -4.4140025277372735e-01  2.8166526359298193e-02  7.2909800193979662e-02  2.8166526359329581e-02  7.2909800193977761e-02  6.5589946989263148e-01 -4.9535141396051019e-01
8.241793969849246e+00  2.2508507500013508e-01 -7.6862790088917166e-01  3.9723825189675308e-02  1.6306472960096019e-02  3.9723825189684925e-02  1.6306472960063770e-02  1.4149986540652282e-01 -7.8447620963262565e-01
8.342291457286432e+00 -4.0754414546848400e-01 -6.4452680015540342e-01  2.1219563101464341e-02 -1.1124347473633320e-02  2.1219563101444502e-02 -1.1124347473632933e-02 -4.8214104788334106e-01 -5.9316185716966141e-01
8.442788944723619e+00 -7.5193975337535057e-01 -7.5409496578873428e-02  3.0071908269443115e-03 -1.1638292104235759e-02  3.0071908269415195e-03 -1.1638292104241478e-02 -7.6492520419849708e-01  8.7722749241571558e-04
8.543286432160805e+00 -6.1054765888454388e-01  4.9927305304122288e-01 -2.0701141853510028e-03 -5.2650753480495633e-03 -2.0701141853698983e-03 -5.2650753480689193e-03 -5.8343237088867939e-01  5.4650559600649529e-01
8.643783919597990e+00 -2.4327028719879509e-01  7.9454979259607483e-01 -2.0758655327771966e-03 -2.1844565369847340e-03 -2.0758655328055775e-03 -2.1844565370010643e-03 -2.1303209039716017e-01  8.1179014508344383e-01
8.744281407035176e+00  1.1346516591994786e-01  8.5734018494137365e-01 -1.7438190588148128e-03 -9.4582622677348376e-04 -1.7438190587966713e-03 -9.4582622679505125e-04  1.3509486867344112e-01  8.6003290761874673e-01
8.844778894472363e+00  3.8955288678574712e-01  7.9874123467812452e-01 -1.4379852074719696e-03 -1.8544531964315191e-04 -1.4379852074623172e-03 -1.8544531963474964e-04  4.0320334556759374e-01  7.9639185215741481e-01
8.945276381909549e+00  5.8775761019310668e-01  6.8829704129642089e-01 -1.0073681655257316e-03  3.2121595917950234e-04 -1.0073681655289950e-03  3.2121595916820978e-04  5.9611146287874850e-01  6.8482126454790782e-01
9.045773869346734e+00  7.2572249248658371e-01  5.5976985616808761e-01 -4.8370581733518203e-04  5.3324394729546438e-04 -4.8370581732612525e-04  5.3324394730552621e-04  7.3087235379203497e-01  5.5648463646522328e-01
9.146271356783920e+00  8.1937175239339777e-01  4.2832452311407554e-01  2.7019286739976266e-06  4.3633684041613626e-04  2.7019286747856222e-06  4.3633684042323107e-04  8.2263295126091152e-01  4.2554903892331930e-01
9.246768844221107e+00  8.8039468015344446e-01  3.0054404092443432e-01  3.0943055139210919e-04  9.0688010360264008e-05  3.0943055139428800e-04  9.0688010364294502e-05  8.8254219178942195e-01  2.9825536050730467e-01
