!
! C:\Users\Aljaz\Desktop\sito_1-5GHz_7stopnje.S2P
!
! Touchstone 1.1 file saved by VNA.EXE V1.65 (www.ke5fx.com/gpib/readme.htm)
! 27. 03. 2024 12:48:22
!
!    Source: HP8510C.07.14: Aug 26  1998 
!  Min freq: 4.500000E+007 Hz
!  Max freq: 1.700000E+010 Hz
!    Points: 801
!    Params: S11 S21 S12 S22
!
!!!!!
# GHZ S DB R 50
0.0450000000000000 -14.994368 -175.485036 -0.159644 -43.528941 1.271395 -122.658629 -15.656456 -153.810779 
0.0661937500000000 -12.408474 147.796430 -0.296947 -64.792037 1.086322 -158.644997 -12.931860 171.336162 
0.0873875000000000 -10.697234 109.235470 -0.498285 -84.703807 0.815548 167.510563 -11.161877 131.942580 
0.1085812500000000 -10.192616 69.378118 -0.553360 -103.476232 0.650570 134.854310 -10.724605 90.441760 
0.1297750000000000 -9.896852 34.800203 -0.565763 -122.868100 0.560740 101.642982 -10.215866 53.827917 
0.1509687500000000 -8.886281 1.709918 -0.685084 -142.249141 0.386840 68.443303 -9.097092 19.527116 
0.1721625000000000 -8.098220 -31.920635 -0.792956 -160.792041 0.247335 35.495598 -8.249907 -13.890982 
0.1933562500000000 -7.619827 -64.168207 -0.869214 -179.408624 0.111239 2.894475 -7.932819 -47.216343 
0.2145500000000000 -7.529286 -97.101282 -0.845431 162.551812 0.076672 -29.502392 -8.177667 -82.091784 
0.2357437500000000 -7.852960 -129.492064 -0.795487 143.841043 0.077796 -62.790144 -8.523651 -116.306358 
0.2569375000000000 -7.930027 -160.397311 -0.798450 124.716731 0.042931 -96.291962 -8.391180 -149.776141 
0.2781312500000000 -7.651886 159.935608 -0.850517 104.948310 0.265144 -140.984209 -8.015038 174.051902 
0.2993250000000000 -7.840365 126.521470 -0.876860 85.595212 0.163843 -175.654722 -8.345348 138.923071 
0.3205187500000000 -8.814720 91.611438 -0.787427 66.491208 0.216928 150.638622 -9.390781 102.453882 
0.3417125000000000 -9.970140 57.814717 -0.707917 46.658183 0.257528 116.372994 -10.002455 66.039191 
0.3629062500000000 -10.092751 20.727743 -0.713173 27.633004 0.241427 82.910844 -9.984584 28.379632 
0.3841000000000000 -10.014610 -16.110103 -0.671570 8.433060 0.274442 49.152105 -10.282036 -1.996686 
0.4052937500000000 -10.017330 -48.184716 -0.674269 -10.854839 0.221481 15.434515 -10.340928 -29.495595 
0.4264875000000000 -11.263378 -79.608786 -0.590889 -29.610703 0.243154 -18.153211 -11.931352 -63.440343 
0.4476812500000000 -14.052341 -104.457499 -0.495200 -49.345899 0.271045 -52.265040 -15.390728 -97.039869 
0.4688750000000000 -17.156970 -132.662022 -0.458389 -69.227567 0.210243 -86.724741 -19.378191 -130.587392 
0.4900687500000000 -22.217850 -172.051849 -0.444375 -89.112933 0.142313 -120.784400 -21.749601 -159.903605 
0.5112625000000000 -31.973743 114.179395 -0.436843 -108.875694 0.104940 -154.768535 -25.754115 158.995664 
0.5324562500000000 -24.425993 -41.661488 -0.427723 -129.092968 0.085455 170.829438 -33.390091 -56.234895 
0.5536500000000000 -18.116892 -98.632049 -0.489622 -149.309721 0.041583 136.207204 -20.105855 -94.584682 
0.5748437500000000 -15.798177 -138.491106 -0.556652 -169.325144 -0.047359 101.714718 -15.602924 -132.411234 
0.5960375000000000 -14.236460 -176.632363 -0.648358 170.765951 -0.107300 67.384628 -13.771192 -173.013411 
0.6172312500000000 -12.346895 145.019849 -0.727424 150.730073 -0.211646 32.745885 -12.166415 151.123383 
0.6384250000000000 -9.771433 108.056854 -0.866226 130.879150 -0.346770 -1.967534 -10.417168 117.093036 
0.6596187500000000 -7.980389 73.312093 -1.047866 111.267666 -0.525446 -36.345312 -8.962316 87.619575 
0.6808125000000000 -7.441233 43.042630 -1.176501 92.491468 -0.712862 -69.974244 -7.914396 53.618507 
0.7020062500000001 -7.840147 13.888782 -1.094481 73.396120 -0.639249 -103.659200 -8.286661 16.337926 
0.7232000000000000 -8.306120 -16.001334 -1.098254 53.183676 -0.698459 -138.788046 -8.664021 -17.738526 
0.7443937500000000 -8.104004 -54.367239 -1.210321 33.556833 -0.811194 -172.770455 -8.465818 -53.360875 
0.7655875000000000 -8.212652 -93.062118 -1.160229 14.399758 -0.792059 153.051177 -8.498759 -86.122190 
0.7867812500000000 -8.270387 -124.944316 -1.136901 -5.693536 -0.797257 118.405644 -8.650582 -120.246900 
0.8079750000000000 -8.922748 -156.771260 -1.070678 -25.250497 -0.711212 83.992189 -9.569042 -158.592843 
0.8291687500000000 -10.305174 172.960927 -0.912155 -45.714133 -0.594549 48.655372 -10.779748 161.905529 
0.8503625000000000 -11.283063 135.767101 -0.857151 -66.824469 -0.528379 12.873865 -11.951982 128.495205 
0.8715562500000000 -12.860461 87.201213 -0.805600 -88.632010 -0.202671 -34.902872 -12.305400 97.709223 
0.8927500000000000 -15.528620 56.396867 -0.741553 -111.453432 -0.148110 -73.491218 -15.330193 66.823875 
0.9139437500000001 -21.075136 40.882479 -0.689062 -133.985383 -0.142280 -111.214888 -23.234149 49.086338 
0.9351375000000000 -26.922913 87.479684 -0.675858 -156.392916 -0.163901 -148.506661 -27.537473 146.893209 
0.9563312500000000 -20.122542 116.591818 -0.719544 -178.776600 -0.236253 174.482670 -20.350459 109.955690 
0.9775250000000000 -15.864088 86.089655 -0.785696 158.719661 -0.302260 137.513798 -18.694200 66.466560 
0.9987187500000000 -13.534155 44.467024 -0.904071 136.195118 -0.431053 100.290054 -14.298258 28.676677 
1.0199125000000000 -11.166398 2.337361 -1.069903 113.720317 -0.556530 63.436615 -11.199891 -6.728928 
1.0411062499999999 -9.369423 -33.676529 -1.215938 91.307435 -0.727729 26.050609 -9.356362 -36.473009 
1.0623000000000000 -8.267929 -67.576135 -1.383480 69.125013 -0.880156 -10.641645 -8.753740 -71.700621 
1.0834937499999999 -8.473057 -102.866868 -1.386002 46.830586 -0.898603 -47.976752 -9.078914 -109.796164 
1.1046875000000000 -8.860246 -137.979444 -1.411197 23.370370 -0.947551 -86.004969 -9.325503 -151.901780 
1.1258812499999999 -9.337014 -176.401303 -1.389979 -0.260599 -0.923452 -125.015917 -9.948503 168.722402 
1.1470750000000001 -10.992964 150.224363 -1.249554 -25.560914 -0.886006 -165.007089 -11.725336 132.434634 
1.1682687500000000 -15.522654 128.129354 -1.140886 -53.044758 -0.824074 153.230316 -18.099367 100.248771 
1.1894625000000001 -16.631046 -177.997587 -1.255047 -83.356376 -0.986540 108.446100 -23.095455 -149.656158 
1.2106562500000000 -9.187109 164.454725 -1.854522 -115.291914 -1.636878 61.811770 -12.124516 178.794150 
1.2318499999999999 -5.472563 125.989962 -3.064855 -148.072167 -2.819872 15.037849 -5.961526 124.568186 
1.2530437500000000 -3.109256 81.856460 -4.863143 -179.289882 -4.650685 -31.300298 -3.293766 77.395266 
1.2742374999999999 -1.507854 40.214369 -7.241266 152.640257 -6.994661 -73.592469 -1.853242 35.228202 
1.2954312500000000 -0.613896 2.782191 -9.588730 129.693483 -9.370604 -111.822886 -1.192357 -1.651015 
1.3166249999999999 -0.247495 -31.501545 -11.690367 108.123235 -11.517050 -147.471496 -0.821834 -37.524178 
1.3378187500000001 -0.221467 -65.349258 -13.782837 87.606145 -13.517440 177.142977 -0.567964 -73.200989 
1.3590125000000000 -0.212937 -99.455839 -15.782924 68.410884 -15.623087 142.885013 -0.406024 -107.976061 
1.3802062500000001 -0.062699 -132.874939 -17.898119 50.334156 -17.662704 110.562107 -0.374513 -139.871162 
1.4014000000000000 0.093403 -164.328568 -19.751380 35.011509 -19.582343 79.729807 -0.444941 -169.556714 
1.4225937500000001 0.173651 166.353675 -21.226008 19.701402 -21.210351 49.830915 -0.439198 160.294710 
1.4437875000000000 0.046854 136.784652 -22.761679 2.599150 -22.554217 18.250386 -0.415551 127.917291 
1.4649812499999999 -0.162125 107.059111 -24.213210 -13.885130 -24.250416 -12.437159 -0.454156 94.986259 
1.4861750000000000 -0.119691 76.457793 -25.893423 -28.551669 -25.643997 -42.545549 -0.419277 64.859723 
1.5073687499999999 0.031547 45.709600 -27.201315 -43.099877 -27.269219 -72.997642 -0.389021 36.417128 
1.5285625000000000 0.100623 17.236794 -28.508778 -57.429698 -28.479610 -100.263073 -0.375218 8.002554 
1.5497562499999999 0.137292 -9.680757 -29.744119 -71.376178 -29.528685 -131.476148 -0.396227 -22.812172 
1.5709500000000001 -0.005201 -37.849356 -30.733157 -88.399822 -30.708934 -160.583775 -0.572089 -55.547456 
1.5921437500000000 -0.179543 -67.372856 -32.085208 -102.425396 -31.937438 169.995161 -0.588592 -86.626286 
1.6133375000000001 -0.109311 -98.303385 -33.178041 -116.517152 -33.230383 140.742871 -0.420170 -116.199828 
1.6345312500000000 -0.034971 -129.145382 -34.136315 -132.182000 -34.361813 111.263802 -0.362337 -145.046810 
1.6557249999999999 -0.015568 -156.945849 -35.506285 -146.251671 -35.369026 81.187051 -0.402055 -174.372322 
1.6769187500000000 0.033650 176.392156 -36.313896 -159.303175 -36.086332 54.507039 -0.477909 153.957940 
1.6981124999999999 -0.077538 147.725143 -37.474619 -177.104135 -36.919025 20.274352 -0.561975 122.408959 
1.7193062500000000 -0.218349 117.500078 -38.010921 168.909958 -38.277891 -5.874247 -0.563234 92.909827 
1.7404999999999999 -0.189881 86.174394 -39.727806 154.572970 -39.173116 -36.310995 -0.478735 65.363840 
1.7616937500000001 -0.198287 56.396262 -40.624812 139.382467 -41.137027 -65.389294 -0.440226 38.201030 
1.7828875000000000 -0.165004 29.885462 -41.641329 128.780160 -41.085697 -91.724638 -0.384057 10.222788 
1.8040812500000001 0.080726 2.745095 -41.622559 113.231022 -42.602952 -119.759514 -0.310274 -20.102162 
1.8252750000000000 0.066938 -28.152099 -42.684854 101.056667 -42.971534 -154.541123 -0.512069 -49.504320 
1.8464687500000001 -0.188802 -59.465601 -44.557636 85.993660 -43.800177 -174.783730 -0.642410 -76.008053 
1.8676625000000000 -0.229879 -89.195623 -45.092428 76.724195 -45.070489 154.078952 -0.547165 -102.680701 
1.8888562499999999 -0.147374 -116.828311 -45.984487 63.565142 -46.006734 122.451531 -0.519457 -131.668070 
1.9100500000000000 0.023473 -143.010128 -46.080709 52.175445 -47.774330 92.260678 -0.491595 -162.329839 
1.9312437499999999 0.104160 -170.674294 -47.672127 26.193411 -46.597525 67.514897 -0.537071 166.683329 
1.9524375000000000 -0.096565 159.639096 -47.099720 15.039425 -48.516753 33.620876 -0.644967 138.635315 
1.9736312499999999 -0.275846 130.785714 -48.871349 9.565852 -48.584899 12.258687 -0.637008 112.326914 
1.9948250000000001 -0.217137 102.619033 -49.212586 -10.871585 -48.454504 -8.162830 -0.657534 84.266327 
2.0160187500000002 -0.150957 76.201091 -50.327551 -22.422830 -49.898457 -43.550699 -0.704724 54.617734 
2.0372124999999999 -0.083307 50.783257 -49.816701 -46.989256 -51.026482 -66.687144 -0.618325 23.270083 
2.0584062500000000 -0.071676 22.806201 -51.678542 -48.409440 -51.077303 -103.987606 -0.569944 -7.243125 
2.0796000000000001 -0.308286 -6.549064 -52.729206 -70.801932 -51.698629 -137.779399 -0.650773 -34.435436 
2.1007937499999998 -0.430010 -34.628222 -53.961326 -73.695083 -54.854275 -159.635150 -0.648089 -60.736973 
2.1219874999999999 -0.183539 -61.373149 -52.556798 -95.988985 -51.962875 173.441535 -0.607828 -89.465541 
2.1431812500000000 -0.008763 -88.210907 -51.258825 -98.434460 -52.260809 150.500152 -0.675888 -121.556613 
2.1643750000000002 -0.108068 -115.269628 -54.665087 -118.297378 -54.336562 102.059470 -0.688807 -152.715404 
2.1855687499999998 -0.305470 -143.544129 -54.549732 -137.349881 -55.859731 87.043043 -0.632926 178.448235 
2.2067625000000000 -0.421808 -173.482646 -56.336802 -163.623231 -55.596618 51.732433 -0.594930 152.324484 
2.2279562500000001 -0.292417 156.849848 -51.884612 -144.867511 -55.072170 24.183685 -0.542737 125.669661 
2.2491500000000002 -0.133140 128.263832 -53.254230 175.840070 -56.282772 12.867806 -0.655400 95.703840 
2.2703437499999999 -0.160679 100.853372 -54.848263 173.030413 -54.124011 -40.983388 -0.820167 64.706111 
2.2915375000000000 -0.290396 73.382321 -58.281660 154.334752 -57.992273 -58.537029 -0.776375 34.597445 
2.3127312500000001 -0.388651 43.070513 -58.826270 126.398509 -55.567801 -108.515990 -0.718974 7.275322 
2.3339249999999998 -0.446235 11.829410 -59.461527 131.693514 -56.768822 -112.315078 -0.601471 -17.995248 
2.3551187499999999 -0.333092 -17.921871 -56.651476 107.266314 -56.986076 -131.132785 -0.616321 -45.326524 
2.3763125000000000 -0.207948 -45.730704 -60.122143 88.919340 -58.757794 173.390462 -0.822518 -74.519306 
2.3975062500000002 -0.298900 -72.631294 -57.686066 80.559187 -60.557440 154.694704 -0.985459 -104.559736 
2.4186999999999999 -0.020057 -72.886963 -57.628510 103.163127 -57.395362 149.973599 -0.623410 -99.108385 
2.4398937500000000 -0.344440 -99.858016 -62.890984 50.856225 -61.055110 123.503439 -0.713526 -128.792028 
2.4610875000000001 -0.290723 -129.523607 -62.215243 55.993344 -58.895360 83.499407 -0.390285 -158.448548 
2.4822812500000002 -0.126763 -160.194249 -60.296226 49.891980 -64.661917 110.836002 -0.320151 174.031448 
2.5034749999999999 -0.096320 169.936000 -58.131375 21.877103 -56.967175 42.597889 -0.495873 147.025181 
2.5246687500000000 -0.242236 143.321046 -58.093237 9.684108 -63.293563 7.924053 -0.592395 119.115879 
2.5458625000000001 -0.330678 118.815730 -57.986747 -10.695860 -56.075643 20.717585 -0.556415 89.608514 
2.5670562499999998 -0.252397 93.323014 -62.698360 -46.331149 -61.713158 -51.773503 -0.441083 60.628419 
2.5882499999999999 -0.143989 65.340207 -57.591957 -17.693399 -66.719626 -126.789206 -0.423373 32.723096 
2.6094437500000001 -0.078013 36.825793 -60.063434 -27.595110 -62.020543 -139.468821 -0.475374 5.980004 
2.6306375000000002 -0.149970 9.417573 -60.512053 -17.057317 -64.072081 -169.805966 -0.540244 -22.078522 
2.6518312499999999 -0.311999 -16.314362 -63.033611 -21.837377 -63.745771 179.387617 -0.626298 -51.865256 
2.6730250000000000 -0.385724 -41.755284 -58.526469 -52.620231 -65.556482 155.515189 -0.554582 -82.053352 
2.6942187500000001 -0.334701 -69.233604 -66.358841 -150.713816 -62.659111 129.926126 -0.438817 -111.292884 
2.7154124999999998 -0.140986 -98.059231 -65.814639 -109.879965 -67.396732 93.772022 -0.444352 -139.281336 
2.7366062499999999 0.021095 -127.573911 -58.762321 -140.201633 -65.082488 29.077384 -0.638169 -167.360971 
2.7578000000000000 -0.184970 -155.867219 -67.875881 -174.069777 -58.744160 56.363211 -0.840452 164.270499 
2.7789937500000002 -0.496015 178.459546 -59.882940 -139.403640 -59.907794 17.038759 -0.658623 134.219706 
2.8001874999999998 -0.463179 151.706740 -58.701216 -169.262196 -58.109250 -60.093954 -0.472834 102.864250 
2.8213812500000000 -0.234475 121.127344 -65.442753 145.884543 -60.652823 -18.210831 -0.588844 75.234436 
2.8425750000000001 -0.169810 89.648735 -61.352900 101.331455 -63.318198 -120.329560 -0.718830 50.525901 
2.8637687500000002 -0.228067 60.886117 -72.317591 102.245453 -64.809288 -113.590592 -0.839016 24.556159 
2.8849624999999999 -0.354399 34.455900 -60.889969 106.549571 -69.146805 149.507154 -0.802529 -5.052225 
2.9061562500000000 -0.488706 8.115979 -67.919011 125.474699 -65.266301 -177.300050 -0.713621 -37.431790 
2.9273500000000001 -0.452428 -21.244877 -66.648869 117.560883 -63.136341 126.409266 -0.720808 -67.775593 
2.9485437499999998 -0.455151 -53.295935 -63.665995 103.494313 -63.355130 116.394249 -0.731720 -93.753847 
2.9697374999999999 -0.437393 -83.237632 -63.276601 86.067660 -62.696165 139.477523 -0.762033 -118.163323 
2.9909312500000000 -0.340106 -110.166581 -61.807011 -55.133712 -67.248394 0.723802 -0.757972 -144.758199 
3.0121250000000002 -0.450414 -135.684973 -69.258066 127.150996 -68.040597 43.768878 -0.777418 -175.188874 
3.0333187499999998 -0.568922 -161.210828 -70.415797 -63.823800 -64.646275 48.035864 -0.731431 153.419637 
3.0545125000000000 -0.522115 169.845626 -72.603379 -29.392390 -63.033332 -59.795329 -0.735528 124.728852 
3.0757062500000001 -0.535078 138.669923 -62.307352 -41.473372 -65.666476 -41.128864 -0.822052 100.122442 
3.0969000000000002 -0.560685 110.308496 -74.015673 -27.925341 -63.645881 -99.048001 -0.712221 75.373617 
3.1180937499999999 -0.416842 85.048058 -61.614154 8.428176 -63.136600 -55.145082 -0.685296 45.441510 
3.1392875000000000 -0.354120 59.933660 -62.048307 -108.627038 -77.683300 95.458457 -0.825819 13.046070 
3.1604812500000001 -0.490459 33.815785 -67.170687 -42.747182 -68.662475 164.724170 -0.797585 -17.592423 
3.1816749999999998 -0.502275 5.624322 -66.876965 -76.483883 -64.238595 153.464802 -0.771163 -44.606802 
3.2028687499999999 -0.467596 -24.217481 -67.949953 -154.722387 -73.441138 51.149998 -0.754485 -69.120506 
3.2240625000000001 -0.460086 -52.016841 -65.308013 -123.299583 -70.370629 52.876510 -0.736389 -96.258854 
3.2452562500000002 -0.385682 -77.620290 -65.897865 -126.445631 -66.231334 80.956157 -0.829795 -127.858787 
3.2664499999999999 -0.413185 -102.966577 -62.435172 147.137401 -68.157998 8.971158 -0.894996 -160.609423 
3.2876437500000000 -0.438812 -129.819701 -61.320634 117.719095 -68.162077 54.729277 -0.942127 170.123093 
3.3088375000000001 -0.422884 -159.576955 -60.789093 156.654578 -62.047160 -42.622773 -0.934383 145.384278 
3.3300312500000002 -0.550282 170.041229 -70.234699 63.978298 -64.636707 -81.211770 -0.854096 120.143539 
3.3512249999999999 -0.609021 142.594820 -63.400689 118.308283 -69.413175 -78.434696 -0.847124 89.870846 
3.3724187500000000 -0.461524 115.761827 -61.941954 128.096539 -64.580854 -84.127602 -1.036568 55.958032 
3.3936125000000001 -0.422089 87.183059 -64.115824 150.714707 -65.188142 -125.688818 -1.165659 25.474863 
3.4148062499999998 -0.596006 57.592436 -60.914352 69.667769 -63.037370 -145.517802 -0.967199 0.031273 
3.4359999999999999 -0.664143 28.346396 -63.669678 42.946405 -65.429056 115.714691 -0.829590 -24.455892 
3.4571937500000001 -0.632404 -0.001880 -62.240334 68.242913 -64.479152 99.135573 -0.936622 -50.986445 
3.4783875000000002 -0.628155 -26.960980 -69.727218 50.612852 -67.121244 103.350833 -1.070017 -81.815916 
3.4995812499999999 -0.638830 -54.176164 -65.938571 -18.309254 -63.809680 56.785777 -1.127152 -114.368987 
3.5207750000000000 -0.740337 -84.019798 -65.886039 -75.202013 -63.172968 45.612430 -0.957304 -143.196088 
3.5419687500000001 -0.795073 -114.868951 -61.174010 42.901409 -62.183093 -13.492571 -0.829404 -168.735339 
3.5631624999999998 -0.716037 -144.667156 -67.733353 44.320569 -62.943767 28.758298 -0.883437 167.125809 
3.5843562499999999 -0.700008 -171.567825 -60.265287 -15.718807 -63.577177 -40.261033 -0.952491 139.427701 
3.6055500000000000 -0.669529 163.803483 -64.419139 -45.568343 -60.786995 -71.623580 -1.074356 107.029409 
3.6267437500000002 -0.680837 137.483979 -66.800185 -59.494014 -61.021435 -79.362057 -1.048018 75.807296 
3.6479374999999998 -0.777954 108.051540 -60.873962 -91.646822 -67.596361 -115.868316 -0.860089 49.035819 
3.6691312500000000 -0.833532 77.376414 -65.785066 -85.008087 -71.648975 138.000890 -0.751598 25.072758 
3.6903250000000001 -0.735080 48.344334 -63.917858 -53.732755 -66.721883 154.678475 -0.845923 -0.202373 
3.7115187500000002 -0.581978 21.738913 -64.666710 -114.484105 -60.896962 122.986404 -1.107072 -30.178234 
3.7327124999999999 -0.604720 -3.716187 -63.338686 -144.536662 -65.024031 128.623434 -1.254312 -62.525138 
3.7539062500000000 -0.688079 -30.047718 -59.124624 152.183792 -61.853898 61.532598 -1.115511 -92.852178 
3.7751000000000001 -0.791114 -59.233321 -65.384382 -141.764250 -63.967242 5.459759 -0.883580 -119.093714 
3.7962937499999998 -0.820753 -88.635385 -68.639325 128.469812 -68.412871 -11.224373 -0.831372 -144.048735 
3.8174874999999999 -0.588548 -116.234517 -61.800962 144.356327 -62.527785 -45.182523 -1.080543 -172.051923 
3.8386812500000000 -0.383589 -142.633752 -68.993996 150.974828 -62.619962 -81.617184 -1.440670 155.563048 
3.8598750000000002 -0.509313 -169.047875 -64.993236 112.754772 -62.819549 -92.961383 -1.485128 123.039869 
3.8810687499999998 -0.884137 164.797856 -64.701677 55.366357 -63.258276 -95.384969 -1.060077 93.930368 
3.9022625000000000 -0.979465 137.151220 -62.096495 115.621098 -64.677378 132.370614 -0.826819 67.310755 
3.9234562500000001 -0.703875 107.711804 -66.538685 72.353177 -60.937667 129.040069 -1.081937 41.492589 
3.9446500000000002 -0.486536 78.243251 -62.633486 40.374318 -61.356356 127.496299 -1.421483 13.183089 
3.9658437499999999 -0.560128 50.607059 -60.389363 73.192824 -65.796475 104.223507 -1.559556 -19.914643 
3.9870375000000000 -0.914068 25.134951 -63.223791 61.687006 -68.454722 92.432317 -1.292916 -52.632953 
