!
! C:\Users\Aljaz\Desktop\sito_5GHz.S2P
!
! Touchstone 1.1 file saved by VNA.EXE V1.65 (www.ke5fx.com/gpib/readme.htm)
! 27. 03. 2024 12:09:11
!
!    Source: HP8510C.07.14: Aug 26  1998 
!  Min freq: 4.500000E+007 Hz
!  Max freq: 1.700000E+010 Hz
!    Points: 801
!    Params: S11 S21 S12 S22
!
!!!!!
# GHZ S DB R 50
0.0450000000000000 -23.586174 -153.094481 -0.041144 -32.733539 1.025038 -112.981084 -24.183718 -136.286033 
0.0661937500000000 -21.116850 -177.155347 -0.076989 -48.361189 0.909815 -143.440309 -21.765001 -156.855211 
0.0873875000000000 -19.039748 151.280682 -0.130895 -63.208707 0.814122 -172.213038 -19.322394 167.893527 
0.1085812500000000 -19.056235 106.608727 -0.151274 -77.508827 0.721900 159.699327 -20.067033 120.462867 
0.1297750000000000 -20.649403 70.622808 -0.123027 -91.972486 0.672058 131.326447 -21.233483 81.114597 
0.1509687500000000 -19.841883 44.625146 -0.154192 -106.479837 0.602739 102.988500 -19.636559 51.100238 
0.1721625000000000 -18.094705 13.448357 -0.189597 -120.892960 0.558275 74.534344 -17.527970 23.021338 
0.1933562500000000 -16.716958 -15.091184 -0.216087 -135.210412 0.474761 45.851080 -16.113950 -3.786562 
0.2145500000000000 -15.710762 -46.465914 -0.240113 -149.231691 0.403454 17.689091 -15.869273 -36.018375 
0.2357437500000000 -15.874477 -79.833769 -0.228198 -163.268261 0.376964 -10.846951 -16.734622 -68.725871 
0.2569375000000000 -16.188544 -108.393042 -0.226478 -177.659036 0.343396 -39.653640 -16.748945 -97.437881 
0.2781312500000000 -15.596411 -142.601418 -0.234873 167.386043 0.487222 -80.507239 -15.675688 -127.301929 
0.2993250000000000 -14.556072 -167.445866 -0.268554 152.155703 0.399765 -110.796050 -14.626172 -151.502284 
0.3205187500000000 -13.929653 163.690431 -0.288076 137.765586 0.346434 -139.876907 -14.831319 179.040418 
0.3417125000000000 -15.285660 134.294046 -0.269792 123.135775 0.354400 -168.881668 -16.292581 151.985570 
0.3629062500000000 -16.484016 107.050619 -0.292587 108.706019 0.329653 162.209730 -16.147136 116.891210 
0.3841000000000000 -16.170837 68.890208 -0.303510 94.458836 0.292536 133.375167 -15.764161 78.665856 
0.4052937500000000 -14.836242 33.901477 -0.320311 79.764282 0.247189 104.101369 -14.381194 57.595697 
0.4264875000000000 -12.580234 4.007023 -0.389892 65.470230 0.115437 75.405911 -12.230442 33.531958 
0.4476812500000000 -11.685688 -24.994586 -0.439792 51.451647 0.019219 46.706409 -11.777973 6.019479 
0.4688750000000000 -11.748116 -48.438761 -0.418213 37.238692 -0.055946 18.057635 -12.284321 -22.030470 
0.4900687500000000 -11.708137 -72.873156 -0.414564 22.632419 -0.140195 -10.887207 -12.878640 -49.022551 
0.5112625000000000 -11.432826 -99.651003 -0.501580 7.911086 -0.267470 -39.502427 -11.976229 -76.214216 
0.5324562500000000 -10.579375 -129.798749 -0.609462 -6.284683 -0.384460 -67.934207 -10.896658 -107.546036 
0.5536500000000000 -10.321596 -163.173792 -0.659253 -20.083995 -0.425191 -96.167016 -10.326138 -137.237314 
0.5748437500000000 -10.518592 166.045609 -0.657513 -33.964166 -0.435088 -124.573190 -10.158406 -168.928065 
0.5960375000000000 -10.419097 134.930247 -0.660440 -48.363797 -0.413254 -153.386566 -10.338470 159.541183 
0.6172312500000000 -9.757044 104.535715 -0.687975 -62.911855 -0.473209 177.415966 -9.866088 129.908396 
0.6384250000000000 -8.466190 75.469205 -0.790859 -77.158550 -0.544814 148.426402 -9.226438 101.699791 
0.6596187500000000 -7.735688 47.364065 -0.893030 -91.094960 -0.656152 119.678453 -8.441234 76.062388 
0.6808125000000000 -7.806351 21.942192 -0.898011 -104.470780 -0.695846 91.564944 -8.182737 45.463069 
0.7020062500000001 -8.564970 -3.820628 -0.776465 -118.562085 -0.586206 62.847673 -9.036177 14.791805 
0.7232000000000000 -9.241787 -30.095588 -0.775719 -133.708828 -0.649779 32.922833 -9.261977 -12.782773 
0.7443937500000000 -8.774186 -63.104260 -0.906994 -147.859446 -0.774364 4.241833 -8.946166 -43.046430 
0.7655875000000000 -8.369193 -98.247737 -0.904750 -161.642980 -0.793936 -24.509125 -8.640743 -69.941747 
0.7867812500000000 -8.075828 -126.323150 -0.932579 -176.130891 -0.870814 -53.292469 -8.272523 -97.924676 
0.8079750000000000 -7.890710 -153.961576 -0.961245 170.303275 -0.870583 -81.856504 -8.485873 -128.289490 
0.8291687500000000 -8.311555 178.151368 -0.865817 156.047513 -0.823303 -111.123496 -8.781639 -160.042139 
0.8503625000000000 -8.145806 148.665497 -0.920186 141.121604 -0.846672 -140.769721 -8.713482 171.310204 
0.8715562500000000 -7.616616 104.709987 -1.021341 125.869188 -0.783063 177.749157 -7.499421 141.473896 
0.8927500000000000 -7.358615 73.484993 -1.051983 110.939739 -0.859461 147.051472 -7.005235 113.052529 
0.9139437500000001 -7.316193 45.291370 -1.081704 96.396182 -0.890155 117.223493 -7.230606 86.254908 
0.9351375000000000 -7.658872 17.719809 -1.067094 81.820686 -0.932534 88.039289 -7.924749 55.809364 
0.9563312500000000 -7.717665 -13.659863 -1.095484 67.198866 -0.953634 58.618905 -8.533435 25.543662 
0.9775250000000000 -7.591130 -47.497022 -1.164256 52.818205 -1.085655 29.595958 -7.760600 -5.009718 
0.9987187500000000 -7.105739 -78.137156 -1.223682 38.920433 -1.098053 1.321563 -7.024908 -35.252682 
1.0199125000000000 -6.690711 -106.142567 -1.259331 24.821026 -1.127452 -27.673602 -6.631873 -60.911320 
1.0411062499999999 -6.626872 -132.336871 -1.326120 10.790208 -1.198339 -56.208612 -6.672676 -88.599416 
1.0623000000000000 -6.679142 -161.002558 -1.314361 -2.993653 -1.145522 -84.819839 -7.196730 -117.693270 
1.0834937499999999 -6.940026 168.998844 -1.275600 -17.405128 -1.171000 -114.100837 -7.229437 -149.288182 
1.1046875000000000 -6.624472 140.658107 -1.378130 -31.855722 -1.234149 -143.317945 -7.008800 178.561777 
1.1258812499999999 -6.145517 111.347492 -1.436552 -45.697307 -1.349532 -172.443555 -6.574976 150.062323 
1.1470750000000001 -6.108253 84.525083 -1.469778 -60.015459 -1.454342 158.894960 -6.431091 122.221069 
1.1682687500000000 -6.237573 55.834587 -1.528967 -73.718363 -1.533841 130.430902 -6.601691 94.778392 
1.1894625000000001 -6.770475 25.029560 -1.439094 -87.675738 -1.561317 101.895234 -6.663045 64.099299 
1.2106562500000000 -6.720527 -4.399428 -1.452512 -102.489129 -1.565278 72.626493 -6.730650 33.285895 
1.2318499999999999 -6.039607 -34.375852 -1.556183 -117.001886 -1.718185 43.512580 -6.255379 5.276397 
1.2530437500000000 -5.519726 -62.137915 -1.658865 -130.912356 -1.843202 15.294747 -5.945805 -22.597193 
1.2742374999999999 -5.281096 -90.067448 -1.732601 -144.372494 -1.874108 -12.802729 -5.943743 -48.649572 
1.2954312500000000 -5.739526 -119.440839 -1.645887 -158.036910 -1.864016 -41.141689 -6.007432 -76.620529 
1.3166249999999999 -6.160066 -149.120039 -1.647950 -172.842994 -1.792612 -70.400680 -6.122673 -105.732265 
1.3378187500000001 -6.031432 179.341719 -1.676862 173.109634 -1.875401 -99.440559 -5.865452 -134.863974 
1.3590125000000000 -5.602704 149.482066 -1.757737 158.744394 -1.947251 -128.126751 -5.763073 -163.027939 
1.3802062500000001 -5.151266 120.546474 -1.873349 145.237068 -2.037673 -156.569755 -5.755993 171.632436 
1.4014000000000000 -5.400337 91.335096 -1.770323 132.074536 -2.014561 175.676383 -5.993202 143.992236 
1.4225937500000001 -6.044091 62.556743 -1.686926 117.591608 -1.873133 146.381533 -6.362020 115.541850 
1.4437875000000000 -6.399834 32.160472 -1.675934 102.948362 -1.930504 116.922485 -6.298737 84.238208 
1.4649812499999999 -6.170084 2.160077 -1.696378 88.479980 -1.976840 88.120399 -6.288615 54.309924 
1.4861750000000000 -5.609888 -28.093483 -1.789528 74.587907 -2.050758 59.233699 -6.054077 28.699135 
1.5073687499999999 -5.648073 -56.715533 -1.768273 61.205829 -2.053964 31.391869 -6.036191 1.205232 
1.5285625000000000 -6.102121 -83.327279 -1.645918 47.089567 -1.881309 2.623956 -6.554212 -27.414054 
1.5497562499999999 -6.644597 -111.635338 -1.547206 32.394749 -1.844543 -27.201331 -6.924656 -58.890165 
1.5709500000000001 -6.753962 -142.136525 -1.624862 17.320191 -1.892322 -56.560781 -7.056123 -91.095345 
1.5921437500000000 -6.192164 -174.704659 -1.678516 3.306794 -1.951550 -85.628659 -6.657817 -120.017243 
1.6133375000000001 -5.945574 155.150035 -1.684930 -11.023914 -1.987108 -114.606581 -6.303871 -148.115442 
1.6345312500000000 -5.891573 129.437643 -1.744239 -25.089979 -2.023954 -143.598062 -6.299623 -176.592609 
1.6557249999999999 -6.196698 102.394109 -1.611603 -39.080278 -1.934411 -172.661179 -6.701843 151.931855 
1.6769187500000000 -6.654356 74.462299 -1.583868 -54.764054 -1.920738 157.365370 -7.009061 121.567582 
1.6981124999999999 -6.385659 42.803499 -1.742825 -69.427696 -2.131674 127.822448 -6.540135 91.929068 
1.7193062500000000 -5.931448 10.334407 -1.856066 -83.436253 -2.241365 99.320561 -6.154316 63.968589 
1.7404999999999999 -5.523714 -18.521634 -1.987543 -97.153647 -2.345083 70.888524 -5.730358 38.005357 
1.7616937500000001 -5.483646 -46.039137 -1.920205 -109.978077 -2.310754 43.320390 -5.784249 8.660006 
1.7828875000000000 -5.880830 -73.859621 -1.691686 -124.738953 -2.043288 13.795870 -6.334376 -18.879809 
1.8040812500000001 -6.071668 -104.246974 -1.781855 -140.425579 -2.152470 -16.947079 -6.157165 -45.388106 
1.8252750000000000 -5.930572 -136.937406 -2.040887 -154.342962 -2.415812 -45.651523 -5.920098 -73.589971 
1.8464687500000001 -5.535178 -168.206895 -2.092551 -166.710049 -2.462145 -72.814659 -5.828692 -100.951025 
1.8676625000000000 -5.543876 162.987808 -1.902941 -179.912928 -2.265366 -100.729515 -6.119168 -130.649053 
1.8888562499999999 -6.006035 137.400230 -1.719340 165.431846 -2.074844 -130.179122 -6.687942 -160.274037 
1.9100500000000000 -6.384871 109.835109 -1.640157 150.187011 -2.021107 -160.158853 -6.844031 169.819298 
1.9312437499999999 -6.686166 78.879246 -1.739588 135.202412 -2.144794 169.854707 -6.711286 141.624046 
1.9524375000000000 -6.437532 46.340119 -1.864938 121.780013 -2.274943 141.747195 -6.504854 114.175742 
1.9736312499999999 -6.392114 14.040670 -1.696329 108.498133 -2.112178 113.508081 -6.970798 86.384968 
1.9948250000000001 -6.855452 -13.439581 -1.528850 93.862338 -1.975226 84.023162 -7.625822 58.139765 
2.0160187500000002 -7.385794 -41.247143 -1.415515 79.230916 -1.843503 54.793313 -8.207016 25.822754 
2.0372124999999999 -8.148797 -71.346765 -1.315727 63.563240 -1.771903 24.262062 -8.386723 -2.772405 
2.0584062500000000 -7.982509 -102.090927 -1.469934 48.738293 -1.947938 -5.230288 -7.700264 -30.673035 
2.0796000000000001 -7.559031 -135.392619 -1.472457 35.328888 -1.918180 -33.199570 -7.972102 -59.244218 
2.1007937499999998 -7.856355 -165.112420 -1.265525 21.021970 -1.747914 -62.590527 -8.822161 -84.870475 
2.1219874999999999 -8.629029 167.172078 -1.165525 5.609911 -1.628971 -92.802154 -9.586823 -115.022778 
2.1431812500000000 -9.559490 139.162397 -1.142279 -9.971823 -1.660883 -123.188053 -9.745071 -147.368823 
2.1643750000000002 -9.316137 107.729481 -1.249836 -24.903328 -1.751514 -152.799704 -9.130149 -179.407208 
2.1855687499999998 -8.609741 72.649770 -1.279640 -39.183491 -1.778511 177.907339 -8.899856 154.172423 
2.2067625000000000 -8.354668 42.174595 -1.251100 -53.478658 -1.778461 149.032566 -8.811333 129.864847 
2.2279562500000001 -8.752509 14.662380 -1.194239 -68.117374 -1.677123 119.547580 -9.488583 101.153513 
2.2491500000000002 -9.754392 -10.642118 -1.145489 -83.329560 -1.678355 89.401796 -10.142274 69.067012 
2.2703437499999999 -9.892296 -40.092599 -1.177395 -98.333140 -1.715292 59.938309 -10.175681 33.874727 
2.2915375000000000 -9.565839 -75.567661 -1.202428 -112.992918 -1.752415 30.154336 -9.757670 6.347315 
2.3127312500000001 -9.047291 -107.187614 -1.264708 -127.632841 -1.828935 1.243299 -9.053703 -19.531078 
2.3339249999999998 -9.059755 -136.573843 -1.176906 -141.343006 -1.692443 -27.677793 -9.685618 -46.258628 
2.3551187499999999 -10.378082 -161.800649 -1.049730 -156.340232 -1.608329 -57.465545 -10.771083 -73.342425 
2.3763125000000000 -11.294722 172.339622 -1.037402 -171.372780 -1.564399 -86.973348 -12.021775 -108.741699 
2.3975062500000002 -12.109201 135.285356 -0.974335 173.916864 -1.498215 -116.880045 -12.912292 -140.427558 
2.4186999999999999 -11.778963 136.250105 -1.050277 -178.356043 -1.331885 -111.889978 -12.315869 -129.583757 
2.4398937500000000 -12.433435 99.350754 -0.906912 166.346481 -1.363691 -142.100616 -12.585195 -157.196425 
2.4610875000000001 -12.315936 65.386069 -0.915576 150.261868 -1.243171 -173.816216 -12.388750 177.822852 
2.4822812500000002 -13.350884 36.847135 -0.897868 135.379779 -1.243764 155.988549 -12.523970 155.591388 
2.5034749999999999 -15.008872 8.577978 -0.847230 120.389505 -1.204058 126.497112 -14.483352 123.485795 
2.5246687500000000 -18.068550 -35.234570 -0.756118 105.144362 -1.087095 96.539773 -19.247318 100.138132 
2.5458625000000001 -21.396757 -82.412992 -0.714228 89.726634 -1.064045 66.069820 -20.494950 90.319310 
2.5670562499999998 -20.932253 -122.567680 -0.713573 74.094238 -1.085326 35.962841 -19.273074 74.230760 
2.5882499999999999 -21.447551 -171.685132 -0.740149 58.795908 -1.128723 5.772213 -17.467168 53.749937 
2.6094437500000001 -22.651548 133.675485 -0.729747 43.496383 -1.132189 -24.329380 -18.900780 39.380465 
2.6306375000000002 -20.384777 74.025105 -0.741691 28.046274 -1.138087 -54.555473 -18.870403 42.139559 
2.6518312499999999 -19.327388 30.246681 -0.743529 12.585004 -1.170189 -84.712648 -18.354510 25.583157 
2.6730250000000000 -19.392828 3.969304 -0.780467 -2.479915 -1.210240 -114.848842 -17.570978 -4.330278 
2.6942187500000001 -19.743997 -35.590965 -0.795026 -17.733869 -1.228128 -144.906007 -17.043481 -46.745368 
2.7154124999999998 -20.294669 -79.566326 -0.767367 -33.372751 -1.228780 -175.091331 -17.376688 -70.434657 
2.7366062499999999 -17.696924 -113.367000 -0.770569 -49.125761 -1.262849 154.327564 -16.757483 -82.278476 
2.7578000000000000 -15.443462 -147.748651 -0.867368 -65.011238 -1.340702 123.722885 -15.731221 -92.618840 
2.7789937500000002 -15.198670 179.414000 -0.941443 -80.119918 -1.482631 93.870915 -14.489632 -125.203567 
2.8001874999999998 -16.175601 141.047244 -0.866278 -95.640618 -1.403190 63.593943 -15.636414 -171.207792 
2.8213812500000000 -16.515974 109.408697 -0.839122 -112.021351 -1.404347 32.390795 -15.543537 163.110249 
2.8425750000000001 -13.080631 79.473933 -0.958733 -128.507950 -1.538006 1.335960 -12.875113 142.132285 
2.8637687500000002 -10.691722 44.213528 -1.166672 -144.184505 -1.735472 -29.280871 -10.910453 121.590607 
2.8849624999999999 -10.116443 13.126926 -1.302171 -159.391414 -1.899436 -58.875031 -10.013937 93.782568 
2.9061562500000000 -10.471644 -19.787352 -1.288571 -174.434101 -1.835146 -88.857347 -10.755048 61.364263 
2.9273500000000001 -10.890830 -51.588479 -1.227157 168.822774 -1.853404 -120.481565 -10.705264 28.028220 
2.9485437499999998 -9.207310 -81.862053 -1.486647 151.244476 -2.048468 -152.141973 -9.276129 -5.546081 
2.9697374999999999 -7.369029 -114.480465 -1.875185 135.908357 -2.433399 176.675392 -7.599640 -33.884338 
2.9909312500000000 -6.452160 -143.564876 -2.109377 120.937763 -2.731435 147.717433 -6.697371 -61.872582 
3.0121250000000002 -6.380607 -173.162081 -2.219616 106.780552 -2.753518 118.184330 -6.631867 -90.223247 
3.0333187499999998 -6.792656 156.801663 -2.077708 91.308315 -2.767293 88.044705 -6.671043 -123.531700 
3.0545125000000000 -6.371110 124.816628 -2.244024 74.131109 -2.794085 56.349401 -6.541901 -156.058062 
3.0757062500000001 -5.456785 91.193012 -2.673546 58.024877 -3.321511 24.893645 -5.570335 175.782615 
3.0969000000000002 -4.690221 60.786571 -3.065086 44.370053 -3.723827 -2.551122 -4.921191 148.508062 
3.1180937499999999 -4.509173 31.074624 -3.018074 31.350018 -3.594723 -31.126140 -4.879445 123.213361 
3.1392875000000000 -4.970667 2.318597 -2.832030 15.534092 -3.526458 -61.309116 -5.046846 93.033824 
3.1604812500000001 -5.052065 -28.519715 -2.884230 -1.087036 -3.441391 -92.534475 -5.278891 60.369224 
3.1816749999999998 -4.755156 -62.154592 -3.030130 -17.620601 -3.713805 -124.598150 -4.830361 29.252443 
3.2028687499999999 -4.181668 -94.566471 -3.436007 -33.232682 -4.070460 -154.252102 -4.370617 1.686295 
3.2240625000000001 -3.917729 -125.839878 -3.571958 -45.943900 -4.182310 177.403993 -4.159486 -22.741232 
3.2452562500000002 -4.272021 -155.592727 -3.283747 -60.825183 -4.004962 148.449895 -4.380636 -50.207407 
3.2664499999999999 -4.602443 174.227933 -3.176605 -77.450689 -3.747448 116.703489 -4.785225 -81.631380 
3.2876437500000000 -4.622818 141.519203 -3.160831 -95.134518 -3.875213 83.858309 -4.695306 -115.286773 
3.3088375000000001 -4.212176 108.434045 -3.585110 -112.368067 -4.248222 52.550937 -4.355036 -145.286224 
3.3300312500000002 -3.931400 75.975757 -3.956732 -125.486068 -4.620756 23.845831 -3.982708 -171.558942 
3.3512249999999999 -4.037402 44.920299 -3.614882 -139.560018 -4.333469 -4.650052 -4.164976 161.306038 
3.3724187500000000 -4.290646 14.715271 -3.424917 -157.271403 -4.048353 -37.416093 -4.569686 130.991906 
3.3936125000000001 -4.413320 -16.018049 -3.588010 -174.820884 -4.358207 -70.072652 -4.687627 94.819936 
3.4148062499999998 -4.112875 -46.519845 -3.923967 169.133463 -4.598720 -100.301397 -4.481194 61.325488 
3.4359999999999999 -3.902285 -77.905435 -4.050515 154.950941 -4.778095 -129.962354 -3.990943 33.151060 
3.4571937500000001 -4.080971 -108.534022 -3.903367 139.660888 -4.640951 -159.387043 -4.085736 6.388712 
3.4783875000000002 -4.361730 -140.838457 -3.706650 123.572663 -4.391862 169.306968 -4.555878 -21.701019 
3.4995812499999999 -4.708998 -174.410287 -3.493856 105.633685 -4.260917 136.793442 -5.026960 -55.776609 
3.5207750000000000 -4.566563 153.075126 -3.629897 87.920182 -4.310200 103.860012 -4.947724 -90.111262 
3.5419687500000001 -4.421170 121.198721 -3.682816 71.762759 -4.454784 72.928183 -4.490565 -120.908437 
3.5631624999999998 -4.765459 90.226989 -3.543837 56.005821 -4.278845 42.573121 -4.690516 -146.980278 
3.5843562499999999 -5.681379 55.353342 -3.108576 39.722641 -3.847303 11.061085 -5.438756 -172.320849 
3.6055500000000000 -7.188799 16.519911 -2.561094 19.756810 -3.345189 -23.397013 -6.774269 158.609380 
3.6267437500000002 -7.879509 -23.498046 -2.471544 -1.645667 -3.214571 -59.398780 -7.391281 127.518528 
3.6479374999999998 -8.502155 -65.251017 -2.440335 -21.343432 -3.190675 -94.245345 -7.471702 96.319650 
3.6691312500000000 -10.384044 -108.657000 -2.287371 -42.387869 -3.070469 -130.270723 -7.802268 76.402656 
3.6903250000000001 -14.390364 -174.952034 -2.243503 -64.644886 -2.963199 -167.316738 -8.375699 64.580529 
3.7115187500000002 -14.457528 83.880164 -2.309006 -87.964929 -3.080590 153.962284 -8.334235 57.881159 
3.7327124999999999 -10.677053 22.295932 -2.682609 -112.678297 -3.435123 115.166708 -7.590421 38.709533 
3.7539062500000000 -8.103742 -27.401942 -3.307641 -136.971754 -4.051186 75.466141 -6.539169 10.346348 
3.7751000000000001 -6.182905 -76.259730 -4.225065 -161.363596 -5.039579 36.773063 -4.989964 -22.171674 
3.7962937499999998 -4.239621 -120.503536 -5.607689 176.255801 -6.327633 -0.780751 -3.463143 -50.784828 
3.8174874999999999 -2.919863 -159.213383 -6.791251 156.510127 -7.584402 -35.183584 -2.519993 -77.751809 
3.8386812500000000 -2.413224 165.800826 -7.915744 135.725881 -8.642972 -70.785057 -2.271904 -106.107937 
3.8598750000000002 -2.406986 130.876031 -9.298129 116.612944 -10.087080 -105.346225 -2.431723 -139.086551 
3.8810687499999998 -2.292083 95.330255 -10.481219 98.340038 -11.268526 -137.952504 -2.397172 -174.435688 
3.9022625000000000 -1.727927 59.417850 -11.648517 79.747466 -12.411263 -171.784744 -1.822332 152.740487 
3.9234562500000001 -1.334867 24.996444 -12.912471 61.339856 -13.740958 155.072773 -1.427619 123.253943 
3.9446500000000002 -1.380299 -6.348564 -14.416160 43.971197 -15.214362 122.969585 -1.483183 96.530987 
3.9658437499999999 -1.655987 -36.187754 -15.640478 29.817756 -16.435967 93.717637 -1.788133 66.732019 
3.9870375000000000 -1.699326 -67.632359 -16.414301 13.144451 -17.252064 62.104132 -2.018552 31.725721 
4.0082312499999997 -1.399420 -102.102792 -17.460141 -5.709963 -18.350876 28.652873 -1.767333 -4.681421 
4.0294249999999998 -1.220723 -136.404608 -18.937881 -24.113895 -19.782583 -4.814624 -1.419254 -36.096550 
