!
! C:\Users\Aljaz\Desktop\sito_5GHz_5stipnje.S2P
!
! Touchstone 1.1 file saved by VNA.EXE V1.65 (www.ke5fx.com/gpib/readme.htm)
! 27. 03. 2024 12:21:21
!
!    Source: HP8510C.07.14: Aug 26  1998 
!  Min freq: 4.500000E+007 Hz
!  Max freq: 1.700000E+010 Hz
!    Points: 801
!    Params: S11 S21 S12 S22
!
!!!!!
# GHZ S DB R 50
0.0450000000000000 -23.430211 -153.031621 -0.062389 -31.162491 1.197095 -111.270698 -23.953286 -134.636988 
0.0661937500000000 -20.976261 -178.644981 -0.081658 -46.431688 1.091319 -141.433875 -21.393246 -154.255454 
0.0873875000000000 -18.891111 149.496807 -0.138441 -61.061012 0.978096 -169.959260 -18.959426 172.382935 
0.1085812500000000 -18.773950 104.628220 -0.166948 -75.104293 0.869649 162.299450 -19.601839 128.031173 
0.1297750000000000 -20.190784 66.657953 -0.141151 -89.244677 0.815031 134.295321 -20.864765 91.311169 
0.1509687500000000 -19.478149 39.973966 -0.168810 -103.387625 0.746095 106.149935 -19.431568 61.019963 
0.1721625000000000 -17.721265 9.690079 -0.197594 -117.445039 0.689440 77.893739 -17.274260 32.219859 
0.1933562500000000 -16.285558 -18.507972 -0.242502 -131.500200 0.592268 49.759036 -15.785253 4.984201 
0.2145500000000000 -15.258515 -48.546047 -0.275925 -145.225048 0.522646 21.766860 -15.462804 -26.835206 
0.2357437500000000 -15.337305 -81.091396 -0.255705 -158.929261 0.477673 -6.381492 -16.292469 -58.736363 
0.2569375000000000 -15.609249 -108.620045 -0.241968 -172.923376 0.459727 -34.956428 -16.301122 -88.415049 
0.2781312500000000 -15.031707 -139.621089 -0.255802 172.697857 0.655256 -75.002574 -15.253642 -120.129453 
0.2993250000000000 -14.087961 -163.079016 -0.294722 157.858660 0.557518 -104.896131 -14.185609 -145.856788 
0.3205187500000000 -13.305975 170.291623 -0.328664 143.681436 0.497617 -133.613981 -14.186391 -175.882337 
0.3417125000000000 -14.392977 142.071937 -0.298709 129.604679 0.507337 -162.265012 -15.539475 155.700202 
0.3629062500000000 -15.580114 118.191846 -0.317543 115.302093 0.473368 169.038173 -15.550214 120.506980 
0.3841000000000000 -15.546261 83.715321 -0.331809 101.414674 0.435386 140.533205 -15.133557 80.427285 
0.4052937500000000 -14.562674 49.460579 -0.339415 87.140593 0.390528 111.762919 -14.079596 56.861840 
0.4264875000000000 -12.458999 18.964658 -0.406758 73.128583 0.247400 83.148585 -12.049109 33.793453 
0.4476812500000000 -11.438118 -10.372547 -0.457280 59.290370 0.150361 54.893239 -11.474646 6.108638 
0.4688750000000000 -11.354527 -33.457951 -0.455562 45.556378 0.068664 26.558070 -11.884689 -22.478131 
0.4900687500000000 -11.221522 -56.705323 -0.437270 31.222976 -0.015858 -1.748489 -12.583441 -50.910297 
0.5112625000000000 -10.894834 -82.438978 -0.513279 16.866789 -0.126918 -30.504584 -11.992058 -76.982187 
0.5324562500000000 -10.123626 -112.109695 -0.629726 3.022567 -0.264815 -58.529842 -10.856417 -107.040588 
0.5536500000000000 -9.895881 -145.037739 -0.686558 -10.681611 -0.317906 -86.457381 -10.224709 -135.771387 
0.5748437500000000 -10.174413 -175.032095 -0.689534 -24.220238 -0.339373 -114.544020 -9.900024 -166.677010 
0.5960375000000000 -10.212559 154.164779 -0.697410 -38.157651 -0.314211 -142.921978 -10.069992 161.617936 
0.6172312500000000 -9.737899 123.310630 -0.713525 -52.324464 -0.356901 -171.872729 -9.727398 132.447245 
0.6384250000000000 -8.504392 93.159823 -0.801838 -66.225792 -0.428379 159.485021 -9.126062 104.440076 
0.6596187500000000 -7.608955 64.116586 -0.908976 -80.013274 -0.536321 130.833896 -8.417707 79.653101 
0.6808125000000000 -7.516194 38.696788 -0.954873 -92.977705 -0.635790 103.129565 -7.938579 50.118210 
0.7020062500000001 -8.096464 14.143962 -0.844195 -106.579085 -0.527359 74.871822 -8.582258 18.646588 
0.7232000000000000 -8.733712 -10.173405 -0.823792 -121.238731 -0.560101 45.390357 -8.999630 -9.752355 
0.7443937500000000 -8.449832 -41.298188 -0.945513 -135.221951 -0.691748 16.904912 -8.698719 -39.611769 
0.7655875000000000 -8.216893 -75.814676 -0.944237 -148.704609 -0.702902 -11.356781 -8.473655 -67.330361 
0.7867812500000000 -7.919632 -103.761311 -0.979497 -162.870502 -0.766905 -40.072614 -8.099503 -95.051235 
0.8079750000000000 -7.615355 -130.730965 -1.034667 -176.047566 -0.797699 -68.148759 -8.160892 -125.947277 
0.8291687500000000 -7.950384 -156.464519 -0.952958 170.215604 -0.761447 -96.920703 -8.379455 -158.693192 
0.8503625000000000 -7.838286 176.358996 -0.966147 155.809322 -0.762700 -125.984847 -8.434906 170.349787 
0.8715562500000000 -7.396218 136.435675 -1.021523 141.125184 -0.613518 -166.935481 -7.485212 140.453865 
0.8927500000000000 -7.161836 105.240074 -1.079134 126.337708 -0.705072 162.659551 -6.893260 112.194522 
0.9139437500000001 -6.942794 77.987261 -1.100742 112.188400 -0.740809 133.058010 -7.122475 84.839899 
0.9351375000000000 -7.139793 52.680983 -1.101838 98.102030 -0.809023 104.444936 -7.727180 53.635758 
0.9563312500000000 -7.299599 24.829763 -1.118201 84.000885 -0.790361 75.746843 -8.437835 21.212121 
0.9775250000000000 -7.508291 -7.558985 -1.150727 69.929234 -0.875837 46.772650 -7.940560 -8.259965 
0.9987187500000000 -7.290968 -38.927843 -1.192462 56.082397 -0.920196 18.725099 -7.080426 -37.850556 
1.0199125000000000 -6.831747 -68.210358 -1.250754 42.437509 -0.921363 -9.993226 -6.767778 -63.448587 
1.0411062499999999 -6.578580 -94.486935 -1.314892 28.425862 -1.025261 -38.237901 -6.700081 -90.264710 
1.0623000000000000 -6.541330 -121.827285 -1.330392 15.074768 -0.992473 -66.389590 -7.204598 -120.038916 
1.0834937499999999 -6.920158 -150.480507 -1.262285 1.160724 -0.986367 -95.514709 -7.303542 -150.995006 
1.1046875000000000 -6.783787 -178.986209 -1.354694 -13.048844 -1.064240 -124.275521 -7.025038 177.292171 
1.1258812499999999 -6.310281 150.867955 -1.410862 -26.419712 -1.149583 -152.951141 -6.677972 149.196992 
1.1470750000000001 -6.104061 123.466295 -1.439308 -40.328210 -1.254359 178.502876 -6.484386 121.916229 
1.1682687500000000 -6.073892 96.201279 -1.490710 -53.907760 -1.338161 150.476243 -6.679828 94.721348 
1.1894625000000001 -6.680231 67.466773 -1.443787 -67.400302 -1.387862 122.120633 -6.694484 64.587669 
1.2106562500000000 -6.977809 39.269903 -1.432288 -81.879520 -1.378428 93.576210 -6.749749 32.658909 
1.2318499999999999 -6.482262 8.304819 -1.513874 -95.940697 -1.482938 64.717849 -6.451806 4.657745 
1.2530437500000000 -5.874093 -21.042823 -1.593033 -109.722351 -1.659448 36.691251 -6.053673 -22.653759 
1.2742374999999999 -5.343291 -48.641541 -1.696899 -122.912382 -1.660206 8.832429 -6.079289 -49.048903 
1.2954312500000000 -5.573769 -76.033843 -1.598214 -136.064159 -1.645525 -19.268307 -6.121572 -76.834738 
1.3166249999999999 -6.033665 -102.733945 -1.579843 -150.611510 -1.581513 -47.881811 -6.264779 -107.350381 
1.3378187500000001 -6.187073 -132.559281 -1.618187 -164.374061 -1.635509 -76.894002 -6.111874 -136.339538 
1.3590125000000000 -5.956627 -162.700748 -1.680369 -178.349060 -1.732597 -105.145228 -5.929856 -164.987554 
1.3802062500000001 -5.383856 167.892078 -1.797724 168.457252 -1.796263 -133.407889 -5.995342 168.912320 
1.4014000000000000 -5.366259 139.540997 -1.705052 155.494590 -1.807939 -161.021703 -6.123706 141.050593 
1.4225937500000001 -5.825642 113.989745 -1.622571 141.507407 -1.671817 170.550223 -6.529038 110.572965 
1.4437875000000000 -6.284546 87.302502 -1.604573 127.134497 -1.710199 141.202538 -6.503188 79.469485 
1.4649812499999999 -6.405740 58.589241 -1.656955 113.154416 -1.793001 112.924256 -6.379826 48.339374 
1.4861750000000000 -5.975819 27.367138 -1.702640 99.712365 -1.781067 84.431868 -6.341359 22.405493 
1.5073687499999999 -5.812731 -2.240387 -1.690394 86.175753 -1.832005 56.255441 -6.239652 -4.203412 
1.5285625000000000 -5.986192 -27.185047 -1.633162 72.306456 -1.715151 28.311576 -6.647316 -34.304100 
1.5497562499999999 -6.380765 -51.667519 -1.529596 58.384301 -1.667150 -0.900405 -7.035151 -66.325843 
1.5709500000000001 -6.732483 -78.288453 -1.578201 44.117732 -1.716922 -29.880984 -7.126613 -99.398009 
1.5921437500000000 -6.700175 -110.922531 -1.603801 30.490177 -1.698404 -58.471058 -6.915618 -127.988374 
1.6133375000000001 -6.640812 -143.751710 -1.539691 16.411100 -1.722659 -87.476921 -6.648693 -154.755654 
1.6345312500000000 -6.350475 -171.872466 -1.630281 2.219787 -1.738662 -116.367310 -6.657236 178.133223 
1.6557249999999999 -6.368021 161.980570 -1.565498 -11.238478 -1.753766 -144.886677 -6.820303 146.638005 
1.6769187500000000 -6.675673 137.751552 -1.499622 -25.769520 -1.705309 -173.853666 -7.247167 114.141800 
1.6981124999999999 -6.707531 108.552242 -1.582425 -40.211718 -1.795793 156.855334 -7.102988 85.962214 
1.7193062500000000 -6.739795 74.649761 -1.634079 -54.076898 -1.886534 128.524417 -6.703094 59.091382 
1.7404999999999999 -6.381833 42.169716 -1.712921 -67.970400 -1.921907 99.932154 -6.482126 35.118614 
1.7616937500000001 -6.129187 12.399945 -1.760532 -80.949222 -2.018707 72.004548 -6.186745 7.433406 
1.7828875000000000 -6.335279 -13.232841 -1.604053 -94.406287 -1.830182 44.003213 -6.632612 -23.784177 
1.8040812500000001 -6.408663 -39.378560 -1.529341 -109.486069 -1.724901 13.814349 -7.065781 -50.811058 
1.8252750000000000 -6.464993 -71.173385 -1.662693 -123.856265 -1.915249 -15.400424 -6.907853 -76.678637 
1.8464687500000001 -6.395059 -105.272088 -1.811405 -137.126737 -2.007058 -43.256561 -6.667349 -102.618916 
1.8676625000000000 -6.364821 -136.350820 -1.712364 -150.143655 -1.960084 -71.109113 -6.595134 -132.574025 
1.8888562499999999 -6.490074 -160.861158 -1.620282 -163.951858 -1.840895 -99.580291 -7.016826 -165.363043 
1.9100500000000000 -6.478273 175.860415 -1.541566 -178.155892 -1.767688 -128.919207 -7.261100 162.734888 
1.9312437499999999 -6.662203 149.490839 -1.535932 166.932498 -1.827043 -158.257093 -7.339286 133.349123 
1.9524375000000000 -6.734430 118.452596 -1.704022 153.370250 -1.952142 173.195395 -7.127679 107.576307 
1.9736312499999999 -6.958658 85.681226 -1.600932 140.296992 -1.908094 145.117363 -7.181719 78.427453 
1.9948250000000001 -7.197956 58.944897 -1.505130 126.120473 -1.795617 116.366971 -7.824719 47.452402 
2.0160187500000002 -7.275435 34.486873 -1.444515 112.219746 -1.743389 87.575711 -8.030045 13.222221 
2.0372124999999999 -7.802806 10.727666 -1.297871 97.857612 -1.636799 58.456947 -8.325659 -20.524825 
2.0584062500000000 -7.875176 -16.262362 -1.371360 83.023052 -1.680021 28.865638 -8.291324 -45.492995 
2.0796000000000001 -8.054571 -50.667525 -1.418025 69.478169 -1.776296 0.630732 -8.032349 -72.512377 
2.1007937499999998 -8.485673 -81.351302 -1.302290 56.089081 -1.617794 -27.646601 -8.778016 -102.583252 
2.1219874999999999 -8.701416 -106.593899 -1.139249 41.436856 -1.495509 -57.180411 -9.641967 -135.645345 
2.1431812500000000 -9.128475 -129.181200 -1.093873 26.389441 -1.466321 -86.882978 -10.098424 -169.690899 
2.1643750000000002 -9.335359 -155.948589 -1.168332 12.019598 -1.529295 -116.293694 -9.687812 162.040736 
2.1855687499999998 -9.814846 167.893905 -1.159102 -2.054539 -1.527202 -144.894411 -9.545577 136.005611 
2.2067625000000000 -10.133546 131.579440 -1.097367 -16.123627 -1.462994 -173.963049 -10.036422 113.817593 
2.2279562500000001 -10.126284 100.046172 -1.018651 -30.633313 -1.413031 156.725229 -10.688046 86.250622 
2.2491500000000002 -10.444537 76.397076 -0.997854 -45.507617 -1.400056 127.217496 -11.567581 53.905676 
2.2703437499999999 -10.436596 51.493424 -1.046694 -60.022699 -1.449660 97.792617 -11.258815 20.942054 
2.2915375000000000 -10.986896 17.086102 -1.017004 -74.249552 -1.443435 68.692406 -11.063430 -7.880426 
2.3127312500000001 -11.161269 -20.306018 -1.046358 -88.930910 -1.460208 39.382849 -10.756408 -26.976474 
2.3339249999999998 -10.811198 -57.239787 -1.021126 -102.849421 -1.441298 10.679629 -10.715562 -51.655023 
2.3551187499999999 -11.176417 -82.992781 -0.963206 -117.430892 -1.373316 -18.776909 -11.930874 -80.103125 
2.3763125000000000 -11.104655 -103.257231 -0.979891 -132.042355 -1.406496 -48.083384 -12.383262 -114.810338 
2.3975062500000002 -11.828171 -131.767438 -0.984079 -145.999804 -1.378618 -76.925048 -12.581565 -153.489867 
2.4186999999999999 -11.444491 -134.769134 -1.015892 -141.680607 -1.154277 -75.133545 -12.152262 -142.420595 
2.4398937500000000 -12.804249 -165.339126 -0.925818 -155.988135 -1.174231 -104.506179 -12.420993 -175.069199 
2.4610875000000001 -13.008618 158.284972 -0.897591 -171.391965 -1.055103 -135.597536 -12.482068 158.215318 
2.4822812500000002 -13.098627 128.133930 -0.871777 173.632695 -1.020968 -165.562138 -13.318249 137.831225 
2.5034749999999999 -13.045217 104.216657 -0.895539 159.034441 -1.055787 165.139556 -13.488367 107.996005 
2.5246687500000000 -14.678707 80.646349 -0.860730 144.756335 -1.016521 136.192622 -14.797280 61.342401 
2.5458625000000001 -16.737796 66.506104 -0.785436 130.105531 -0.949007 106.784243 -16.621586 19.460908 
2.5670562499999998 -18.050897 39.059635 -0.733199 115.344005 -0.909823 77.191517 -18.419697 -11.334236 
2.5882499999999999 -20.593900 10.765578 -0.706036 100.447342 -0.908477 47.376857 -22.331581 -26.781105 
2.6094437500000001 -22.141342 -4.302610 -0.698843 85.460456 -0.919409 17.804282 -25.200747 -45.632846 
2.6306375000000002 -24.023588 2.699877 -0.708002 70.542179 -0.924051 -12.039201 -29.630426 -145.427173 
2.6518312499999999 -21.484338 6.822692 -0.719781 55.465355 -0.942914 -41.752667 -25.018993 138.276691 
2.6730250000000000 -21.998028 -3.253380 -0.727278 40.703374 -0.984088 -71.284524 -22.802591 92.629558 
2.6942187500000001 -21.611372 -15.643967 -0.748144 25.900236 -1.006208 -100.891012 -22.803122 19.955513 
2.7154124999999998 -22.348613 -47.405799 -0.741943 11.103761 -1.015496 -130.417323 -21.609368 -37.386550 
2.7366062499999999 -21.021644 -64.590562 -0.737135 -3.819136 -1.047670 -160.331052 -19.677945 -63.048775 
2.7578000000000000 -17.344551 -88.141784 -0.778015 -19.199975 -1.075163 169.663472 -19.826415 -76.421022 
2.7789937500000002 -15.730525 -112.126618 -0.852304 -34.195607 -1.191063 139.682148 -17.521261 -95.024260 
2.8001874999999998 -16.186035 -135.513085 -0.853349 -48.887753 -1.225842 110.482514 -16.270577 -151.166748 
2.8213812500000000 -17.851072 -148.872930 -0.832739 -64.135532 -1.208115 80.426676 -15.838738 156.776173 
2.8425750000000001 -15.711102 -173.691030 -0.861264 -79.470132 -1.265148 50.352666 -14.664492 130.469963 
2.8637687500000002 -13.462118 141.920390 -0.917303 -94.788013 -1.321636 20.422129 -14.013065 114.023755 
2.8849624999999999 -12.076689 106.724123 -1.014284 -109.769888 -1.427577 -9.429799 -13.081994 98.650548 
2.9061562500000000 -11.918608 78.314752 -1.070031 -124.586958 -1.468505 -38.829905 -12.879449 63.850039 
2.9273500000000001 -13.056340 58.667519 -1.004294 -139.966738 -1.429853 -68.906398 -13.319192 22.038021 
2.9485437499999998 -12.320921 34.570550 -1.081281 -156.004134 -1.486325 -99.669031 -12.358466 -14.016884 
2.9697374999999999 -11.105546 -7.313912 -1.242820 -171.466739 -1.610180 -130.297905 -11.205281 -37.272002 
2.9909312500000000 -9.564645 -45.927849 -1.368278 173.161615 -1.806552 -160.511839 -9.815126 -56.896944 
3.0121250000000002 -8.482675 -78.763827 -1.484823 158.284497 -1.903119 170.029851 -9.348164 -83.481652 
3.0333187499999998 -8.666285 -104.010363 -1.512556 143.082235 -1.970778 139.971955 -9.030671 -116.442305 
3.0545125000000000 -8.503756 -127.394917 -1.606176 127.640293 -2.040407 109.891851 -8.547644 -155.570370 
3.0757062500000001 -7.887407 -160.619012 -1.752459 111.890797 -2.184994 79.095790 -8.187489 175.689759 
3.0969000000000002 -7.058234 161.891559 -2.055100 96.513641 -2.546536 49.362090 -7.022522 153.148862 
3.1180937499999999 -6.414900 127.655609 -2.188360 82.938882 -2.608214 20.969713 -6.556850 126.527311 
3.1392875000000000 -6.284579 101.598737 -2.128915 67.888674 -2.627069 -9.378305 -6.570717 96.455395 
3.1604812500000001 -6.065519 77.977911 -2.240380 52.003940 -2.721359 -39.200715 -6.449650 59.456214 
3.1816749999999998 -5.964876 50.657785 -2.371810 37.008669 -2.811444 -70.047040 -6.138765 25.306967 
3.2028687499999999 -5.539079 18.994165 -2.597548 21.669171 -3.097441 -99.629032 -5.582727 -2.554548 
3.2240625000000001 -5.184519 -15.599431 -2.762775 7.917674 -3.158342 -128.576532 -5.354761 -27.437824 
3.2452562500000002 -5.224608 -44.574697 -2.642826 -6.570803 -3.182271 -157.898369 -5.314980 -55.425056 
3.2664499999999999 -5.147949 -68.803540 -2.673636 -22.198088 -3.117525 172.434967 -5.527114 -90.826007 
3.2876437500000000 -5.124423 -93.332754 -2.692239 -37.456816 -3.168539 141.302044 -5.535716 -127.096435 
3.3088375000000001 -4.817218 -122.144161 -2.802131 -53.291369 -3.365572 111.550750 -5.328616 -157.907755 
3.3300312500000002 -4.781566 -157.375935 -2.980416 -67.749212 -3.404854 81.653616 -5.223508 177.762948 
3.3512249999999999 -5.198851 170.959236 -2.847294 -82.200407 -3.429123 52.333942 -5.098046 150.989992 
3.3724187500000000 -5.269704 144.475745 -2.721349 -98.070567 -3.176083 22.014366 -5.658985 116.029486 
3.3936125000000001 -5.152199 117.247868 -2.697540 -114.770475 -3.251429 -10.355556 -6.066438 80.786490 
3.4148062499999998 -4.978493 86.654490 -2.890373 -131.033812 -3.484516 -40.422841 -5.611946 48.532705 
3.4359999999999999 -5.006529 52.895473 -3.000656 -145.510432 -3.515522 -70.364865 -5.222309 22.239765 
3.4571937500000001 -5.103037 21.017857 -2.936086 -160.954089 -3.575431 -100.182108 -5.142918 -3.409519 
3.4783875000000002 -5.259419 -8.780263 -2.903451 -176.323871 -3.387061 -130.332954 -5.717090 -33.930305 
3.4995812499999999 -5.699392 -36.765761 -2.704557 167.144412 -3.298695 -162.218227 -6.230021 -69.257373 
3.5207750000000000 -5.876391 -67.296395 -2.725886 150.032793 -3.282919 166.455142 -6.177596 -104.697797 
3.5419687500000001 -5.990682 -103.270848 -2.746660 133.688681 -3.297192 134.468660 -5.854975 -132.335195 
3.5631624999999998 -5.956599 -138.326681 -2.752404 117.280030 -3.365816 104.006252 -5.723493 -157.341009 
3.5843562499999999 -6.162992 -170.498816 -2.653420 101.882426 -3.170533 73.225240 -6.312158 175.238913 
3.6055500000000000 -7.030381 163.762428 -2.331081 84.700809 -2.999485 41.288153 -7.222341 139.058506 
3.6267437500000002 -7.670158 137.087448 -2.224981 66.249676 -2.777612 8.631950 -8.228550 99.476411 
3.6479374999999998 -8.875583 101.039843 -2.062251 48.116607 -2.671683 -24.985429 -8.434144 69.794417 
3.6691312500000000 -10.176366 61.631592 -1.917584 29.371648 -2.550818 -58.310601 -8.991342 45.339420 
3.6903250000000001 -12.024292 22.616766 -1.778135 10.307918 -2.344608 -92.666941 -11.095994 27.196263 
3.7115187500000002 -16.442000 4.499969 -1.586601 -10.375059 -2.204839 -128.280012 -15.684905 6.809297 
3.7327124999999999 -20.458881 22.443679 -1.586502 -32.184486 -2.180576 -164.704472 -23.753093 24.535633 
3.7539062500000000 -17.337100 58.467948 -1.757996 -54.644242 -2.322560 158.101018 -19.329244 35.475351 
3.7751000000000001 -12.503344 44.071526 -2.077152 -77.813262 -2.699278 120.141719 -12.961109 3.836194 
3.7962937499999998 -9.065308 12.148849 -2.725658 -101.130649 -3.312012 82.306550 -8.497333 -28.962901 
3.8174874999999999 -6.523611 -29.368450 -3.607029 -122.619690 -4.209136 45.115416 -5.719313 -55.753910 
3.8386812500000000 -4.655109 -65.988363 -4.442840 -144.332823 -5.076956 9.361753 -4.389797 -86.095691 
3.8598750000000002 -3.220497 -98.569345 -5.507332 -165.863822 -6.033504 -28.083710 -4.128111 -120.624677 
3.8810687499999998 -2.679391 -129.665072 -6.739423 173.610511 -7.461582 -63.185710 -3.670105 -159.556676 
3.9022625000000000 -2.544808 -160.423586 -8.113081 155.026117 -8.640850 -96.020879 -2.736159 163.426977 
3.9234562500000001 -2.234098 167.130982 -9.199098 138.117733 -9.900003 -129.120565 -2.014445 131.296063 
3.9446500000000002 -1.676345 133.599236 -10.230244 120.137504 -10.876774 -160.482770 -1.892754 102.741530 
3.9658437499999999 -1.227889 100.931927 -11.332576 102.474981 -11.928218 165.599571 -2.122940 72.403836 
3.9870375000000000 -1.300263 71.326142 -12.502250 84.293084 -13.283563 133.492014 -2.284033 36.485061 
4.0082312499999997 -1.495750 44.165725 -13.888481 67.951980 -14.452620 101.775255 -1.980943 -1.300405 
