# GHz S RI R 50

1.000000000000000e-03  3.6960411977068994e-04 -7.3825010270241881e-04  9.9961640129961249e-01 -2.2460146948472762e-03  9.9961640129958607e-01 -2.2460146948166640e-03  3.6956667378842386e-04 -7.3806999115035303e-04
4.368717948717949e-01 -2.3236143707645385e-01 -1.6999129229338480e-01  5.5723125805358298e-01 -7.7322022124362533e-01  5.5723125805358353e-01 -7.7322022124362644e-01 -2.3407306079043314e-01 -1.6696681920568821e-01
8.727435897435898e-01 -3.7700182664693388e-01  9.2818991656039462e-02 -2.2879738111891063e-01 -8.8450136415023617e-01 -2.2879738111891224e-01 -8.8450136415024239e-01 -3.7432454071387167e-01  1.0062752787423651e-01
1.308615384615385e+00 -9.9468659647410113e-02  2.3063555614789510e-01 -8.8489441895174270e-01 -3.6277678571467964e-01 -8.8489441895175436e-01 -3.6277678571468619e-01 -9.4977012499432287e-02  2.3228225976348643e-01
1.744487179487180e+00 -7.4849357220320017e-02 -9.1697536242424868e-02 -7.3609480649246906e-01  6.4248259467156199e-01 -7.3609480649248926e-01  6.4248259467158275e-01 -8.5997832304429214e-02 -8.0470838784767310e-02
2.180358974358974e+00 -3.4667552845218147e-01  9.0986206503995609e-02  2.8283770587041485e-01  8.6814731286918334e-01  2.8283770587040136e-01  8.6814731286914970e-01 -3.3175974565897504e-01  1.3072640553097861e-01
2.616230769230769e+00 -2.9506864087308574e-02  5.4865435168302806e-02  9.5209304145356688e-01 -1.6754274322314142e-01  9.5209304145355333e-01 -1.6754274322314172e-01  2.5619901107581715e-02  4.4860757264953970e-02
3.052102564102564e+00  4.8353400923833037e-03 -2.3225050792352715e-02 -6.8198986503146886e-01 -6.2948524222359048e-01 -6.8198986503144887e-01 -6.2948524222358115e-01 -3.0882647786051418e-02 -5.7524196227694516e-02
3.487974358974359e+00 -9.4808955031730879e-01  2.2019179126879143e-01  1.3152760186441221e-02  7.0149079002893910e-02  1.3152760186442536e-02  7.0149079002895923e-02 -9.3987254494202244e-01  2.4680016488001541e-01
3.923846153846154e+00 -6.1853008183617253e-01  7.6630211339308019e-01  5.0034875555907297e-03  4.0129742430843243e-03  5.0034875555761311e-03  4.0129742430667923e-03 -5.9816442842636919e-01  7.7977559727407864e-01
4.359717948717949e+00 -2.3296985830687494e-01  9.5917102941377752e-01  3.7907859649893318e-04 -1.2342465204204822e-04  3.7907859649130419e-04 -1.2342465204377798e-04 -2.1348491081679005e-01  9.6176496972704284e-01
4.795589743589744e+00  1.2634477924493592e-01  9.7989219263554939e-01 -2.9151731280427823e-04 -7.7497353876041799e-05 -2.9151731279408076e-04 -7.7497353878119835e-05  1.3767189697534810e-01  9.7666286553985826e-01
5.231461538461539e+00  4.3943470625908110e-01  8.8521979733296385e-01 -9.9160818475365627e-05  1.1666640553630275e-04 -9.9160818505184548e-05  1.1666640555508178e-04  4.3939407343220954e-01  8.8367752723375659e-01
5.667333333333334e+00  6.9333463716832056e-01  7.0392345301798998e-01  3.5284309682958844e-04  2.9678264054959202e-06  3.5284309682588215e-04  2.9678264053773262e-06  6.8302586774451401e-01  7.1246707495732009e-01
6.103205128205129e+00  8.7579850133620751e-01  4.5540728553300908e-01  8.2491058702744769e-04 -7.3067470499350200e-04  8.2491058702547889e-04 -7.3067470499743516e-04  8.6079246488730699e-01  4.8186265814938206e-01
6.539076923076924e+00  9.7272899722476724e-01  1.5629700968098023e-01  8.2831196099254312e-04 -2.5775271135145567e-03  8.2831196099216018e-04 -2.5775271135128944e-03  9.6329357912850344e-01  2.0608170815769714e-01
6.974948717948719e+00  9.6575416522037860e-01 -1.7513515155015510e-01 -1.0824309470921698e-03 -6.3600134560051627e-03 -1.0824309470923205e-03 -6.3600134560061793e-03  9.7679879222887334e-01 -1.0170349557322458e-01
7.410820512820513e+00  8.2835053692532479e-01 -5.1242739282685523e-01 -9.6897257911929685e-03 -1.2926537574964921e-02 -9.6897257911932547e-03 -1.2926537574965495e-02  8.7824293423391364e-01 -4.2467855528402343e-01
7.846692307692308e+00  5.1770543071727027e-01 -8.0317636243266644e-01 -4.2228268275504723e-02 -1.7628067572442466e-02 -4.2228268275504952e-02 -1.7628067572442570e-02  6.2242618753377144e-01 -7.2852455867608645e-01
8.282564102564102e+00 -3.5219684379991283e-02 -8.7473754371437717e-01 -1.5648445136092051e-01  5.8977522459387581e-02 -1.5648445136092037e-01  5.8977522459387692e-02  1.0618842466832948e-01 -8.7125836291360070e-01
8.718435897435898e+00 -1.1236565501543752e-01 -3.2997487384469087e-01  3.1698359805982085e-01  5.1994619134231523e-01  3.1698359805981996e-01  5.1994619134231479e-01 -3.1020354775823225e-02 -3.0659874237607976e-01
9.154307692307691e+00 -4.1237081171522838e-01 -4.7133548164758521e-01  5.1250016864413994e-01 -3.4381232758061059e-01  5.1250016864414183e-01 -3.4381232758061037e-01 -2.5165758204784089e-01 -5.7380795357459202e-01
9.590179487179487e+00 -3.9570678532374359e-01  9.2557831150196279e-02 -2.0667685575010997e-01 -7.3168520366232770e-01 -2.0667685575011183e-01 -7.3168520366232703e-01 -4.1256275529770042e-01 -4.3944588393125927e-02
1.002605128205128e+01 -1.3027989136406229e-01 -2.1460546361019378e-01 -7.9415024917093024e-01  2.4374698011412926e-01 -7.9415024917092969e-01  2.4374698011412704e-01 -1.3057608952230107e-01 -2.2412477220633287e-01
1.046192307692308e+01 -7.0848745794765255e-01  2.8755395406283379e-01  1.5133735782800420e-01  4.3696919072099061e-01  1.5133735782800561e-01  4.3696919072098883e-01 -7.0578288851420756e-01  2.6887389134866724e-01
1.089779487179487e+01 -7.7666009629039107e-02  8.7176097932730778e-01  1.8361634350824621e-01  2.0887636589630009e-02  1.8361634350823530e-01  2.0887636589619282e-02 -4.5515456039242515e-02  8.6619429406333570e-01
1.133366666666667e+01  5.7756755894152967e-01  6.8752562384846949e-01  5.4890884608395356e-02 -4.5848239474419426e-02  5.4890884608396438e-02 -4.5848239474417053e-02  6.0603741572994396e-01  6.6010199351040133e-01
1.176953846153846e+01  8.7709310790435535e-01  2.3629339659552026e-01  4.9808275204600962e-03 -2.5843947679847594e-02  4.9808275204437091e-03 -2.5843947679843653e-02  8.8363289233580622e-01  2.1955096559674334e-01
1.220541025641026e+01  8.8853847129500574e-01 -2.1686215196613284e-01 -4.9109545599666403e-03 -6.2080910108774801e-03 -4.9109545599525014e-03 -6.2080910108753586e-03  8.9614879417275839e-01 -2.0184793679716320e-01
1.264128205128205e+01  7.1515432899828335e-01 -5.7466915444533750e-01 -2.8416598067098437e-03  3.6722909643314302e-03 -2.8416598067098542e-03  3.6722909643312194e-03  7.5154627880068914e-01 -5.3400373573392179e-01
1.307715384615385e+01  4.3710279045876022e-01 -8.0647587319245317e-01  1.4464310003105736e-03  7.4311901369914363e-03  1.4464310003092160e-03  7.4311901369919298e-03  5.1889971514638433e-01 -7.6138568627635761e-01
1.351302564102564e+01  1.1329347435419308e-01 -9.0783685278939052e-01  5.2317669665378676e-03  8.0355889918565272e-03  5.2317669665391496e-03  8.0355889918575733e-03  2.4122578465040381e-01 -8.8664940533710324e-01
1.394889743589744e+01 -2.0760935994934770e-01 -8.8471895552200408e-01  8.7685595738135665e-03  7.4823343972801300e-03  8.7685595738128692e-03  7.4823343972829871e-03 -5.0532188718702395e-02 -9.1101183476153313e-01
1.438476923076923e+01 -4.9830277217493785e-01 -7.5742962581199025e-01  1.2453996297230209e-02  5.4530207560399852e-03  1.2453996297228494e-02  5.4530207560399948e-03 -3.2981651638059745e-01 -8.4498022965556752e-01
1.482064102564103e+01 -7.2363915957935854e-01 -5.3846593026944811e-01  1.5926742516848200e-02  1.5928933864937155e-03  1.5926742516841952e-02  1.5928933864997755e-03 -5.7486727681234784e-01 -6.9174366868900350e-01
1.525651282051282e+01 -8.6054356219165140e-01 -2.5286836460869666e-01  1.7952570258728821e-02 -4.6544386574059651e-03  1.7952570258725611e-02 -4.6544386574056433e-03 -7.6151900640605075e-01 -4.6181043015338930e-01
1.569238461538462e+01 -8.8769048499968284e-01  7.1978750708691003e-02  1.6888726930259158e-02 -1.2202162335984932e-02  1.6888726930259796e-02 -1.2202162335984246e-02 -8.6359118488498565e-01 -1.6824581198592131e-01
1.612825641025641e+01 -7.8154703541836112e-01  4.0226710565712298e-01  1.4680882669992075e-02 -1.8140154447403262e-02  1.4680882669992302e-02 -1.8140154447401885e-02 -8.4634199955394063e-01  1.6954607870778582e-01
1.656412820512821e+01 -4.9058355351621702e-01  6.6569989662082574e-01  3.9462641532008458e-02 -4.0296913466889912e-02  3.9462641532005863e-02 -4.0296913466907211e-02 -6.2918099467187538e-01  4.9765166961274931e-01
1.700000000000000e+01 -2.2499479935921732e-01  7.5112602544145068e-01 -1.9853613657977828e-01 -1.0088117143690220e-01 -1.9853613657977920e-01 -1.0088117143690242e-01 -4.1823697300175289e-01  6.3187779057812021e-01
