# GHz S RI R 50

1.000000000000000e-03  7.0357503139157663e-04 -2.2630956349033119e-03  9.9923690009272093e-01 -5.7009907306741934e-03  9.9923690009272093e-01 -5.7009907306792354e-03  7.0357967569911566e-04 -2.2630905602829001e-03
4.368717948717949e-01 -2.1209940357701276e-01  1.7004425583721922e-01 -6.0214394445344233e-01 -7.3586033286679509e-01 -6.0214394445344377e-01 -7.3586033286679609e-01 -2.1297946362411391e-01  1.6895067659920071e-01
8.727435897435898e-01 -3.5035893671338864e-01  2.4062937071257558e-02  8.4673200935015902e-02  9.1097097465484500e-01  8.4673200935016291e-02  9.1097097465484689e-01 -3.4949014461641542e-01  3.2934943068840476e-02
1.308615384615385e+00  2.2930901983682780e-01 -5.0380769481062815e-01 -6.3577248811244313e-01 -4.0215393205326422e-01 -6.3577248811251941e-01 -4.0215393205332561e-01  2.5830732411377533e-01 -4.8688413943690811e-01
1.744487179487180e+00 -9.8167752972639777e-01 -1.1161317732032458e-01 -3.0334681057817047e-03  1.6243596157487210e-02 -3.0334681057818174e-03  1.6243596157487907e-02 -9.8061227162620124e-01 -1.2009174053024883e-01
2.180358974358974e+00 -9.1394693019616635e-01  3.8158435230743887e-01  5.4500838824209324e-04  2.1476647550494389e-03  5.4500838823718875e-04  2.1476647550513180e-03 -9.1573437792439694e-01  3.7723055837336267e-01
2.616230769230769e+00 -7.2112589628224755e-01  6.7976459870649375e-01  2.2749419250026531e-04  4.4283207289061102e-04  2.2749419256431946e-04  4.4283207290712130e-04 -7.2323092936126221e-01  6.7751559203239498e-01
3.052102564102564e+00 -4.8725883795712893e-01  8.6307965628981753e-01  5.2487093667159946e-05  1.8793265008790530e-04  5.2487093527777503e-05  1.8793265007352672e-04 -4.8905659668396895e-01  8.6205917961794765e-01
3.487974358974359e+00 -2.4062137965562014e-01  9.6136614844087465e-01  8.4563762362571641e-05  1.2889801334827055e-04  8.4563762358463843e-05  1.2889801334704801e-04 -2.4187483336266030e-01  9.6105062693630172e-01
3.923846153846154e+00  3.3067532870304792e-03  9.9078848521210983e-01  7.8178381163200838e-05 -1.0062777908916260e-05  7.8178381162694732e-05 -1.0062777908840879e-05  2.6844817072905480e-03  9.9079478636196927e-01
4.359717948717949e+00  2.3430357367257867e-01  9.6252835516987512e-01 -2.9472252491631951e-05 -3.9158555206505940e-05 -2.9472252489835973e-05 -3.9158555207054587e-05  2.3427525830304452e-01  9.6251882255465393e-01
4.795589743589744e+00  4.4550438027232542e-01  8.8460218883957153e-01 -8.4252530219067903e-05 -4.8648284020931989e-06 -8.4252530220021472e-05 -4.8648284016566144e-06  4.4601706794391366e-01  8.8434223571632198e-01
5.231461538461539e+00  6.3085871125200932e-01  7.6304680813673242e-01 -1.4032971298347162e-04  4.9411966673722323e-05 -1.4032971298277348e-04  4.9411966672954254e-05  6.3173652199130870e-01  7.6232634260425247e-01
5.667333333333334e+00  7.8502555762481085e-01  6.0203794444690406e-01 -1.7390433770086370e-04  1.8731702398502563e-04 -1.7390433770171661e-04  1.8731702398634782e-04  7.8602454957149592e-01  6.0075531131208648e-01
6.103205128205129e+00  9.0178566211399436e-01  4.0328983060484896e-01 -6.1030999305694844e-05  3.7687258759384337e-04 -6.1030999307150345e-05  3.7687258759663497e-04  9.0260114637918698e-01  4.0154115366022097e-01
6.539076923076924e+00  9.7130271594626438e-01  1.6423325069525210e-01  1.8823716046277036e-04  4.2263344489392921e-04  1.8823716046087639e-04  4.2263344489800782e-04  9.7167213966051702e-01  1.6257442483428683e-01
6.974948717948719e+00  9.7009282351112858e-01 -1.2828785200516921e-01  2.6160487431363822e-04  2.5115213372520602e-04  2.6160487431331367e-04  2.5115213372043223e-04  9.7048949818927155e-01 -1.2795972103064893e-01
7.410820512820513e+00  7.8437993805802986e-01 -5.2137939930186394e-01 -8.6763714080109102e-03 -1.4810453352792283e-03 -8.6763714080138193e-03 -1.4810453352831908e-03  7.9472506585074476e-01 -5.1241040866962773e-01
7.846692307692308e+00  3.4147470354374342e-02 -2.1648666889975654e-01 -6.4184564116145204e-02 -4.2314103221123328e-01 -6.4184564116146689e-02 -4.2314103221123450e-01  3.6697448684437438e-02 -3.3033546387668522e-01
8.282564102564102e+00  4.3001745741560993e-01 -5.3694826923236127e-01  3.1385975314221781e-01  2.9831194192801797e-01  3.1385975314222442e-01  2.9831194192802279e-01  4.3540724497534683e-01 -5.3857299937639702e-01
8.718435897435898e+00  1.7714006375600272e-01 -3.4204055802645708e-03 -3.4600149972161398e-01 -6.3478651324043833e-01 -3.4600149972161709e-01 -6.3478651324044133e-01  1.4490066827361667e-01 -4.0391754501886167e-02
9.154307692307691e+00  6.0898673773251577e-01  2.7616657624598424e-02 -1.3678147841291310e-01  5.2223796617245877e-01 -1.3678147841291280e-01  5.2223796617245377e-01  6.0340132253655621e-01  3.6429064517239367e-02
9.590179487179487e+00  2.0500717146206221e-01 -3.6959953930234590e-01  5.8705564648971154e-01  2.6868345586447507e-02  5.8705564648971031e-01  2.6868345586454540e-02  1.8894033116158401e-01 -3.7171318747314436e-01
1.002605128205128e+01  2.6207605236152770e-01 -9.0989051655026465e-02 -3.9072882147169086e-01 -3.9499042175477067e-01 -3.9072882147170646e-01 -3.9499042175477250e-01  2.2046483235511508e-01 -1.1572624406540175e-01
1.046192307692308e+01  7.5303867297427951e-01 -1.8673690567699006e-01 -1.6362475750176950e-02  1.7805056122720631e-01 -1.6362475750179500e-02  1.7805056122720583e-01  7.4579054617034068e-01 -1.4585509652917961e-01
1.089779487179487e+01  5.7285886572507760e-01 -6.1792916870931147e-01  7.5474884984834539e-02  4.6109888542229256e-02  7.5474884984834664e-02  4.6109888542228375e-02  5.7910243572146014e-01 -6.0204574807219313e-01
1.133366666666667e+01  3.4257118403583481e-01 -6.8122501563130800e-01  1.0541405476418029e-02 -7.5732852743852996e-02  1.0541405476422678e-02 -7.5732852743849721e-02  3.4198903214923604e-01 -6.6624452296434344e-01
1.176953846153846e+01  1.6402334356437775e-01 -8.3807711923532058e-01 -9.7487024519030754e-03  3.4828003144079436e-03 -9.7487024519043522e-03  3.4828003144051953e-03  1.7770179642670489e-01 -8.2806400295854454e-01
1.220541025641026e+01 -1.3406168031273333e-01 -8.6474335872545727e-01  2.5366429642472233e-03 -6.0252303691626756e-04  2.5366429642470524e-03 -6.0252303692188362e-04 -1.2321675220026328e-01 -8.6304151444281396e-01
1.264128205128205e+01 -4.1239337630634554e-01 -7.6378927674838348e-01  1.5164106039314233e-03 -6.2571709414584765e-03  1.5164106039325513e-03 -6.2571709414593274e-03 -4.0409750246596648e-01 -7.6782154465116104e-01
1.307715384615385e+01 -6.3354423496996581e-01 -5.6727886641985659e-01 -4.6957874454895045e-03 -8.8261322555376678e-03 -4.6957874454876180e-03 -8.8261322555334646e-03 -6.3010056480465193e-01 -5.7299417037287881e-01
1.351302564102564e+01 -7.6975484669762784e-01 -2.9716999533318994e-01 -1.2992922624026756e-02 -6.8306226143302054e-03 -1.2992922624034130e-02 -6.8306226143255572e-03 -7.6976144109710953e-01 -3.0334939323445764e-01
1.394889743589744e+01 -7.5133781284217516e-01  3.4441668229881796e-02 -5.3151761565641602e-02 -1.0056349747309354e-02 -5.3151761565645633e-02 -1.0056349747311354e-02 -7.5726616974590188e-01  2.6887191797599325e-02
1.438476923076923e+01 -6.5659753712153901e-01  2.4818072522275064e-01  7.7348982165152277e-02  6.9172889982123925e-02  7.7348982165163990e-02  6.9172889982120983e-02 -6.5496838013970105e-01  2.4856296337502967e-01
1.482064102564103e+01 -5.6450892962249277e-01  4.1135763633590322e-01  6.7517470556712608e-03 -3.4539166097009813e-02  6.7517470556605558e-03 -3.4539166097010049e-02 -5.7352747302866369e-01  4.0522539730211116e-01
1.525651282051282e+01 -3.2334919745101298e-01  5.7014446016782983e-01 -2.7537814368426275e-03 -1.6183623129366612e-02 -2.7537814368573175e-03 -1.6183623129371487e-02 -3.3342754348752701e-01  5.7146523236610680e-01
1.569238461538462e+01 -9.3689402250955914e-02  5.6074171847519394e-01 -1.5102668876930977e-02 -4.5551815225449857e-03 -1.5102668876940424e-02 -4.5551815225552796e-03 -9.6516535875741924e-02  5.6357626413836903e-01
1.612825641025641e+01  5.2811848455330351e-02  6.3828008541753456e-01 -1.6347360513101724e-03 -2.2395890722437188e-02 -1.6347360513079415e-03 -2.2395890722445452e-02  2.1607630720986214e-02  6.1430702750089639e-01
1.656412820512821e+01  4.9058172048441484e-01  4.0387219705210797e-01 -1.6578065268941899e-02 -3.2826771012222408e-02 -1.6578065268935054e-02 -3.2826771012228410e-02  4.5194541831485863e-01  4.5851729286536075e-01
1.700000000000000e+01  2.2929277200091075e-01 -1.7126868604067955e-01  4.4831293011007838e-03  2.7785912558235485e-02  4.4831293011016356e-03  2.7785912558233625e-02  3.1377338714014641e-01 -1.6108968837200743e-01
